#  HZ   S   RI   R     50.00 
! Rohde & Schwarz Vector Network Analyzer 
! Rohde-Schwarz,ZNBT8-20Port,1318700624101681,3.50
! Created: UTC 7/15/2025, 2:10:07 PM
! freq[Hz]                re:S1010                im:S1010                re:S0510                im:S0510                re:S1005                im:S1005                re:S55                  im:S55
 1.000000000000000E6    -9.054502018833844E-1   -2.814906655064984E-3   -6.977793931261046E-5    1.905309075758986E-4    2.305830792245265E-4    1.135586263503461E-5    9.779618065143403E-1    2.725777866801155E-2
 2.000000000000000E6    -8.930613128660054E-1   -1.349962337627870E-2   -2.765642304195973E-4    5.304585171442405E-5    1.118663933370231E-4   -2.996789402802561E-4    9.681795906957571E-1    1.041733846706207E-2
 3.000000000000000E6    -8.989936299746627E-1   -7.364997227736721E-3    2.292997435516430E-5    2.639388063292442E-4   -2.263462199290063E-4   -1.309744027529930E-4    9.773695025815711E-1    1.115834026342432E-2
 4.000000000000000E6    -9.027105009147625E-1   -6.248666343766043E-3   -1.105787756914577E-4   -3.112258979950920E-5    2.625041592853822E-4    8.394684987016051E-5    9.821593499469456E-1    1.304905444252860E-3
 5.000000000000000E6    -9.070150681589274E-1   -7.191334537387757E-3   -2.970921749464541E-4   -5.958219006302577E-5   -1.907557589679264E-4   -1.482204128549287E-4    9.740152630426615E-1    9.065789008744142E-3
 6.000000000000000E6    -9.057338153437623E-1   -2.968040133615210E-3   -4.184998020270110E-5   -3.168590640801303E-5   -3.368132053282674E-4   -3.141754320505381E-4    9.715552344128912E-1   -3.041211140683895E-3
 7.000000000000000E6    -9.165077748564960E-1    2.763262079958668E-3    2.024686515402305E-4    1.343982204828858E-4   -1.702827724506385E-4    4.806169250020890E-4    9.741768731172475E-1   -1.033559583453226E-2
 8.000000000000000E6    -9.024188912328205E-1    6.874134858666518E-3   -6.869791022335128E-5   -1.484164443662222E-4    1.072038047306748E-4   -2.407000086642516E-4    9.815385918316203E-1   -6.751260079088870E-3
 9.000000000000000E6    -8.986451127119774E-1    1.901939276141550E-2   -1.635766501797163E-4    1.333407036575845E-4   -1.015042338879297E-4    1.945119112457154E-4    9.864951001490031E-1   -1.542400660887119E-2
 1.000000000000000E7    -8.973717358966967E-1    2.445485332286645E-2   -5.515276143370866E-5   -7.817377843518087E-5   -4.028734351818709E-5   -2.384025619358885E-4    9.795143217924887E-1   -2.014178729095979E-2
 1.100000000000000E7    -9.062515598036934E-1    9.297385017131395E-3   -4.056714476780033E-4   -3.527709495752572E-5    1.876720925564831E-4   -6.400753359727552E-5    9.805355965722543E-1   -1.490532768956013E-2
 1.200000000000000E7    -9.017769649507558E-1    1.834586675121592E-2    2.297374518573205E-4    9.053460560737600E-5   -1.898297937448620E-4    2.676956128295696E-4    9.717996659488775E-1   -1.139316999826424E-2
 1.300000000000000E7    -8.987530752996906E-1    2.282053868352564E-2    5.490060419872085E-4    2.067905819927607E-4   -1.286585844553284E-4   -1.644218552202009E-4    9.778031416718330E-1   -1.697831161790339E-2
 1.400000000000000E7    -9.011982621300915E-1    2.012076292847212E-2   -7.214580834738868E-6    4.076166877813581E-5    7.864436486701551E-5   -2.151775907440749E-4    9.787712950147981E-1   -1.543666997959504E-2
 1.500000000000000E7    -9.023736479088300E-1    1.956146026878884E-2    2.293724861651224E-4   -1.613479881861777E-4   -6.938250676419100E-5   -4.616184055198431E-5    9.721504630038607E-1   -9.020071906750653E-3
 1.600000000000000E7    -9.069767682533896E-1    2.604211460049205E-2   -4.194859035921670E-4    2.947936567334439E-4   -8.988009171605206E-5    1.616631069465423E-4    9.789258329322578E-1   -2.734218587340516E-2
 1.700000000000000E7    -9.054289825950439E-1    3.347983768855870E-2   -3.868555438176471E-4   -9.740196678338125E-5   -8.560717439031154E-5    3.153688478084702E-4    9.821017917381338E-1   -2.706141878957113E-2
 1.800000000000000E7    -9.028895761735439E-1    2.594729543656383E-2   -7.192526115646853E-5   -5.176605479568133E-5    1.267371626174276E-4    8.281261446237769E-5    9.811592299402870E-1   -3.405295666912416E-2
 1.900000000000000E7    -9.064291816876793E-1    3.183025210630794E-2    3.616306018377575E-4   -1.401442312441720E-4   -8.473684813248561E-5    1.668850500262085E-4    9.810177798630513E-1   -2.205017420912129E-2
 2.000000000000000E7    -9.002303005536492E-1    3.468160625876955E-2    1.882727657028914E-4   -2.126581975259099E-4    2.202328344137995E-6   -1.476157353046443E-5    9.763255321118063E-1   -3.087209336280766E-2
 2.100000000000000E7    -8.935789536329816E-1    2.898369841794279E-2   -1.459147110370248E-4    2.462660420947073E-5    1.520977025680857E-4    2.911558043847256E-5    9.731046582460795E-1   -4.207683346270288E-2
 2.200000000000000E7    -9.020214150616418E-1    3.170807991823338E-2    2.472926986360179E-4   -1.497638662417741E-4    4.462521014379053E-4    2.845587405153141E-4    9.763528480529030E-1   -4.811621988045502E-2
 2.300000000000000E7    -8.929425347896681E-1    2.342734822164342E-2   -2.276766423115309E-4    1.753438214955984E-4   -2.270368316455666E-4   -6.151198190730111E-5    9.691276126177059E-1   -3.751884699830504E-2
 2.400000000000000E7    -8.937635485629041E-1    4.428998457530200E-2    4.559721150873761E-4   -6.267027180484582E-6    2.059637014462979E-4    1.359735070174548E-4    9.885787432877917E-1   -2.627356003388676E-2
 2.500000000000000E7    -8.878959270270349E-1    5.844025151495565E-2   -2.115885450314067E-5   -1.082592527539724E-5    3.426450696102975E-4    3.539375257432176E-4    9.821702868924552E-1   -3.932063802467617E-2
 2.600000000000000E7    -9.013117978800330E-1    4.007694608444717E-2    7.947404813127773E-4   -5.352786866015634E-4    2.459672114013744E-4   -5.102342562102679E-4    9.752409678176591E-1   -2.042935141538426E-2
 2.700000000000000E7    -9.012949634350228E-1    4.231570015405189E-2   -1.833715105498877E-4    3.814447047441047E-4   -4.523330103870476E-4    4.411749209196961E-5    9.716532052308362E-1   -2.678682582474539E-2
 2.800000000000000E7    -8.975313434179206E-1    4.240408524627599E-2   -1.327330311924822E-4    8.926261963902847E-4    3.512975803254765E-4    9.143117793440515E-5    9.728797393773047E-1   -1.152289824867524E-2
 2.900000000000000E7    -9.016553754954277E-1    4.648608539483789E-2   -1.584169727532728E-4    8.165283983839648E-4    4.893152148705897E-4   -3.114247460988663E-4    9.719413088907766E-1   -1.511553454545341E-2
 3.000000000000000E7    -8.988118692958373E-1    4.893987116695198E-2    3.741966622669773E-5   -2.545849330972453E-4    4.759063990602046E-4   -3.939551566373335E-4    9.671341892313761E-1   -2.460313109475819E-2
 3.100000000000000E7    -8.995339223728841E-1    4.958931208239512E-2    6.697287316441310E-5    2.516506644870776E-4   -1.995249867974817E-6    3.057580282712616E-4    9.719494816546703E-1   -2.016865538490629E-2
 3.200000000000000E7    -8.990556659009856E-1    4.472447356637945E-2   -3.523768597857903E-4    8.652183735453943E-4   -2.794883096048338E-4   -2.424496950632282E-4    9.763320006845188E-1   -2.174507248847240E-2
 3.300000000000000E7    -8.980282125487604E-1    4.627386742186820E-2   -6.833372191258928E-5   -4.182668424233630E-6   -2.160094795666405E-5    1.603770749938386E-4    9.712770948103507E-1   -2.267208787130954E-2
 3.400000000000000E7    -9.007778933670818E-1    4.957967565100428E-2   -1.588048692263387E-4    9.152049692845578E-4    4.716099096755727E-4    2.985317936873899E-4    9.709530709050000E-1   -3.021384054847101E-2
 3.500000000000000E7    -8.990341004132131E-1    5.302130416947647E-2    1.175597691277461E-4    2.054264513747085E-4   -6.287670269029193E-4   -2.599370765749135E-4    9.751058588240838E-1   -2.523757704923100E-2
 3.600000000000000E7    -9.095883992285450E-1    6.164918934631012E-2   -7.844499499165494E-5   -5.590438907010645E-4    6.749641681522007E-4   -5.928407662161362E-4    9.714749342056822E-1   -3.111185751010262E-2
 3.700000000000000E7    -8.971640657358069E-1    5.823893445142569E-2   -5.054177965045273E-5    4.689396042262789E-4    4.143192861527162E-4    3.006377358974424E-4    9.666859115026459E-1   -2.992502356027711E-2
 3.800000000000000E7    -8.998582695416065E-1    5.544409525158901E-2    1.699610914699119E-4   -9.275448211008543E-4    1.078397756031996E-4    3.826502310101770E-4    9.669227441317492E-1   -3.290630841962593E-2
 3.900000000000000E7    -9.033417926451166E-1    6.053669007289998E-2    4.251062259899477E-4   -2.135902324969982E-4   -9.944537359741286E-5   -3.620971654891182E-4    9.679456178947633E-1   -2.892605291856529E-2
 4.000000000000000E7    -9.018211393462051E-1    5.778527399664381E-2   -5.911667292573315E-4    4.356259900006131E-4   -3.574488640273482E-4   -3.928853453717673E-4    9.697820209365511E-1   -3.358716457923568E-2
 4.100000000000000E7    -9.013479608559963E-1    6.320944728380631E-2    4.065183905271171E-4    4.524744198116849E-4    1.286080813608905E-4   -2.397885041186403E-5    9.674596725350494E-1   -4.045297877475527E-2
 4.200000000000000E7    -8.968284570805575E-1    6.318804047116161E-2   -3.700013569387727E-4   -1.149112192373777E-4   -7.731855363583726E-5   -5.824980911023510E-4    9.720470826396154E-1   -3.552917174793140E-2
 4.300000000000000E7    -8.934251058982439E-1    6.761479524135333E-2   -2.423986554375878E-4   -4.217335567645391E-4    7.429552877173720E-5   -1.146115440459488E-4    9.698673696224968E-1   -3.317526231651343E-2
 4.400000000000000E7    -8.944382674539254E-1    6.584663990479898E-2   -9.510124137578641E-4   -1.321040187281971E-4   -1.580422517275596E-4    8.725590292921340E-5    9.670508786239476E-1   -3.705127228761555E-2
 4.500000000000000E7    -8.960901799961423E-1    6.481063916975824E-2   -2.718333363453074E-4    1.265998334403440E-4   -7.214778888858528E-4    6.079360847808020E-5    9.664178392998042E-1   -3.842828114636529E-2
 4.600000000000000E7    -8.922019172209545E-1    7.104573908660494E-2   -2.050857313242484E-4   -3.350036639600038E-4    9.179848425725234E-4   -7.942374415611183E-5    9.669488748610663E-1   -4.609396922969904E-2
 4.700000000000000E7    -8.964088867223333E-1    7.058326089386503E-2    7.420360192482444E-5   -8.710925221284600E-4    1.244283900903586E-4    2.531530785303368E-5    9.712164380632613E-1   -4.634166059606761E-2
 4.800000000000000E7    -8.991775200615478E-1    6.402873158891779E-2   -4.213569410290102E-4    2.380789137583366E-4    2.590929076145624E-4   -5.810054864355511E-4    9.674614023154345E-1   -3.736327734889790E-2
 4.900000000000000E7    -8.981707339132293E-1    7.130004714980213E-2    3.840313029832811E-4   -4.125655725255284E-5   -5.959050726268242E-4   -3.655914093954716E-4    9.618303010795947E-1   -4.863378856845322E-2
 5.000000000000000E7    -9.020644575655671E-1    7.019381940351983E-2    1.835207214350604E-4   -3.364964672318728E-4    2.737537099817269E-4   -1.672680363046040E-5    9.641301884006701E-1   -4.890263744439102E-2
 5.100000000000000E7    -8.975284591057550E-1    7.417740066513981E-2    7.503381517082160E-6    9.810297317835920E-5    2.197529559702007E-4    3.993376672263335E-4    9.620869284985661E-1   -4.641278178352824E-2
 5.200000000000000E7    -8.976919446951324E-1    7.199275322270533E-2   -3.583737118909490E-4    2.076942651912773E-4   -1.378702088104584E-4    2.413434784465622E-4    9.655841856456917E-1   -5.801536659074957E-2
 5.300000000000000E7    -8.970835485586771E-1    7.705870640647103E-2   -2.823659124664471E-5    2.061029630485492E-4    4.702127262971067E-4   -5.560757676070422E-4    9.705038953660952E-1   -5.476150877271781E-2
 5.400000000000000E7    -8.939602536324404E-1    8.010284214451489E-2   -6.209144102180043E-4   -7.600234131373780E-6    1.377249078572665E-4    4.356018180293352E-5    9.626256409239410E-1   -5.582252936381999E-2
 5.500000000000000E7    -8.964702698903204E-1    7.901303916002099E-2   -1.818064045516145E-4    3.829404511905180E-4    4.366286461702438E-4   -8.775813161447682E-4    9.670521480192232E-1   -5.667092617000923E-2
 5.600000000000000E7    -8.980009242197272E-1    8.251867087749838E-2   -3.878073221139675E-4   -2.837014830474112E-5   -7.841358856854537E-6    3.871922827082554E-4    9.680269489860288E-1   -5.583909160052342E-2
 5.700000000000000E7    -8.933493281579306E-1    8.373115132433241E-2    1.403368042428229E-4   -1.691255828039672E-4    3.383292862301968E-4    5.888411410695112E-7    9.658034828066963E-1   -7.208886893308333E-2
 5.800000000000000E7    -8.929837892589962E-1    8.369606628103828E-2   -4.048007543081781E-4    7.100453931359221E-4    3.722545810171917E-4   -5.588676271970721E-4    9.675410144461728E-1   -6.692477521021487E-2
 5.900000000000000E7    -8.907504993794850E-1    8.351218031825586E-2    2.074575265081748E-4   -2.805906164092649E-4   -3.146863880494494E-4   -1.133717103522609E-4    9.662104573062396E-1   -6.813595832250650E-2
 6.000000000000000E7    -8.927096152423459E-1    8.284835008400228E-2    3.814954148239628E-4   -5.286592589817828E-4    1.332882968728714E-4    5.050227105917978E-4    9.713835192665857E-1   -6.880682606280526E-2
 6.100000000000000E7    -8.925613252461987E-1    9.287546773167499E-2   -8.562581331105846E-5   -5.275651659647900E-4   -2.042610233004399E-4   -7.119527446158893E-4    9.669746948764050E-1   -7.604803764535069E-2
 6.200000000000000E7    -8.956360910843582E-1    8.958438796661905E-2   -1.259552396894352E-4   -3.206089682449441E-4    3.600563476827480E-4   -6.382812396068144E-5    9.683418303564872E-1   -7.199668091745548E-2
 6.300000000000000E7    -8.883982931053854E-1    8.641878110080024E-2   -6.905961921407738E-5    2.099708752373452E-4    3.522533359068316E-4   -4.106370943420834E-4    9.657951133295979E-1   -8.317425343843260E-2
 6.400000000000000E7    -8.901203369815162E-1    8.950733224553960E-2    8.318854960890509E-4    4.438436115566387E-4    6.500089501230797E-5   -8.398341698225824E-5    9.728092118564019E-1   -8.031663294887531E-2
 6.500000000000000E7    -8.900014444309374E-1    9.409505223212303E-2    1.612797068663349E-4   -1.307399806031944E-3   -6.856847151373730E-4   -8.880691649570704E-4    9.637739635355684E-1   -8.269515768132514E-2
 6.600000000000000E7    -8.959758893284305E-1    9.559109482702147E-2    4.704968377685363E-4    1.149759992122862E-4   -5.233131657580520E-5   -4.817144175760567E-5    9.614386049440959E-1   -8.523588708473567E-2
 6.700000000000000E7    -8.959468589652698E-1    9.117075323301484E-2    5.214338571397025E-4   -2.025074354520868E-4    4.010490237046415E-4    1.497766183518092E-4    9.614349645649747E-1   -9.335944917984607E-2
 6.800000000000000E7    -8.916217228991999E-1    9.864265926878713E-2   -1.910791325645533E-4   -2.026023150228186E-4   -3.735652227512605E-5    5.087898798697764E-4    9.615202231648292E-1   -9.237905864860871E-2
 6.900000000000000E7    -8.930192801545523E-1    9.384854287954672E-2    4.806955470036808E-5    2.102260951187981E-4   -4.116139241573331E-4   -7.099542382704757E-4    9.657401769180446E-1   -8.627244308498773E-2
 7.000000000000000E7    -8.933763848239120E-1    9.623015437490330E-2   -1.737766518199977E-4    2.964775641199609E-4   -1.961312745325611E-4   -2.937007253178144E-5    9.623143396056486E-1   -9.574353106913339E-2
 7.100000000000000E7    -8.904864578586349E-1    9.906761323906954E-2   -8.269163456840542E-5   -3.615822929703199E-4    8.635155495495219E-4    6.152095630765305E-4    9.648158933987312E-1   -8.879159232289180E-2
 7.200000000000000E7    -8.931336828433019E-1    1.046821465468801E-1   -2.468148995941319E-4    1.388643405688454E-4    3.925900827018942E-5    3.646253979209747E-4    9.650451025909925E-1   -9.289852554385142E-2
 7.300000000000000E7    -8.937498841187023E-1    1.022722282167995E-1   -6.743785495279812E-6    4.581473765352996E-4   -1.750632311586338E-4    6.603213911665320E-5    9.728816029204146E-1   -1.038060469795444E-1
 7.400000000000000E7    -8.872062659775783E-1    1.041881302847501E-1    1.198774915489696E-4   -2.154357209257570E-4    4.020999248420097E-4   -1.977957509457540E-4    9.691167192835897E-1   -1.021639248673340E-1
 7.500000000000000E7    -8.921385666996383E-1    1.077454863592967E-1   -1.124134376213967E-3   -2.519019164642361E-4    3.748643202650263E-4   -7.267510491899404E-4    9.599119275030819E-1   -1.031764235631175E-1
 7.600000000000000E7    -8.890662367479424E-1    1.048586926828171E-1    2.141797579652531E-4    3.246554921838454E-5    4.301974576247259E-4    3.535782223724362E-4    9.604993991457051E-1   -1.022660314791880E-1
 7.700000000000000E7    -8.926786173900451E-1    1.063288886992679E-1   -6.545589465902781E-5    1.706799958802008E-4   -7.409941263410592E-4   -1.882962360496353E-4    9.628111957307222E-1   -1.057678897501595E-1
 7.800000000000000E7    -8.890453198868308E-1    1.024457058848053E-1    1.565715055763236E-4   -1.962157701426575E-4    1.767723286449870E-4   -7.691087913787859E-4    9.557832406698802E-1   -1.050741905711171E-1
 7.900000000000000E7    -8.840704011906567E-1    1.090818316369648E-1    6.094771285901631E-4    3.055970806526026E-4    2.510998469548353E-4   -4.917866677237346E-4    9.558082705297308E-1   -1.091822278501859E-1
 8.000000000000000E7    -8.917915149338321E-1    1.147296446379709E-1    2.134296957207783E-4    2.531974658888375E-4   -3.452894585808352E-5   -7.661340075500892E-4    9.598002471025103E-1   -1.113797562429424E-1
 8.100000000000000E7    -8.847454211851384E-1    1.134046961427278E-1   -1.594045298407369E-4    4.813583836826907E-4    7.083203940826294E-5   -5.483720355113431E-4    9.613994230076724E-1   -1.107573664223023E-1
 8.200000000000000E7    -8.861152627636374E-1    1.091876269351188E-1    7.087285191942918E-4    4.851393766070883E-6    5.140781738146910E-4   -1.342053638634468E-4    9.594749255073984E-1   -1.089954084055981E-1
 8.300000000000000E7    -8.852917860363252E-1    1.150888568974418E-1   -6.585725316908194E-4   -5.211353281092013E-5   -9.138904425134882E-5   -5.633666371687522E-4    9.609428341532484E-1   -1.108261475671201E-1
 8.400000000000000E7    -8.853914175063058E-1    1.146457379587270E-1    4.853759828728358E-4    2.929850379685068E-4    7.616450067597155E-4    4.545043090884936E-4    9.595857533672077E-1   -1.106092006340917E-1
 8.500000000000000E7    -8.883168570059363E-1    1.143002020222489E-1    2.440695125153995E-4   -7.121646900379367E-4    6.399929083008410E-4    2.249723744589103E-4    9.608686531877700E-1   -1.152632639017753E-1
 8.600000000000000E7    -8.842276378138960E-1    1.203991855585576E-1    1.093571085558499E-4    9.805592488850195E-5    7.218380029570393E-5    5.054952987912081E-4    9.662015390816986E-1   -1.173344326627654E-1
 8.700000000000000E7    -8.910733831244142E-1    1.236403696480350E-1   -1.204754576778935E-4    4.981999680621642E-4   -3.080023206167291E-4    4.092763471438728E-4    9.609877393540806E-1   -1.182806783750797E-1
 8.800000000000000E7    -8.872983296629571E-1    1.218690806654391E-1    7.408761169231545E-4   -2.539613650893339E-4   -6.150445344145183E-5    6.049132481010152E-4    9.613582577774400E-1   -1.169063551715562E-1
 8.900000000000000E7    -8.883102258099806E-1    1.204964304816428E-1   -5.047502315319759E-5   -5.170115256035140E-5   -2.551474417539724E-4    5.426617056521559E-4    9.602557995929712E-1   -1.181090040287506E-1
 9.000000000000000E7    -8.904282891491054E-1    1.229414854816670E-1   -7.675625160487786E-5   -4.894189273792449E-4   -6.219693447014068E-5    3.544272230012103E-5    9.571104319217407E-1   -1.198616202684201E-1
 9.100000000000000E7    -8.823817875412222E-1    1.293077403360198E-1    3.867894508544634E-4    3.353785038425693E-4   -3.496258108136131E-4   -7.006270107599105E-4    9.618692503807416E-1   -1.254973877467043E-1
