#  HZ   S   RI   R     50.00 
! Rohde & Schwarz Vector Network Analyzer 
! Rohde-Schwarz,ZNBT8-20Port,1318700624101681,3.50
! Created: UTC 7/15/2025, 2:12:31 PM
! freq[Hz]                re:S1010                im:S1010                re:S0510                im:S0510                re:S1005                im:S1005                re:S55                  im:S55
 1.000000000000000E6    -8.979521242010421E-1   -4.888212271906587E-3   -2.068092122126050E-4   -3.056700164644305E-4    6.116362439861588E-5   -1.594978907504196E-4    9.815932436572806E-1    2.385633595464138E-2
 2.000000000000000E6    -8.935699814079071E-1   -7.556697289362905E-3   -5.555625235954681E-5   -1.452175957312451E-4    1.192279937229272E-4   -9.682454344272842E-5    9.684818359709487E-1    7.023881002377467E-3
 3.000000000000000E6    -9.016055733376915E-1   -1.417223623325801E-2    1.966439986602795E-4   -2.613023216890014E-4    4.131268731436724E-4    3.809595263076578E-5    9.710992978237114E-1    9.490817599849695E-3
 4.000000000000000E6    -9.006761261079551E-1   -1.162405532370878E-2    8.876440716963346E-5   -9.044566648577132E-5    1.000257552643500E-4    6.286767066401465E-5    9.836085903725391E-1    2.743586255918662E-3
 5.000000000000000E6    -8.936561659413651E-1   -3.697570056371352E-3    2.290626401959256E-4   -1.982062041431066E-4    4.003497833772167E-4    8.774759043319820E-6    9.694420309923599E-1    3.336981609168549E-3
 6.000000000000000E6    -8.961665265122750E-1    2.806788610515898E-3   -1.412403653110017E-4   -2.651241775236091E-4   -3.362069493548591E-4   -2.414261446857358E-4    9.716232312660412E-1   -7.519959667983554E-3
 7.000000000000000E6    -9.079724571667298E-1   -3.049213958972165E-3   -2.085969648287824E-4   -2.286365488575974E-4    2.127593212022010E-4   -1.292021494216726E-4    9.748632019395229E-1   -9.473327604219252E-4
 8.000000000000000E6    -9.008345344870579E-1    1.540073154758421E-2   -1.437422320765061E-4    1.172800972635854E-4   -3.174825538347254E-5   -1.922891866096733E-5    9.796364165276600E-1   -3.966716907745103E-3
 9.000000000000000E6    -8.990419834590773E-1    1.171953632208059E-2    1.948431353307185E-4   -2.419400010916960E-4    4.359337099553313E-4   -5.925636410128291E-4    9.837742885396409E-1   -1.378877609161681E-2
 1.000000000000000E7    -8.934929230677980E-1    1.330326149422939E-2    5.803054812060189E-4   -6.135199614481254E-5    3.266399994798035E-4    1.970933701538372E-4    9.735994740318195E-1   -2.232816655257879E-2
 1.100000000000000E7    -9.047887766234121E-1    1.508251141667258E-2    1.197770214668528E-4    2.463673463982492E-4   -1.457026701840634E-4    1.613799736006560E-4    9.737480304994073E-1   -1.520647534876919E-2
 1.200000000000000E7    -8.995290879937544E-1    9.544632202887864E-3    3.656461172133863E-4   -2.607380279242958E-4    4.423360958287622E-4   -1.670629420937485E-4    9.745941699791488E-1   -1.479705218354823E-2
 1.300000000000000E7    -8.998288284128049E-1    2.931820562860579E-2    2.025391005598282E-4   -7.833630496177568E-5   -1.597241431590618E-4   -4.305605877357990E-5    9.798225043448779E-1   -1.685073732623312E-2
 1.400000000000000E7    -9.045031529786799E-1    1.964640742103115E-2   -1.480644886637772E-4    3.216142693397709E-4    3.502367129830705E-7    1.187283253684490E-4    9.790971471785518E-1   -2.196459898921760E-2
 1.500000000000000E7    -9.035548194422335E-1    2.166868719616466E-2    1.407202729565578E-4    3.251615889909926E-4   -3.034538330555423E-4    7.050867810070209E-5    9.769961210181856E-1   -1.050660961554287E-2
 1.600000000000000E7    -9.010866444221430E-1    2.553193056647573E-2    1.993860604677100E-4   -2.245017479238808E-4    1.221659496983947E-4   -5.348011451840848E-6    9.801732038968569E-1   -2.631342134405550E-2
 1.700000000000000E7    -9.027507221811514E-1    2.736937918638225E-2    7.662451094945972E-5    6.150551495766427E-5   -1.608223538458525E-4   -4.080165330444949E-4    9.840423346761693E-1   -2.241056146207176E-2
 1.800000000000000E7    -9.040844098710494E-1    2.656270059275156E-2    2.686001570357770E-5   -5.348949613939054E-5   -6.836561628716729E-4   -1.655293007148775E-4    9.747697412573307E-1   -3.268319793418671E-2
 1.900000000000000E7    -8.984607459256745E-1    3.155245320617277E-2   -2.988422038161877E-4   -3.518221428639428E-4   -3.019094280313331E-4   -1.635372301524182E-4    9.763937062367365E-1   -2.359378247726526E-2
 2.000000000000000E7    -8.997689492020342E-1    3.445309732584680E-2   -2.296869669519135E-4    3.344641222549030E-5   -4.176393933199062E-4    2.406511206725944E-4    9.729883577927870E-1   -3.286532987318345E-2
 2.100000000000000E7    -8.962736382019413E-1    3.214419729504051E-2   -5.021227735369687E-6    1.548658341952342E-4   -4.747719111993299E-4    2.445787492475001E-5    9.792857100169936E-1   -3.652517136290533E-2
 2.200000000000000E7    -8.966123196158921E-1    3.194022380253038E-2    2.255258817479146E-4   -7.220111172369457E-5   -4.342173909317603E-5    1.908704677409353E-4    9.740934437159067E-1   -4.118489466414925E-2
 2.300000000000000E7    -8.980198448506340E-1    3.748269365586088E-2    2.883742344447216E-5    1.337495421657619E-4   -3.437283880265643E-4    6.874436552236376E-6    9.851419331687764E-1   -3.932128148234151E-2
 2.400000000000000E7    -8.975681447914443E-1    4.382442161948105E-2   -4.937562621696960E-5    6.933060833852544E-5   -7.141604676822244E-5   -1.677491149176296E-4    9.859952736394089E-1   -1.326345295362513E-2
 2.500000000000000E7    -8.857923303357780E-1    3.940599106541567E-2    2.371889626832238E-5   -3.158504755060494E-4   -2.042521362126218E-4    1.790762602073549E-4    9.744319753482334E-1   -4.395690373070636E-2
 2.600000000000000E7    -8.994611137733717E-1    4.478741438840592E-2   -4.025213859662776E-4    5.158247021588428E-4    1.602934097312177E-4    1.341929768763546E-4    9.772122896704505E-1   -1.315194155434352E-2
 2.700000000000000E7    -8.983637749303907E-1    4.383897327192367E-2    2.475174474318549E-4   -1.556021807767222E-4   -2.638223137390606E-4    1.095509709111679E-4    9.749401338402557E-1   -2.071913806925354E-2
 2.800000000000000E7    -8.989513912338800E-1    4.442223705259630E-2   -2.281389400782061E-4    3.872133222508228E-4    2.247844628474624E-4    4.164071165121847E-4    9.774522659025751E-1   -1.804862362645238E-2
 2.900000000000000E7    -8.909385216561224E-1    4.763358239140878E-2   -3.433498329029313E-4   -1.942119314199279E-4   -4.467085458949131E-5   -2.031149767757755E-4    9.700151737914898E-1   -1.809509382810524E-2
 3.000000000000000E7    -8.970647401405278E-1    4.776843487856975E-2    3.833555424377355E-4    4.063805684625986E-4   -2.734716485355236E-4    2.586731552706203E-4    9.697604135883697E-1   -2.782157176425883E-2
 3.100000000000000E7    -8.959643937416836E-1    5.014853580866695E-2   -3.050934407094771E-4   -2.219021640386004E-5    8.893068087183066E-7    1.460517965602849E-4    9.737811651067646E-1   -2.234991571209537E-2
 3.200000000000000E7    -8.938950332708073E-1    4.899572091289821E-2    3.534489466038986E-4    1.164624855036385E-4    3.639827613930557E-4   -3.135382718311976E-4    9.761282280346798E-1   -2.458157811144546E-2
 3.300000000000000E7    -8.997907763875086E-1    5.953114979646484E-2    1.784952253407915E-4    1.945947983324183E-4    1.219596603417225E-4   -6.775379138474996E-4    9.684814587855076E-1   -2.372925074095408E-2
 3.400000000000000E7    -8.981610113545168E-1    5.637003384833399E-2   -6.983775589623802E-4   -2.444720627862305E-5    2.766740385925781E-4    6.343973970805248E-4    9.704787271380529E-1   -3.008461421577679E-2
 3.500000000000000E7    -8.980418116049024E-1    5.599626595081177E-2    2.436761937245410E-4   -6.485788758184566E-4   -1.333535840471666E-4   -2.687635393562605E-4    9.751884279590375E-1   -2.899732404632467E-2
 3.600000000000000E7    -9.008407303090104E-1    6.027411608738423E-2    5.828412921452482E-5   -4.051012843226682E-4    7.562770365050346E-5   -8.023737710204346E-5    9.707778875177860E-1   -3.328069840683653E-2
 3.700000000000000E7    -8.952949914153538E-1    5.339761853190528E-2   -1.126000738455913E-4   -2.593302148392657E-4   -1.223418872025378E-3    6.013096796337738E-4    9.664703561571679E-1   -3.385907594119367E-2
 3.800000000000000E7    -8.952233164129492E-1    6.289653158677776E-2   -1.640716064523651E-4   -6.976478731742080E-4    3.267106719324593E-4   -6.826594951633677E-4    9.661974908082467E-1   -3.402418370077325E-2
 3.900000000000000E7    -8.998312213981051E-1    5.863018331797477E-2    6.151881253620763E-4   -6.184848210178667E-5   -1.755065332372609E-4   -5.743475224654924E-4    9.756154237236265E-1   -3.546380042968586E-2
 4.000000000000000E7    -8.960197836529276E-1    6.649678097336055E-2   -2.150106073309149E-4    2.194736733888805E-4   -1.889703842469621E-4    2.236339984436842E-4    9.694799548010246E-1   -3.133765931428052E-2
 4.100000000000000E7    -9.025017692941366E-1    6.274839208686972E-2   -3.907299796161700E-4    1.192268634955546E-3    5.312720184083152E-4    7.856873632997750E-4    9.702651446744831E-1   -3.534796213208272E-2
 4.200000000000000E7    -8.968837100815538E-1    6.578611647285403E-2    1.024261866021511E-4   -4.298589881085598E-4    2.461275824772567E-4    1.777900038552438E-4    9.704443785426160E-1   -3.844113497553715E-2
 4.300000000000000E7    -8.949607582475176E-1    7.239410238667575E-2    4.896588924131676E-5   -2.789832737035506E-5   -3.143871763962169E-4    4.369310807592408E-4    9.687557881880094E-1   -3.095829291307560E-2
 4.400000000000000E7    -8.914724449493798E-1    6.948025251536837E-2    4.928363765751332E-4    4.957157422891658E-4   -5.101673002687918E-4   -4.921209016328481E-4    9.668096109619105E-1   -3.575578758421667E-2
 4.500000000000000E7    -8.987529620496870E-1    6.697640358103389E-2   -8.407085395060263E-5   -2.232250951313828E-4    7.236773445198151E-4   -8.063334907551452E-5    9.654143041315045E-1   -4.314966340693873E-2
 4.600000000000000E7    -8.910729762216013E-1    7.398155204362764E-2    6.769660779941672E-5    6.799693943683426E-4   -6.245570600891667E-4   -7.571736847894033E-4    9.675285515809615E-1   -4.716508673971419E-2
 4.700000000000000E7    -8.966886082023756E-1    7.185695905067901E-2    2.249113522455888E-4   -3.592596510870897E-4    3.043662437379764E-4   -3.959576638371815E-4    9.704970993240564E-1   -4.571494675494969E-2
 4.800000000000000E7    -8.952630341894291E-1    6.508306554231497E-2    1.586396778608085E-4    4.422685952878491E-4   -5.465200854999957E-4    1.324116397725478E-4    9.670522513505575E-1   -4.300103227512408E-2
 4.900000000000000E7    -8.965670931054331E-1    7.340109135257943E-2    6.096837434943074E-4    6.449006135958479E-4   -3.062545231582551E-4    2.875043508211692E-4    9.661158583419048E-1   -4.049408202160266E-2
 5.000000000000000E7    -8.978020155960098E-1    7.468711386229543E-2   -6.533839604070999E-4    5.947469586467906E-4   -1.045316056571915E-3    2.817869278245925E-4    9.673299005144679E-1   -5.079742433781680E-2
 5.100000000000000E7    -8.929009306831086E-1    7.978697505742507E-2   -1.038830563918669E-4    9.078856122962581E-4    2.044888103220523E-4   -1.619522199717659E-4    9.653931753200038E-1   -5.477500598300634E-2
 5.200000000000000E7    -8.934759821395344E-1    8.094812086993033E-2   -7.756273042020525E-4    5.000460485503191E-4    8.378809271796091E-4    2.998688212674070E-4    9.746025619041466E-1   -5.454074338283277E-2
 5.300000000000000E7    -8.973784956582328E-1    8.051329558504138E-2   -3.075068303843992E-5    3.159071340623122E-4   -7.067475632196550E-4    6.595130486657442E-4    9.647422562737709E-1   -5.661185655363816E-2
 5.400000000000000E7    -8.954253537845310E-1    8.510156359951990E-2   -3.358952343362356E-4   -8.981185150608412E-4   -7.485865686032263E-4   -1.911594026922274E-4    9.646273333566183E-1   -5.576258703089102E-2
 5.500000000000000E7    -8.960244131353595E-1    8.460406070254116E-2   -3.009745244980165E-4    3.160297343190767E-4   -4.978318708321991E-4   -1.686222552507520E-4    9.633717855811769E-1   -5.731948261402232E-2
 5.600000000000000E7    -8.982782386046793E-1    8.810510078978206E-2    3.148527679716589E-4    1.895021244309889E-4   -8.651694075336472E-5    4.587701758192606E-5    9.688047385391767E-1   -6.058692194504602E-2
 5.700000000000000E7    -8.885743428916212E-1    9.079906914448256E-2   -6.407480237881658E-4   -2.680448761148076E-4    5.706603111885606E-4   -1.363159262264299E-4    9.683221020104158E-1   -6.724314402423165E-2
 5.800000000000000E7    -8.869319647686295E-1    9.104070354906889E-2    2.398026041481183E-4    4.726216391470425E-4   -3.205264194289921E-4    1.388409985272392E-4    9.662067671188779E-1   -7.648224165291762E-2
 5.900000000000000E7    -8.875953990404579E-1    9.171974945488813E-2   -2.879658218858590E-4    2.855156489848107E-4   -2.496662898964092E-4   -1.905073099191816E-4    9.656475716538993E-1   -7.360194314407278E-2
 6.000000000000000E7    -8.913636892886360E-1    8.677701678005646E-2   -3.724799302589511E-4   -3.409706852694347E-4    3.351940647595030E-4    5.414160403452819E-5    9.652017441734086E-1   -6.775025384639069E-2
 6.100000000000000E7    -8.891736233876752E-1    9.633014601272363E-2    2.306715854244637E-4   -2.716218179250558E-4    1.671887932715942E-4    3.032501723823322E-4    9.709067208725359E-1   -7.297858081577040E-2
 6.200000000000000E7    -8.914634304768277E-1    9.487761469302929E-2    9.560335609138591E-5   -6.676531770127679E-4    9.662042068682585E-4   -9.976238349215836E-5    9.688769412304669E-1   -7.241930052409824E-2
 6.300000000000000E7    -8.894004721128043E-1    9.432271950185572E-2    6.815638842778111E-4    7.111617623856071E-4   -7.026662812782118E-4   -4.857833963969544E-5    9.641766012632482E-1   -8.561866574560131E-2
 6.400000000000000E7    -8.868249690682848E-1    9.493811019620960E-2   -2.934599907175286E-4    3.659534221944952E-5    2.344360498748864E-4    3.556610122560101E-4    9.689263066132049E-1   -7.990762076413241E-2
 6.500000000000000E7    -8.876114808407329E-1    1.000889469014516E-1   -2.311839252574830E-4    4.707219923827746E-4   -1.320621645130224E-4    3.043090861996201E-4    9.642178684811131E-1   -8.408283644001427E-2
 6.600000000000000E7    -8.860968065753758E-1    1.014597775765483E-1    9.537980096127602E-4    9.605411970387646E-5    5.887037565210661E-5    6.002357671056352E-4    9.642937417998404E-1   -8.512422918125548E-2
 6.700000000000000E7    -8.912691172321975E-1    1.066912636290208E-1   -7.122861898155851E-4   -2.011582507338367E-4    1.614488597669149E-5    4.019437243996300E-4    9.637240374046092E-1   -8.969478106248797E-2
 6.800000000000000E7    -8.847755514029917E-1    1.054473496539512E-1   -3.994861457467136E-4   -9.967387003238085E-5    4.400800836423048E-4   -4.151731357427975E-4    9.665034389116282E-1   -8.984468277338037E-2
 6.900000000000000E7    -8.877139480191996E-1    1.046139901019590E-1   -2.703443208854496E-4   -1.768880112520650E-4   -2.227119694130309E-4   -2.039319172575669E-4    9.628961093517202E-1   -9.043162693725341E-2
 7.000000000000000E7    -8.908507599435401E-1    1.027429824826855E-1   -8.857609038659650E-5   -5.637263762559189E-4    4.066998570080688E-5    2.953457046855362E-4    9.625301791433778E-1   -9.665472788555096E-2
 7.100000000000000E7    -8.887656489712228E-1    1.100860504508520E-1   -1.832423131006099E-4    1.296970265613072E-4   -1.841761222175424E-4    9.325294702697314E-6    9.626978183377147E-1   -9.115179846292555E-2
 7.200000000000000E7    -8.873404562871250E-1    1.072529508002231E-1   -5.643746461712566E-4    2.487658850448983E-4   -2.913761798438288E-4   -3.710285028352809E-4    9.648857712381109E-1   -9.550611686009707E-2
 7.300000000000000E7    -8.927487446639082E-1    1.101050972901356E-1   -6.088561272869745E-4    8.795512876759548E-4    2.678436728590178E-4    3.103550272257246E-4    9.630721055931050E-1   -9.576585167551754E-2
 7.400000000000000E7    -8.904929658679713E-1    1.085840862697627E-1   -1.551759595177313E-4   -1.665965758656806E-4   -5.412953035857926E-5   -3.174441397992123E-5    9.621555833594203E-1   -9.999232219979792E-2
 7.500000000000000E7    -8.905795759983518E-1    1.088471621245090E-1    9.687005613458769E-5   -1.253798592996161E-4   -6.313428214558224E-4   -2.284532088069063E-4    9.591461606577951E-1   -9.973055733655758E-2
 7.600000000000000E7    -8.873294921794593E-1    1.198458851173748E-1    4.468980188036092E-4   -4.817912184157613E-4   -9.039520311322482E-5    5.577638166315872E-4    9.548046108802327E-1   -1.057306869633004E-1
 7.700000000000000E7    -8.889832348653542E-1    1.203210682527414E-1    3.345403054648488E-4   -3.358994380839626E-4   -5.318316467434013E-4    6.440038909952979E-4    9.619718291638205E-1   -1.021048944386986E-1
 7.800000000000000E7    -8.914944523284354E-1    1.119761131209415E-1    4.677301876736526E-4   -4.117316199121873E-4    7.265845963143582E-4   -5.217658835423348E-4    9.575438806252392E-1   -1.106427292336644E-1
 7.900000000000000E7    -8.857191593131817E-1    1.145476501896494E-1    1.697373477814763E-4    1.500675850523166E-4   -2.501605999275609E-4    6.151429970151190E-6    9.589935504657766E-1   -1.102642745193544E-1
 8.000000000000000E7    -8.855176767388562E-1    1.246497423884919E-1    1.874748965984431E-4   -5.848422560336930E-4   -1.370677868435934E-4   -3.913517494194351E-4    9.604027368796211E-1   -1.158776075381823E-1
 8.100000000000000E7    -8.794821115801502E-1    1.225342326397703E-1    8.654896624349396E-4   -1.793484024066425E-4    1.089044536064288E-5   -3.817143328196202E-4    9.567561274935068E-1   -1.060658036865893E-1
 8.200000000000000E7    -8.860320972537151E-1    1.185265769796047E-1    2.164520155238584E-4   -7.166874592944493E-4   -4.166015067961763E-5   -2.833218305334766E-4    9.582286537336117E-1   -1.118102528573520E-1
 8.300000000000000E7    -8.868310991935664E-1    1.230138254178610E-1    8.082416280844094E-4    1.183183350091602E-4   -2.643457921303352E-4    2.262301319716791E-4    9.613396413318928E-1   -1.131313650267527E-1
 8.400000000000000E7    -8.818130162501746E-1    1.244171975916176E-1   -5.208156553209836E-4   -1.195317100152911E-4   -8.267729927206744E-4   -1.437328072186062E-4    9.590813520086157E-1   -1.139388537572128E-1
 8.500000000000000E7    -8.865544999650711E-1    1.228184799778757E-1   -4.597490056844351E-4    5.063380340439529E-4   -3.717773572464867E-6    6.952988640758679E-4    9.578731411088832E-1   -1.205293268505849E-1
 8.600000000000000E7    -8.827494397213297E-1    1.297150677007901E-1   -2.017867590821235E-4   -6.457362361345200E-4    3.156784147117931E-6   -4.774146984901608E-4    9.616069932018270E-1   -1.200236937878117E-1
 8.700000000000000E7    -8.864163399984871E-1    1.273535326257215E-1   -1.183916380935949E-4    1.277781879714619E-4   -7.853775804930970E-4   -2.730410288861496E-4    9.574407657889993E-1   -1.182938203917150E-1
 8.800000000000000E7    -8.828767748252209E-1    1.325210517346877E-1    1.989198501153051E-4    3.105418093749088E-4   -4.760569285155527E-4   -2.557033247251753E-5    9.597158545276531E-1   -1.174979017493237E-1
 8.900000000000000E7    -8.803681751511698E-1    1.322168976291857E-1   -2.939096164589094E-4    4.563222270706385E-5   -7.982102151860353E-4   -7.830854211167758E-5    9.624030782046014E-1   -1.235728156121083E-1
 9.000000000000000E7    -8.806329519524325E-1    1.369366104494900E-1    2.359567500057322E-4   -2.947480182971005E-4   -2.390122212514911E-4    3.681549894321844E-4    9.582049781940698E-1   -1.199969829907811E-1
 9.100000000000000E7    -8.873202478796849E-1    1.348336103209254E-1    1.512223999065275E-4   -5.175402073063894E-4    4.484886732346796E-4    2.382173257026160E-4    9.637348658448029E-1   -1.247924622057624E-1
