#  HZ   S   RI   R     50.00 
! Rohde & Schwarz Vector Network Analyzer 
! Rohde-Schwarz,ZNBT8-20Port,1318700624101681,3.50
! Created: UTC 7/15/2025, 2:07:35 PM
! freq[Hz]                re:S1010                im:S1010                re:S0610                im:S0610                re:S1006                im:S1006                re:S66                  im:S66
 1.000000000000000E6    -8.336962608356154E-1   -6.831815507005071E-3    1.954096121214312E-4   -4.176409138006885E-5   -5.771148036270457E-6   -2.022797607339111E-5    9.767817412731070E-1    1.664187548540077E-2
 2.000000000000000E6    -8.259503027647830E-1   -5.233128250780416E-3    1.347954852639783E-5   -2.175716658477405E-4   -2.417869497072285E-5    9.798905223572607E-5    9.849123177705051E-1    1.840122581393113E-2
 3.000000000000000E6    -8.229594184362284E-1    4.412221980803750E-3   -2.070368710441777E-5   -1.389907892604183E-4    2.146102353808389E-5    1.760689432637454E-4    9.665583998039373E-1    1.078258881974268E-2
 4.000000000000000E6    -8.252231394893026E-1    4.463925265258092E-3    2.162724636394245E-4    8.586513515888706E-5    6.609494793151279E-5   -3.205637440964531E-4    9.785445886338850E-1    2.865890417646643E-3
 5.000000000000000E6    -8.286605309479605E-1    1.444877126898981E-2   -4.405248666456363E-4    2.531833656443088E-5    5.034646472446109E-4    1.073844211446441E-4    9.727731049228218E-1    5.119813688405373E-4
 6.000000000000000E6    -8.223393356198055E-1    2.186610874503275E-2   -2.543401425811158E-4   -1.197601915700771E-4   -6.618906427026901E-5    8.628281878298094E-6    9.736348832772486E-1    1.249084210996676E-3
 7.000000000000000E6    -8.301521694146308E-1    2.494832839451444E-2   -8.271331112740320E-5    6.140513059520224E-5   -4.125089583954815E-5    1.604610643752837E-5    9.714487397062036E-1   -5.606298476371532E-3
 8.000000000000000E6    -8.217305386358885E-1    2.213262997471194E-2   -8.370429764797225E-5   -2.591576013732339E-5   -1.815227833278176E-4    1.056607606623898E-4    9.684571771775010E-1   -4.378761763213253E-3
 9.000000000000000E6    -8.258797364616279E-1    3.483519248778159E-2    1.399557227461850E-4    1.256299298624812E-4   -8.259823365090868E-5   -2.354608298716100E-4    9.774266924495935E-1   -1.512651698425493E-2
 1.000000000000000E7    -8.169967564922790E-1    4.869302267397230E-2   -4.138873527955047E-5   -4.899645921121364E-4    1.366433581445217E-4    3.584387944671921E-4    9.636767587878802E-1   -2.024858090475697E-2
 1.100000000000000E7    -8.282335867380111E-1    4.528767771548449E-2   -2.239739751642369E-4    3.004618608896706E-5    2.957701690479167E-4    4.458649904553749E-4    9.784273868316480E-1   -1.193254994962297E-2
 1.200000000000000E7    -8.208248356766377E-1    4.784930545037112E-2   -8.803994403711624E-5    2.065026699632735E-4   -3.697352591670466E-4   -2.167402381039275E-4    9.712531580316692E-1   -2.323281857572636E-2
 1.300000000000000E7    -8.190443378620580E-1    5.354301955192946E-2    2.480872581067157E-4    1.834875282773697E-4    2.950162527872924E-4    1.556987474849959E-4    9.800382010835625E-1   -2.479906680411044E-2
 1.400000000000000E7    -8.264060913854572E-1    6.388343175920966E-2    4.385018281156241E-4   -2.540289420629714E-4   -1.005643534486731E-4    1.292398393434072E-4    9.821222524879624E-1   -2.208234512916440E-2
 1.500000000000000E7    -8.279298207893270E-1    7.248400781693919E-2    1.625454318034893E-4    1.947487205293493E-4   -1.589835274922050E-4    2.345085687049620E-4    9.772327961201738E-1   -2.787102998910286E-2
 1.600000000000000E7    -8.229069735953032E-1    6.683900226595915E-2    1.058300463769947E-4    1.044917174568524E-4   -1.692079905059422E-4    1.086379686707529E-4    9.732271932849603E-1   -2.480574686488511E-2
 1.700000000000000E7    -8.235284937043167E-1    7.362341725614077E-2   -4.710950536862742E-4   -8.096735954446688E-5   -2.557359422565826E-4   -1.108661308664469E-4    9.747813894053277E-1   -3.298103909833667E-2
 1.800000000000000E7    -8.284277125472875E-1    7.396758454368080E-2    2.555746011865787E-4   -9.424507444552825E-5    2.994698213653511E-4    1.192617925560271E-4    9.773458520186525E-1   -3.144122855650727E-2
 1.900000000000000E7    -8.239270953554197E-1    8.456244805607657E-2    1.025717541156037E-5    1.671439324250565E-4   -1.184726530547475E-4    6.115433800708222E-5    9.789041740084202E-1   -2.974013541598390E-2
 2.000000000000000E7    -8.230719799485067E-1    8.104544775604321E-2   -1.391230203043217E-5   -3.354812876336295E-5   -5.045585344224045E-5   -1.264866749512166E-4    9.802422483705925E-1   -2.700429876753643E-2
 2.100000000000000E7    -8.259711366406839E-1    8.227515671631215E-2    1.558781746739358E-4    1.097926387592118E-4    9.855748268475147E-5    3.538940570939344E-5    9.652634082024731E-1   -3.748453986316159E-2
 2.200000000000000E7    -8.169277738953133E-1    8.816453631472149E-2    1.829829442465297E-4   -1.974645018219645E-4   -5.751267906471665E-5   -3.563190608547590E-4    9.699950798433247E-1   -4.398943950198013E-2
 2.300000000000000E7    -8.167797006865344E-1    8.927161806423579E-2   -2.466417215463614E-4   -4.285672718825595E-4   -9.174262501275720E-5    2.763354615143494E-4    9.762389881669593E-1   -4.747908452710185E-2
 2.400000000000000E7    -8.124640849583545E-1    9.770477242923059E-2    4.521320374035565E-4    2.508072585523159E-5   -1.949751410509109E-4    1.543634100432476E-4    9.718672676542333E-1   -4.800616418610767E-2
 2.500000000000000E7    -8.126507075836359E-1    1.045316210757510E-1    1.352119407930034E-4   -1.762573687673364E-4    2.784085438164142E-4   -4.327456515262919E-4    9.880773446365171E-1   -4.295672045213227E-2
 2.600000000000000E7    -8.179765079763862E-1    1.073370547426977E-1    8.192613539673406E-4   -8.815533166533316E-5    2.291216690464975E-4   -3.855840202693325E-4    9.753448054560816E-1   -4.563147395232070E-2
 2.700000000000000E7    -8.176560151379083E-1    1.163029582439412E-1   -4.430170852430215E-4   -5.973856534105601E-4    1.051111549863778E-3    9.295068412781727E-4    9.781560326138257E-1   -5.278866267557582E-2
 2.800000000000000E7    -8.162146730109593E-1    1.132243762771701E-1   -9.290012470873966E-4   -2.550883458176032E-4   -2.770356674790812E-4    4.319515473617706E-4    9.816836861338761E-1   -4.446578220425789E-2
 2.900000000000000E7    -8.116167972832188E-1    1.150952775294532E-1    1.542710509111704E-3   -2.746892621262873E-4    6.037984398039408E-4    3.007661147137534E-4    9.732818764480545E-1   -5.356477593027911E-2
 3.000000000000000E7    -8.194802530278532E-1    1.259198631589127E-1    1.585402452043800E-4    3.959194398305424E-4    3.042935641545607E-4    7.741461752927728E-5    9.719739964802367E-1   -4.900411326757758E-2
 3.100000000000000E7    -8.165613714123154E-1    1.249978220961506E-1    9.668717758804222E-5    3.363711829902609E-4   -3.885156027787901E-4   -5.740364196391597E-4    9.701166977326547E-1   -4.562766046390943E-2
 3.200000000000000E7    -8.148282107241002E-1    1.257841301069068E-1    9.587602752931057E-4    2.747710097348188E-4    5.477197470606020E-5    2.979041318960033E-4    9.742413830675145E-1   -4.748733287277007E-2
 3.300000000000000E7    -8.084562362243355E-1    1.354878817102625E-1   -2.017166254079106E-4    7.405674661387936E-5   -3.949704609896874E-4   -7.172977609134958E-5    9.712257677697909E-1   -5.845581772301184E-2
 3.400000000000000E7    -8.092283837834030E-1    1.385549343113930E-1    1.128437253105367E-3   -8.186324524747864E-4   -6.619111218242651E-5    2.850653309270232E-4    9.696029091511967E-1   -5.937013866225051E-2
 3.500000000000000E7    -8.134793524966156E-1    1.445089136748389E-1   -6.894222671563789E-4    4.843728199608334E-4   -5.512899943293896E-5    9.050937665773214E-4    9.657473880962404E-1   -5.699189938530685E-2
 3.600000000000000E7    -8.169194643180053E-1    1.518077455435093E-1   -3.281629427603871E-4    4.962911634554078E-4    9.216212145316779E-4    3.659516178764147E-4    9.754356631453469E-1   -5.279829495595739E-2
 3.700000000000000E7    -8.082340408024855E-1    1.500281782909595E-1   -6.038833964295626E-4    9.449941202875864E-5   -1.448505951407703E-4    4.075511158857439E-4    9.753100526868774E-1   -6.081232575913705E-2
 3.800000000000000E7    -8.071438036115041E-1    1.539220261867904E-1    9.189728074874831E-5   -3.764031628447212E-4    6.202147933166752E-4   -5.345932187140205E-4    9.717406133064107E-1   -6.653155414465650E-2
 3.900000000000000E7    -8.056227806837178E-1    1.564116152142280E-1    1.237485655756808E-4    4.553962614803061E-4    4.485603671593432E-4   -2.737319424165941E-4    9.728091620808964E-1   -7.080502789425239E-2
 4.000000000000000E7    -8.053661483609464E-1    1.687417888657506E-1   -1.139256696422556E-3   -1.927204007913995E-4   -4.860511536552547E-5    2.911985569179970E-4    9.712179575016131E-1   -6.475600918771106E-2
 4.100000000000000E7    -8.046295970677074E-1    1.661469186453065E-1    6.282036716982125E-4   -5.320500611612359E-4    2.216224139603359E-4    2.272471697290159E-4    9.681421522192595E-1   -6.398219298233933E-2
 4.200000000000000E7    -8.039559677072720E-1    1.695887244540258E-1   -1.814101500582033E-4    9.320305756672380E-4    1.186380804775219E-4   -3.474356760015921E-4    9.641140750627816E-1   -6.719576141982958E-2
 4.300000000000000E7    -7.998713932805753E-1    1.823208497681577E-1   -8.015661627864995E-5    4.326147489343397E-4    1.074691698321654E-5    3.478423795961619E-5    9.671148047270905E-1   -6.875822707287600E-2
 4.400000000000000E7    -7.984453504163314E-1    1.790598680480552E-1   -6.181928783225241E-4   -4.785296879875103E-4    3.324986386020144E-5    5.430660816286887E-4    9.685795422638838E-1   -6.671741998160333E-2
 4.500000000000000E7    -8.039965371207587E-1    1.853574592267239E-1   -2.789183810462338E-4    3.956757049293394E-4    1.686171824590707E-4   -3.415358758815066E-4    9.726432897056003E-1   -6.897889361217549E-2
 4.600000000000000E7    -7.956776028421091E-1    1.847996866684358E-1    4.373957564533209E-4   -3.263988808334219E-4    2.166690246078647E-4   -3.063484002896073E-4    9.670755090446147E-1   -6.845633720434054E-2
 4.700000000000000E7    -7.989040289684812E-1    1.899606636830707E-1    7.224940452969249E-4   -2.174462925757842E-4   -2.940893369507312E-4    2.277854330986310E-4    9.650258776931553E-1   -7.404635456578371E-2
 4.800000000000000E7    -7.978352273588522E-1    1.925172982167586E-1    5.496582419486466E-4    9.473083846192437E-5    3.073896711314731E-5   -2.941317022963588E-4    9.625809793289054E-1   -7.206416823581079E-2
 4.900000000000000E7    -8.045030665800166E-1    1.959552656897153E-1    8.791587707931729E-4   -3.854227463046652E-4    2.245060669543818E-4   -6.533524371452157E-6    9.613847511241215E-1   -7.638197831253964E-2
 5.000000000000000E7    -7.965206078369382E-1    2.060604075266961E-1   -1.464940913849979E-4    5.641362164613195E-5   -5.144714524396590E-4    2.152521776036326E-4    9.657245195061159E-1   -7.755684428512394E-2
 5.100000000000000E7    -7.981281276475344E-1    2.027884872269379E-1    3.945009118834687E-4   -1.455602079748915E-4    8.369931933058902E-5   -5.320419824594412E-4    9.693337192192526E-1   -8.175811221486706E-2
 5.200000000000000E7    -7.905294419329578E-1    2.086918633086653E-1    1.110517366998515E-3    4.693876428817057E-4    3.442450772293248E-4   -8.446527533213498E-5    9.638269926267233E-1   -8.912186656675092E-2
 5.300000000000000E7    -7.928329237515791E-1    2.184696109455144E-1    4.267568813684973E-4   -9.203389319768062E-4   -3.589373207214312E-4   -5.045956222753700E-5    9.654695189911003E-1   -8.363071471393776E-2
 5.400000000000000E7    -7.840788670391634E-1    2.177400677499516E-1   -3.211182598929598E-4    4.800473733404610E-4   -9.644810728589666E-5    5.204533704955058E-4    9.670363623494200E-1   -8.541447271629431E-2
 5.500000000000000E7    -7.892378763133966E-1    2.225088097981076E-1    2.244764541317529E-4    7.649604979951476E-4   -3.352152298109114E-4    2.604708448458016E-4    9.653470866445378E-1   -7.870855737671428E-2
 5.600000000000000E7    -7.891353186541910E-1    2.289261915090733E-1    5.027585851574614E-4   -1.321456075054381E-3   -2.720297553468434E-4    3.223758975122661E-4    9.652045440436473E-1   -8.586240568014056E-2
 5.700000000000000E7    -7.884951900145722E-1    2.269059156986315E-1    2.627704980385958E-4    2.477300959556894E-5    3.747056603917885E-4    1.533451076929615E-6    9.660167238224087E-1   -9.161294862317186E-2
 5.800000000000000E7    -7.842463380243880E-1    2.295892177284836E-1    3.608837715406151E-4   -8.003140818164427E-5   -9.031176386580583E-4    5.491784318890335E-5    9.612894713108551E-1   -8.781744279313712E-2
 5.900000000000000E7    -7.803381394874227E-1    2.375450096692311E-1   -4.570055985237998E-4    2.181951555932067E-4    3.919084105650236E-4    3.935986804971511E-4    9.616863911185618E-1   -9.877423027495273E-2
 6.000000000000000E7    -7.816338805665817E-1    2.371921366981283E-1   -7.432871223569324E-4   -2.889960527163776E-4   -6.098748519498505E-4   -3.123675210208036E-5    9.661794650731846E-1   -9.215550649864392E-2
 6.100000000000000E7    -7.759595113027118E-1    2.455104943869729E-1   -4.504870677709590E-4    2.186973890215027E-4   -2.890265350072117E-4    1.222146277100404E-4    9.609213729743123E-1   -1.012976624159736E-1
 6.200000000000000E7    -7.784928256164465E-1    2.496980886054804E-1   -6.073229469902911E-4    3.404220959822344E-4    2.008096087331044E-4    1.355289273288433E-4    9.607084626267185E-1   -9.810568124596952E-2
 6.300000000000000E7    -7.769668588822251E-1    2.547582373166157E-1    7.619398931141396E-4   -3.986586274569806E-4   -5.965267432537911E-4   -4.507739173423247E-4    9.593844501460437E-1   -1.054979601897291E-1
 6.400000000000000E7    -7.807704040801688E-1    2.542423790202639E-1   -8.112044265435700E-4    2.314744239475896E-4    6.173392146034132E-4   -1.090729508430226E-4    9.615475177052416E-1   -1.039869037089412E-1
 6.500000000000000E7    -7.754961563135910E-1    2.567963073960353E-1   -2.492412200668574E-4    2.046309696886733E-4    4.878216568714884E-5    8.136726830699170E-5    9.591522803868893E-1   -9.980658041533670E-2
 6.600000000000000E7    -7.740889939385227E-1    2.629876962522218E-1   -3.386388923156025E-4    1.460373951290215E-4   -1.698842811626387E-4   -6.253584770126370E-5    9.542254977649679E-1   -1.088011069037228E-1
 6.700000000000000E7    -7.696656947585157E-1    2.705176843039789E-1   -4.258097947252419E-4    5.442297672440656E-5   -5.033548481916131E-4    4.012705126437194E-4    9.632636685220378E-1   -1.053729044385822E-1
 6.800000000000000E7    -7.675913731848432E-1    2.689249365142081E-1    2.618834134978586E-4   -1.448256292225602E-4    8.107456777945062E-5   -7.025958508359529E-4    9.560662014230229E-1   -1.004329669417144E-1
 6.900000000000000E7    -7.714754987238444E-1    2.729432935283582E-1    1.256786882468409E-4    2.043319864149652E-4    1.926320189608782E-4   -7.133029227838462E-5    9.639068218859880E-1   -1.147517902210397E-1
 7.000000000000000E7    -7.742940607472292E-1    2.746312957004234E-1    2.357633361518712E-4    6.169014597668382E-4    4.763359516214873E-4   -3.747482498418219E-4    9.580565841137820E-1   -1.098516514002942E-1
 7.100000000000000E7    -7.653922868118541E-1    2.785424179630310E-1   -3.339923539225913E-4    4.250003642023272E-4    1.648656555281870E-4    9.780440543746068E-8    9.611331863512826E-1   -1.168551965811373E-1
 7.200000000000000E7    -7.640711150771761E-1    2.852513865975072E-1    2.807159676173429E-5   -5.956512696387882E-4    3.500049570861452E-4   -6.850977505049026E-5    9.594464946450406E-1   -1.159189694634385E-1
 7.300000000000000E7    -7.637747926583058E-1    2.872313811760947E-1    6.619554155290762E-4   -2.742647808451777E-5    5.252049887207764E-4   -8.273772097465724E-5    9.582176302078300E-1   -1.177057422867381E-1
 7.400000000000000E7    -7.594371266857244E-1    2.885260160018208E-1    4.489217606864770E-5   -2.372512189522434E-4   -1.922335256334927E-5    6.446373679505966E-4    9.633654903602717E-1   -1.164500080857288E-1
 7.500000000000000E7    -7.579700348073782E-1    2.953067909504871E-1    2.193696486857332E-4   -2.095121751566513E-5   -7.826023913902271E-4    1.877783286475306E-4    9.546820072580668E-1   -1.202999610629960E-1
 7.600000000000000E7    -7.591023190941724E-1    2.991898026584702E-1   -4.919571723062755E-5   -5.039876919328678E-5    2.228954836726525E-5    1.349690950762240E-4    9.609410534239401E-1   -1.155063831531767E-1
 7.700000000000000E7    -7.562213750495964E-1    3.050696085591399E-1    3.333195599809973E-4    2.395325267076637E-4    6.652336324524639E-4   -1.866314299259902E-4    9.629018266077756E-1   -1.201229058815242E-1
 7.800000000000000E7    -7.563177857475422E-1    3.058018934944386E-1    8.128396446845421E-4   -1.000530779433559E-3   -6.626908627238974E-5   -5.658011045266724E-4    9.597077638296502E-1   -1.234696280233887E-1
 7.900000000000000E7    -7.505202785820883E-1    3.108463148669769E-1    2.271790549266659E-4    8.731038262765462E-5    1.823796566684125E-4    1.374409412556407E-4    9.516821243804008E-1   -1.223720994318176E-1
 8.000000000000000E7    -7.485691050772466E-1    3.134939457604472E-1   -1.659603972827876E-4   -1.082208286991817E-5    1.024963941934611E-4    6.680798133921690E-4    9.596833668980260E-1   -1.222139975989610E-1
 8.100000000000000E7    -7.469161864715880E-1    3.110820327296280E-1   -1.482456849541548E-4   -1.145613083486040E-4   -4.169385961385246E-4   -5.486263916041935E-5    9.546515997675403E-1   -1.268409250670762E-1
 8.200000000000000E7    -7.446295617774834E-1    3.188409509419760E-1    1.375637038052511E-4    1.520167666485670E-4    1.864924261516745E-4   -1.766275312403116E-4    9.583589552268293E-1   -1.261768658033183E-1
 8.300000000000000E7    -7.458824776239914E-1    3.246407144220553E-1   -4.719237528829253E-4   -1.795387437929851E-5   -1.173016540657834E-4   -9.466824872773628E-5    9.553903405037469E-1   -1.253761429782452E-1
 8.400000000000000E7    -7.440756509451603E-1    3.257758405231255E-1    1.343127306270997E-3    4.449341316750535E-4    1.244253835627753E-4    4.861513194454606E-4    9.588932121166137E-1   -1.323195535178578E-1
 8.500000000000000E7    -7.434373102045672E-1    3.241952896364694E-1   -1.079445842429408E-4   -4.402962524700356E-4   -4.226462103512560E-4    6.128723466849854E-4    9.565807123130505E-1   -1.360560257783136E-1
 8.600000000000000E7    -7.402311875563292E-1    3.346269584218161E-1   -1.196554637957550E-3   -2.673499547881183E-4   -1.023182343185709E-4   -1.013410893212175E-3    9.526972795801323E-1   -1.401089063521480E-1
 8.700000000000000E7    -7.400167910205470E-1    3.413621700511851E-1    2.913220730338241E-4    6.452233335110147E-5   -6.180607845662165E-4   -3.927424210257641E-4    9.561534819402940E-1   -1.330044148646451E-1
 8.800000000000000E7    -7.280391793204276E-1    3.395318118647876E-1   -5.167751478284183E-4    4.386322368365536E-4    2.129227383184840E-4    2.220183996272896E-4    9.563878037669814E-1   -1.371275189295264E-1
 8.900000000000000E7    -7.336894161028086E-1    3.482275646889668E-1    2.392813053568709E-5    1.491760879045051E-3    4.954905530253147E-4    1.002012179414011E-3    9.526925911130404E-1   -1.354790437148905E-1
 9.000000000000000E7    -7.366081371883930E-1    3.494409796744945E-1    5.851844781056899E-4    6.719519506752375E-4    1.486575940609135E-4   -1.910171946073675E-4    9.538980277519641E-1   -1.404758392886040E-1
 9.100000000000000E7    -7.300908995214289E-1    3.515477017421332E-1    5.148192186864410E-6    6.893668482243658E-5    3.799273306948423E-4   -2.214079571090443E-4    9.608748687537887E-1   -1.447082309713459E-1
