#  HZ   S   RI   R     50.00 
! Rohde & Schwarz Vector Network Analyzer 
! Rohde-Schwarz,ZNBT8-20Port,1318700624101681,3.50
! Created: UTC 7/15/2025, 2:14:02 PM
! freq[Hz]                re:S1010                im:S1010                re:S0410                im:S0410                re:S1004                im:S1004                re:S44                  im:S44
 1.000000000000000E6    -8.989716706559435E-1   -5.656476170237274E-3    1.167296519040489E-4   -2.068212514903428E-4    3.116301743782390E-4    3.055855122416925E-4    5.580331084395889E-1    1.156719608581974E-2
 2.000000000000000E6    -8.943916302721168E-1   -1.411626280357874E-2    3.814040118045399E-4    5.233232271515071E-5    6.911274972887355E-5   -5.981772910445944E-5    5.466965572115555E-1    4.815753080032382E-3
 3.000000000000000E6    -8.989067341561362E-1   -6.795681938375079E-3    7.927575857291918E-5    1.999617212264537E-4    1.489094378324673E-4   -2.466998149586064E-4    5.593634675437646E-1    1.041951685493689E-2
 4.000000000000000E6    -9.009674448689047E-1   -6.304990197000068E-3    4.196237186891130E-5    9.703058084277330E-5    3.792025075510811E-5    1.130029521572500E-4    5.584652179700443E-1    5.306127584610191E-3
 5.000000000000000E6    -8.945990642745055E-1   -7.949705305419840E-4    1.273972174159960E-4   -5.759428190854784E-6    2.410962335469755E-4    4.077837942095304E-4    5.630201230936177E-1   -5.865199396323989E-3
 6.000000000000000E6    -8.989484960671564E-1    2.989176812617871E-3   -8.569428912910271E-5    5.590973376966278E-5    4.579351262067945E-5   -4.860930228831063E-5    5.595543132824772E-1    1.345685454169570E-3
 7.000000000000000E6    -9.002831797860077E-1    1.958384320715928E-3   -3.629269457973652E-5    1.979983432458105E-4    2.862576505117163E-5   -1.737679252645248E-4    5.626378620375894E-1    2.420394819686216E-3
 8.000000000000000E6    -8.940446561428753E-1    1.093958554636989E-2   -1.170302987203969E-4   -1.486399770338699E-4   -1.406917373830953E-4   -5.457231189722087E-5    5.568768999157747E-1   -3.551531227710484E-3
 9.000000000000000E6    -8.975950860522521E-1    1.189499774059751E-2   -1.778671495638934E-4    7.210404219566327E-6    5.444833997077447E-5   -4.356965559922501E-4    5.625441963600715E-1   -3.202876232110874E-3
 1.000000000000000E7    -8.937164685483604E-1    1.984283005071998E-2    9.609699400859864E-5   -5.301064396680390E-5   -4.115854720785490E-4    1.466493640210743E-4    5.593824235001797E-1   -8.171372216605091E-3
 1.100000000000000E7    -8.941999779644870E-1    2.042385976411720E-2   -3.592542060282627E-4    5.453981996116518E-5   -4.329206914107761E-4   -4.608032806054936E-5    5.578651445340144E-1   -1.282426391280606E-2
 1.200000000000000E7    -9.024601331952183E-1    9.844353651495137E-3   -2.063898717754376E-5   -5.965225104682132E-5    3.268575749605357E-4   -2.591398926632995E-4    5.597207823180990E-1   -3.465709546924137E-3
 1.300000000000000E7    -9.000816082724866E-1    2.405118018361438E-2    1.662040808472502E-5    3.345364555815649E-5   -1.927612049877877E-4    2.309631833317559E-4    5.613252130480842E-1   -1.833913513115137E-2
 1.400000000000000E7    -9.021546506001418E-1    2.876868808525556E-2    2.504360832505747E-5   -3.481671944130808E-4   -1.800560103733900E-4    3.332756957169199E-4    5.582494351770402E-1   -9.676840124996816E-3
 1.500000000000000E7    -9.030984014156408E-1    2.805207021331656E-2    5.049437362400179E-5    2.417471655541647E-4   -3.619440808688092E-5    2.846553463043457E-5    5.561296366360453E-1   -1.464450358327906E-2
 1.600000000000000E7    -9.038210850112207E-1    2.752153276412292E-2    3.460712431868335E-4   -7.020059560743976E-5    7.590266065994051E-5    1.104028447597658E-4    5.627281261763236E-1   -1.623465617824553E-2
 1.700000000000000E7    -9.057418829361032E-1    3.323770369037950E-2    1.304424851976264E-5    1.169703712029491E-4   -4.539293427088086E-4    2.603107065860938E-4    5.651420394287942E-1   -1.270302352920777E-2
 1.800000000000000E7    -9.066663603445635E-1    2.912405423986691E-2   -8.771245963818377E-5   -1.210725238819327E-4    1.110443273010860E-5   -1.244191265855820E-4    5.609307819351022E-1   -1.831216693982307E-2
 1.900000000000000E7    -8.977388088770886E-1    3.132366247820527E-2    1.118473051119165E-4    8.992287097349957E-6   -6.163485085906075E-5   -7.612479488264882E-5    5.615361998704117E-1   -1.372322061979932E-2
 2.000000000000000E7    -8.959090163544435E-1    3.441097651315338E-2    1.006327020577415E-4   -1.316302288195774E-4    8.546708315230277E-5   -1.445716025039318E-4    5.589563495818728E-1   -1.446180277421028E-2
 2.100000000000000E7    -8.974419055195060E-1    3.308970139892615E-2    1.351062487999378E-4   -5.737183096858455E-5    2.160868651376760E-4   -1.469859618121068E-4    5.499683004502365E-1   -1.949533070693662E-2
 2.200000000000000E7    -8.983872356776496E-1    3.921080304359582E-2    2.895708046710186E-5   -8.685690639457171E-5   -1.965422585830406E-4   -1.319000355420238E-4    5.520606176045980E-1   -1.500830863463189E-2
 2.300000000000000E7    -8.928008253504971E-1    3.174930515366563E-2    4.556281526453336E-5   -1.874185077885088E-4   -1.958145037797752E-4    4.680261526673315E-5    5.481141645052169E-1   -1.373559056901528E-2
 2.400000000000000E7    -9.017695005647899E-1    4.084020447984461E-2    1.090550312689299E-4   -9.376879213955674E-5    1.993181613030591E-4    6.512464639289776E-4    5.659377545363762E-1   -3.017207949316702E-2
 2.500000000000000E7    -8.904027995869671E-1    4.402099293778812E-2   -1.525016815868609E-4   -1.630618206669232E-4    2.298395990357501E-4   -4.687289491296368E-6    5.710502382520425E-1   -2.523689429527333E-2
 2.600000000000000E7    -8.987069526952277E-1    4.800104615229037E-2    3.338269721335208E-4    3.191603860199090E-4    4.070716236755253E-4   -2.095967587360394E-4    5.600782139817004E-1   -2.911851005586943E-2
 2.700000000000000E7    -8.963642066945500E-1    4.511768260973029E-2   -5.145910423009933E-4   -1.351560443243120E-4   -3.318897011363731E-4    2.371217412693670E-4    5.543693093837470E-1   -2.444317592840288E-2
 2.800000000000000E7    -8.975790206144945E-1    5.008331611020619E-2   -6.306425829273969E-5   -2.259905416080207E-4   -3.378839882311641E-4    5.994202073413816E-4    5.545405622169817E-1   -2.616652900141045E-2
 2.900000000000000E7    -8.924267099127371E-1    4.929406968155882E-2    4.127480265073301E-4   -7.336984577650509E-4   -9.005724479236597E-4   -4.965928394101399E-4    5.558573985107252E-1   -2.735412626346781E-2
 3.000000000000000E7    -8.982608395906168E-1    5.187424906089572E-2    1.991496646409505E-4   -1.962334974218251E-4    8.627863426966092E-4    8.709892002003424E-4    5.572401558845342E-1   -2.080735873635653E-2
 3.100000000000000E7    -8.946050700307658E-1    5.559359747663659E-2    5.639939163368092E-4   -2.961093750790300E-4    2.340967471269159E-4   -9.301725352815705E-5    5.554189271126527E-1   -3.542233904256864E-2
 3.200000000000000E7    -8.970475934181916E-1    4.930518501796180E-2    8.820205169084763E-5    3.017668566836764E-4   -2.120659669385303E-5    2.168269216302439E-4    5.618108250535995E-1   -2.903576166471807E-2
 3.300000000000000E7    -8.933563111693432E-1    5.313650671243146E-2    1.185438792616563E-4    1.895217268865155E-4    5.454752944018629E-4   -2.193664798433531E-4    5.555615375743260E-1   -2.728069261705940E-2
 3.400000000000000E7    -8.975490287152503E-1    5.149345872747766E-2    8.621718795756530E-4    4.295949154775221E-4    2.488045075720913E-4    1.625091333873629E-4    5.586887951905030E-1   -2.733515050797063E-2
 3.500000000000000E7    -8.970491369631109E-1    5.598800323133108E-2    1.846734480665641E-4   -1.913969485062862E-4    1.835678575768448E-4    7.734736603680154E-5    5.539300517153389E-1   -2.892083174804525E-2
 3.600000000000000E7    -8.972679472916301E-1    5.631941023190958E-2   -2.270261305295233E-4   -1.334281582411891E-4   -2.402710684734373E-4    7.807941356340249E-5    5.603688897326379E-1   -3.150659850857419E-2
 3.700000000000000E7    -8.940360220529463E-1    5.621977122691962E-2    4.218350908452378E-4   -1.658656689009472E-4    4.573904149323683E-4   -1.941283693892003E-4    5.641112335698000E-1   -3.424009669003738E-2
 3.800000000000000E7    -8.953217701058727E-1    5.899696076351599E-2    3.088762741507621E-4   -3.246424179181499E-4    6.902241540935540E-5    8.774097635542469E-5    5.594827375514920E-1   -3.388705226774405E-2
 3.900000000000000E7    -9.042074471751604E-1    6.171158209800818E-2   -4.142719704162693E-4    2.251793707217885E-4    1.400688564113277E-4   -9.906318844738132E-7    5.577196044325681E-1   -3.518030915793310E-2
 4.000000000000000E7    -8.985575608034208E-1    6.359263440668325E-2   -5.153534678312592E-5    1.743790198393162E-4   -1.799934987451804E-4    4.683431080230690E-4    5.583413801446480E-1   -3.565669030214142E-2
 4.100000000000000E7    -8.994069248352292E-1    6.493338695289394E-2    3.742470945637663E-4    2.731194001021991E-4   -2.634887269739453E-4    1.265232038163237E-3    5.559549003922943E-1   -2.800936743040104E-2
 4.200000000000000E7    -8.988282298358304E-1    6.769702542959000E-2   -1.687800016400758E-4    4.957674263953568E-4    2.311839980946654E-4    6.227960344302174E-4    5.529432481212430E-1   -3.431785905959327E-2
 4.300000000000000E7    -8.882831790915592E-1    7.256386589460234E-2    5.929489003490007E-6   -1.904384246186605E-4    1.460801004420862E-4   -2.016908647606786E-4    5.609459424182115E-1   -4.063131723979156E-2
 4.400000000000000E7    -8.944669454726990E-1    7.003904740597235E-2   -5.918302965440101E-4   -2.783043399901932E-4    2.071037138757035E-4    3.419276899755575E-4    5.568726638828306E-1   -3.707983539654008E-2
 4.500000000000000E7    -8.963652709637649E-1    6.980131682213835E-2    5.564358340197735E-4   -9.490458252390921E-5   -2.122680928990007E-4   -1.758284300706393E-4    5.592539133614077E-1   -4.086376791807055E-2
 4.600000000000000E7    -8.956846536170865E-1    7.450820503257974E-2   -1.146627455137753E-4    6.957658320815969E-4    9.340882277081245E-4   -9.590033583961951E-5    5.551887498015373E-1   -4.398761277740749E-2
 4.700000000000000E7    -8.970146061377799E-1    7.657511680796926E-2    4.977144321885202E-4   -2.158532017140249E-5    6.695090142289852E-4    4.106940347070863E-4    5.585497563979657E-1   -3.814123917182571E-2
 4.800000000000000E7    -8.951315709400374E-1    7.253443049850558E-2   -2.804324092759592E-4    3.115494302007663E-4   -1.696842005126512E-4    9.266697331132872E-4    5.571723818500240E-1   -4.126208420529755E-2
 4.900000000000000E7    -8.944305520344393E-1    7.533006883055438E-2    4.747901584392920E-5    1.175387130158038E-4   -1.243184635972644E-4   -2.525581661000550E-4    5.578325146415855E-1   -4.057392071004141E-2
 5.000000000000000E7    -8.902013847651291E-1    7.467519666552132E-2    6.190728264529993E-4    3.227567624972392E-4   -3.043286605313500E-5   -1.495866196733465E-4    5.564739089420156E-1   -4.057399823244111E-2
 5.100000000000000E7    -8.944522341245811E-1    7.608303840690656E-2    2.465181712880997E-5    1.937927864872145E-4   -3.858015185312986E-4   -8.133415514137359E-5    5.517509092589937E-1   -4.410395799031087E-2
 5.200000000000000E7    -8.916697130819605E-1    7.797503379456235E-2   -6.044131263397850E-4    7.114598450759819E-5    1.122072239586599E-4    1.793420010868708E-4    5.536961792199023E-1   -4.770047283003472E-2
 5.300000000000000E7    -8.936888803413323E-1    8.092819313761467E-2    8.368152746050366E-5    4.379119657977126E-4    4.232916981280089E-4    1.246347201460770E-3    5.592364890311422E-1   -5.036032566569258E-2
 5.400000000000000E7    -8.939536967250226E-1    8.194750786487220E-2   -5.797167662414147E-5    3.909120640350405E-4    8.995519396847658E-5   -2.467363048070350E-4    5.531093378255945E-1   -4.711816191856045E-2
 5.500000000000000E7    -8.933609407136409E-1    8.344625475440971E-2    2.376729014358352E-4    7.760938892392481E-5    5.886207391150279E-5   -2.932282473615507E-5    5.605403199458863E-1   -5.268191773005684E-2
 5.600000000000000E7    -8.941255170961004E-1    8.747087665333877E-2    1.182979123592410E-4   -1.361251749869261E-4    3.246462479731091E-4   -2.146207744184306E-4    5.527567723469307E-1   -4.890254770733230E-2
 5.700000000000000E7    -8.899195502011705E-1    8.906973277760756E-2   -3.828026324067228E-4   -1.022661300095709E-4    1.070135094706124E-3   -7.020395115567657E-4    5.570611061237747E-1   -5.040317999146268E-2
 5.800000000000000E7    -8.888125150640196E-1    9.056328538056418E-2   -7.280265923335659E-4    6.830160488529488E-5    9.742526965535462E-4    8.311632129712451E-5    5.563782728609069E-1   -4.997417342684417E-2
 5.900000000000000E7    -8.904399987592526E-1    9.293253787176541E-2    2.416359058976541E-4    3.078117430112638E-6    3.534507860667447E-6    5.124175598022985E-4    5.547994254051708E-1   -4.952400693639605E-2
 6.000000000000000E7    -8.903641580062713E-1    9.012906862147335E-2   -2.887367720744342E-4   -2.406571576983284E-4   -2.473264727286437E-4   -7.900202614007871E-4    5.553280405786674E-1   -5.139443790605229E-2
 6.100000000000000E7    -8.902615370966465E-1    9.711809659550384E-2    8.397402460542036E-7   -2.133886796797486E-4   -8.742247035084625E-4   -1.748341162271600E-4    5.541903925355911E-1   -5.495156692317921E-2
 6.200000000000000E7    -8.896826961994602E-1    9.817850279833357E-2    3.014755189394979E-6    8.286713060455663E-5   -2.889721002830964E-4    3.538076268275231E-4    5.540485005318542E-1   -5.012402108578195E-2
 6.300000000000000E7    -8.860673389383140E-1    9.796789282140526E-2   -2.883225479999321E-4    8.887183255874628E-5    1.291493863602119E-4   -1.179709820163022E-4    5.555451233896140E-1   -5.257376605242601E-2
 6.400000000000000E7    -8.841053627696533E-1    9.316699150963335E-2   -5.400457677814998E-4   -7.311817784200928E-4    1.174698172467792E-4   -1.839953225011309E-5    5.566318843602076E-1   -5.917727529109031E-2
 6.500000000000000E7    -8.890177447409379E-1    1.020327077990340E-1    6.110622826364426E-6   -8.853303572657624E-4    3.815289299654347E-4   -5.957314782743223E-4    5.496864094631787E-1   -5.579910700567826E-2
 6.600000000000000E7    -8.929458523975455E-1    1.030701844274447E-1    7.726877736427178E-4   -3.478558887938370E-4   -1.221969569483219E-3   -1.075441016510838E-3    5.553900484055975E-1   -5.501364907505615E-2
 6.700000000000000E7    -8.934247082781862E-1    1.039843915402557E-1   -2.322500758060838E-4   -1.112443095824592E-4   -6.157017987447828E-5   -3.806130376261191E-4    5.534213498343483E-1   -5.279200059828858E-2
 6.800000000000000E7    -8.877693595546468E-1    1.040448317389101E-1   -1.287892085999295E-4    3.846322674230926E-4    7.712812283864070E-4    3.627818544812923E-4    5.543039675611350E-1   -5.572368104422150E-2
 6.900000000000000E7    -8.946962498955536E-1    1.056641469275250E-1   -7.354000908853653E-5    1.572645210523920E-4   -4.286009128671280E-4    8.423985490924109E-5    5.533343926724027E-1   -5.715477053228368E-2
 7.000000000000000E7    -8.884150809452274E-1    1.031891766347476E-1    4.216445716974565E-4   -6.892317328033812E-4    2.283259069247739E-4   -6.808488762762739E-4    5.522600992498367E-1   -5.633731728237517E-2
 7.100000000000000E7    -8.897250901289140E-1    1.048407678187824E-1    4.782889465108976E-4   -9.507825931048776E-5    5.214241520864304E-4    6.997358183352543E-5    5.527919225304327E-1   -5.782745601939099E-2
 7.200000000000000E7    -8.876106747817352E-1    1.105666090934758E-1   -1.448984662017118E-4    3.889101610642079E-4    3.093644479302420E-4   -5.060901937556264E-4    5.574312717560269E-1   -6.248851315912633E-2
 7.300000000000000E7    -8.887153934965467E-1    1.044880578050201E-1   -2.553070263147505E-4    7.368233592607711E-5   -1.728369992022839E-4    1.936953564105376E-4    5.507775422668244E-1   -6.169199548180473E-2
 7.400000000000000E7    -8.888129110917371E-1    1.114404060568052E-1    5.064726001510662E-4   -3.526677226135787E-5    1.945429355223422E-4   -8.268135795212256E-4    5.578487133528129E-1   -6.194548657501085E-2
 7.500000000000000E7    -8.854704946992550E-1    1.100484884082679E-1   -1.013749521565311E-4   -3.727979204827676E-4   -8.342006719578106E-4   -7.792780348731284E-4    5.494239081129164E-1   -6.090735598653164E-2
 7.600000000000000E7    -8.903727545620819E-1    1.131483068622150E-1   -8.572402771512160E-5    1.564933510830452E-5   -9.418485451904403E-5   -5.198747024511101E-4    5.523149501949985E-1   -6.420025082448702E-2
 7.700000000000000E7    -8.877516994017193E-1    1.142498195969903E-1   -1.244419742736129E-4    2.520846688883431E-4   -3.754147882005545E-4    7.968790165572399E-4    5.521336640401314E-1   -6.376181277303533E-2
 7.800000000000000E7    -8.868569180591340E-1    1.195245549895503E-1    1.269636649618957E-4    7.000487396913885E-4    9.894827746129254E-6    5.589573867360176E-5    5.490327048654557E-1   -6.326250943719669E-2
 7.900000000000000E7    -8.826474328853140E-1    1.205528244983736E-1    1.338133221130034E-5   -1.403405211374533E-4   -1.117141646305006E-6   -1.040666600205035E-4    5.472509005290872E-1   -6.873208269356987E-2
 8.000000000000000E7    -8.845305937391248E-1    1.246872778350838E-1   -2.876847996850316E-4    3.281638915976479E-4   -6.588022892651854E-6   -9.816185275641948E-6    5.508124871969250E-1   -6.698534198755063E-2
 8.100000000000000E7    -8.851071975196368E-1    1.178579580876501E-1   -9.422879095939286E-5    7.484832735305113E-5   -4.562249068484554E-4    3.736856439693913E-4    5.504023237531972E-1   -6.805064783672979E-2
 8.200000000000000E7    -8.869034890388485E-1    1.196569100189213E-1   -4.898644657919550E-4   -3.429768121914729E-4    4.968703792800462E-5   -3.613406398662872E-4    5.481403106399085E-1   -7.121453423232001E-2
 8.300000000000000E7    -8.795719344865792E-1    1.251338535405194E-1    7.994649602021071E-5   -2.182538823024251E-6   -2.975118720866161E-4    7.881882691143583E-4    5.486370872183890E-1   -6.744402775945403E-2
 8.400000000000000E7    -8.911444877658270E-1    1.247109570175780E-1   -3.466416347563043E-4    5.797310746818797E-4    5.154838106602891E-4   -3.029106940137777E-4    5.513465840364151E-1   -7.238552451408949E-2
 8.500000000000000E7    -8.862373373086307E-1    1.247708439050355E-1    3.456462465595179E-4    3.412140971822548E-4   -2.688528638125173E-5   -6.824791642829860E-6    5.469895211726349E-1   -7.248069258161530E-2
 8.600000000000000E7    -8.848009240470230E-1    1.290901696748769E-1    2.819527293801429E-4   -2.761958857684377E-4    3.140000539331582E-4    1.943095763098056E-4    5.481044122503020E-1   -6.989854277361746E-2
 8.700000000000000E7    -8.892261724647076E-1    1.283792520942269E-1    4.706131594029730E-4   -1.342562433975461E-5   -7.070847547888413E-4   -5.054267003776762E-5    5.493613849277679E-1   -7.518110741411918E-2
 8.800000000000000E7    -8.815298215229732E-1    1.332124386967217E-1   -1.480313239007045E-4    3.430204098701876E-4   -2.660158972458551E-5    2.683956794607900E-4    5.486579482130697E-1   -7.710420861399080E-2
 8.900000000000000E7    -8.848474845206900E-1    1.302064936382979E-1   -3.034014205625713E-4    1.821971853828944E-4    2.644908810035304E-4    2.677157794518019E-4    5.516747061408060E-1   -7.133266292840812E-2
 9.000000000000000E7    -8.871162603594110E-1    1.385541500754958E-1    5.072332904512498E-5   -3.983253570382253E-4   -3.835232094780819E-4   -6.631046556237529E-5    5.493776692862291E-1   -7.623742496279141E-2
 9.100000000000000E7    -8.784942329374578E-1    1.335924527918330E-1    2.445326359458550E-4    5.835469913584482E-5   -3.385930634101985E-4    5.715465746448664E-4    5.459579432312884E-1   -7.645035024763785E-2
