#  HZ   S   RI   R     50.00 
! Rohde & Schwarz Vector Network Analyzer 
! Rohde-Schwarz,ZNBT8-20Port,1318700624101681,3.50
! Created: UTC 7/15/2025, 2:11:33 PM
! freq[Hz]                re:S1010                im:S1010                re:S0410                im:S0410                re:S1004                im:S1004                re:S44                  im:S44
 1.000000000000000E6    -9.076482489783837E-1   -7.804586958902440E-3    4.665954863467416E-4   -8.411423165610560E-5    9.124544653349425E-5   -1.054224532835478E-4    6.763057504692361E-1    1.106181301922174E-2
 2.000000000000000E6    -8.962480798020644E-1   -1.540695771660707E-2   -2.967775823244693E-5   -2.521199842502673E-4    2.986157836879180E-5   -6.159847395769964E-5    6.695495966839972E-1    9.450605700183244E-3
 3.000000000000000E6    -9.077261890040944E-1   -9.297952734909706E-3    4.136139633166535E-4    3.745616050367535E-4    1.993278927248775E-4   -2.056284147959653E-5    6.819610724109049E-1    5.233923606242281E-3
 4.000000000000000E6    -9.106867076657632E-1   -2.492006416771398E-3   -7.064534904573734E-5   -6.385152813926230E-5   -1.960532157548535E-4   -2.074497835492578E-4    6.802646769422908E-1    3.668976908223854E-3
 5.000000000000000E6    -9.056963263107102E-1   -1.398125362488974E-3   -2.772504117057363E-4   -5.846614530795659E-5    1.687383970095816E-4   -1.461276012004633E-4    6.815299358752606E-1   -2.804755816140916E-3
 6.000000000000000E6    -9.011592887231694E-1    9.015620490931244E-3   -9.730229160468820E-5    1.140694892045513E-4    2.164228793584615E-5    1.213999422225417E-4    6.808404671642709E-1    2.485957458017658E-4
 7.000000000000000E6    -9.120562014471106E-1   -1.418007202157688E-3    1.362339974142895E-4    9.172792328440169E-5   -1.673094864755675E-4   -1.709351892531877E-5    6.798617102964887E-1   -3.902198477860025E-3
 8.000000000000000E6    -8.975016138845402E-1    1.160610599800608E-2   -7.709862803479396E-6    2.031132841907448E-4   -1.350152720498785E-4   -5.919042551949398E-5    6.796462396122005E-1   -4.654846005661819E-3
 9.000000000000000E6    -9.089195479532826E-1    6.667297629218519E-3   -1.975959189012503E-4    3.342395245693625E-4    2.448836193464684E-4    2.666178815001202E-4    6.737365216412251E-1   -5.269806107928179E-3
 1.000000000000000E7    -8.999531553558620E-1    1.925687874015826E-2   -2.226176723973271E-4    1.832369849935407E-4   -3.896660067022688E-5   -1.617577451598784E-5    6.731016418718361E-1   -8.070658824539646E-3
 1.100000000000000E7    -9.006942339524813E-1    2.248441756429927E-2   -8.527340142471787E-5    1.378964752435370E-4   -4.484520186896807E-5   -8.565807262815300E-5    6.774457729967143E-1   -1.472492327946679E-2
 1.200000000000000E7    -9.003449320759503E-1    1.014663583224521E-2   -1.617122624461445E-4    1.081824404818180E-4    2.458732199520800E-4    5.553625782409455E-4    6.837293586782929E-1   -7.671042286827701E-3
 1.300000000000000E7    -8.974597496772252E-1    2.158439474682866E-2   -4.117310034120131E-4   -4.221640414935577E-4   -3.049084397254500E-4   -4.063412527758323E-4    6.759409169131237E-1   -1.833403728475438E-2
 1.400000000000000E7    -9.060325543124009E-1    2.475511291197980E-2   -2.556287338328472E-4    8.693759813290647E-5    1.132314481307894E-4    3.430082072579006E-4    6.824153458328094E-1   -1.016723768326197E-2
 1.500000000000000E7    -9.043032266384701E-1    2.447262673866813E-2    8.696564149161519E-5   -2.430909145397549E-4   -1.308236581197341E-4   -1.970555121074882E-4    6.706517938193665E-1   -1.583762948164535E-2
 1.600000000000000E7    -9.116637864434829E-1    2.401179184923063E-2   -3.029425003384022E-4    2.528236014201279E-5    5.582749522068497E-4    1.703623611498358E-4    6.780257244705021E-1   -1.729379645651313E-2
 1.700000000000000E7    -9.007315490735450E-1    3.192198392208733E-2   -2.193108755280552E-4    1.240509334987160E-5   -1.010017274595935E-4   -7.811718009188610E-5    6.817424591538068E-1   -1.477125057712414E-2
 1.800000000000000E7    -9.003598347423105E-1    2.443398533592794E-2    3.605046147543685E-4    1.199223332160113E-4   -3.961096193242263E-5    9.937481280207227E-5    6.763331796185781E-1   -2.943213756590587E-2
 1.900000000000000E7    -8.998503905800624E-1    3.010689591208895E-2    2.156560659564767E-4   -1.298801557663174E-5    3.748769407782245E-5   -8.217164947654675E-5    6.790184005361728E-1   -2.418931984245818E-2
 2.000000000000000E7    -8.944518720008092E-1    3.676417533468654E-2   -2.567916890823933E-4    1.702693647946684E-4   -3.544698405427533E-4   -3.995621385690348E-4    6.796662578278406E-1   -2.223857560551501E-2
 2.100000000000000E7    -9.001282274460662E-1    3.308680046980240E-2    9.635899206970262E-5   -2.176175508852386E-5    7.210619018158949E-4    2.438210701359862E-4    6.799101866699825E-1   -2.057637701085675E-2
 2.200000000000000E7    -8.980395776327895E-1    2.840540961681365E-2   -4.286399026919770E-4    4.181811474371016E-4   -4.685578428422108E-6   -2.396169784843520E-4    6.728926719989380E-1   -2.525576446940731E-2
 2.300000000000000E7    -9.028657067303384E-1    4.275361774169600E-2    4.168443659674130E-5   -5.476536755807581E-5   -2.544500883312730E-4   -6.837829541795043E-5    6.781731678646440E-1   -3.296905418250769E-2
 2.400000000000000E7    -8.907082827729687E-1    3.425562448042899E-2    1.262689765455907E-4   -3.522228381214720E-4   -1.156343196299992E-4    1.210312719815651E-4    6.727469682662129E-1   -1.749468665562232E-2
 2.500000000000000E7    -8.779845751321919E-1    5.181262306533522E-2   -3.919186352595896E-4    7.646613387606567E-5   -5.076736738772154E-5    6.159942378794093E-4    6.831736927835044E-1   -2.611874978548985E-2
 2.600000000000000E7    -9.068296500321458E-1    3.799749835028943E-2    6.872652261138921E-4   -2.803861387014776E-4    1.711707832055314E-4    2.636538280053374E-4    6.767386391522042E-1   -2.903067234913457E-2
 2.700000000000000E7    -9.115871459294295E-1    4.355769670684815E-2    2.906051548745020E-4   -1.106532140135712E-4    4.733714796485864E-4    2.637438907087187E-4    6.777425832229277E-1   -2.609078981847323E-2
 2.800000000000000E7    -8.977193760705936E-1    4.317104016529241E-2   -3.243023170561001E-4   -1.508778049476962E-4    1.101502392030983E-4   -4.888034003223896E-4    6.737617905614689E-1   -2.966115021324078E-2
 2.900000000000000E7    -8.954763940048651E-1    4.329651766742790E-2   -1.751868732000322E-4   -2.598509773770160E-4    2.591950831698768E-4    5.710123341852012E-4    6.796954523351135E-1   -3.564123542001050E-2
 3.000000000000000E7    -9.043638405148767E-1    5.047912761397259E-2   -2.111749985183800E-4    3.361673259457497E-4   -1.538193188579614E-4   -8.293784233005291E-5    6.741311751783370E-1   -2.942333992529771E-2
 3.100000000000000E7    -8.996354573403430E-1    5.037016102334052E-2   -7.644889177209287E-5   -2.960071625125712E-5   -1.799061067422465E-4    2.705613201888479E-4    6.734276898832151E-1   -2.988301504668473E-2
 3.200000000000000E7    -8.981513054491039E-1    4.605453483471473E-2   -4.581332169516860E-6    1.928278732146148E-4    4.621919316008542E-4   -2.860569886150468E-5    6.768225312474938E-1   -4.163855352642881E-2
 3.300000000000000E7    -8.952132941296449E-1    4.877126730098243E-2    5.579271773422784E-6    2.779317486102869E-4    3.826026273489333E-4   -6.299025729232170E-4    6.746427631039283E-1   -3.912181357647616E-2
 3.400000000000000E7    -8.980739703298583E-1    4.659572686425027E-2   -7.320369520375026E-4    3.170712298663844E-4    4.478406591133093E-6    1.317345941067447E-5    6.796137621729086E-1   -3.709051851711631E-2
 3.500000000000000E7    -8.999966393507421E-1    5.317221633131410E-2    2.384365147935452E-4   -4.337740259122101E-4   -3.177654247353200E-4    5.023107280268175E-4    6.764983475814943E-1   -3.601223534298929E-2
 3.600000000000000E7    -9.082312622313244E-1    5.451084288652255E-2    4.090062138146976E-4    6.140675927575749E-5   -2.190048166663025E-4    9.570699199596387E-4    6.798229769086251E-1   -3.678499269549965E-2
 3.700000000000000E7    -8.909878506607777E-1    5.101173874854342E-2    6.512796864316155E-4   -8.213752223131709E-4    2.522536553011697E-4    2.675939525409559E-4    6.717419673088182E-1   -4.128207022517610E-2
 3.800000000000000E7    -9.045212966030203E-1    5.508456135860210E-2   -1.896164600468166E-4    5.150621475771298E-4    4.401748797361820E-4   -3.065273650465593E-4    6.790603615033222E-1   -4.128761216157044E-2
 3.900000000000000E7    -8.986975325037748E-1    5.753815567545890E-2   -1.776436564988756E-4   -4.444915074562113E-4    3.999585036803863E-4    3.666328928949804E-4    6.754121583561455E-1   -3.623299621885086E-2
 4.000000000000000E7    -9.010667993023384E-1    6.058451837335768E-2    3.762937574907934E-4   -9.208194307803686E-4   -6.702659100915669E-4   -3.430906332137521E-5    6.778321096200167E-1   -4.365691395167073E-2
 4.100000000000000E7    -9.003336408819450E-1    6.083658059689041E-2    5.254440975258017E-5   -9.801326152821102E-5   -9.304928477386867E-5   -1.054371700291846E-4    6.749318901172305E-1   -4.553207413343978E-2
 4.200000000000000E7    -8.968985616767984E-1    5.897616535894171E-2   -1.703543266529963E-4   -4.240167969116144E-4   -4.112976565605110E-5    9.796884421947594E-5    6.752770324649678E-1   -4.023097806126141E-2
 4.300000000000000E7    -8.953344753671694E-1    6.516780897734493E-2    3.001220497373721E-5    1.795827919550680E-5    1.252546133293414E-4    7.526093713035230E-4    6.761587557872630E-1   -4.575750313502822E-2
 4.400000000000000E7    -8.967235137931532E-1    6.270962825355539E-2    2.461694239086907E-6    4.949297030080156E-4    3.916210524666071E-4   -6.703007374441871E-4    6.771589302120044E-1   -5.441239673442360E-2
 4.500000000000000E7    -8.984820303651233E-1    5.957460001303166E-2   -9.687866211757973E-5   -6.722812693137651E-4   -4.030434399251612E-4    7.432825701818284E-5    6.737502261926809E-1   -4.850510251123276E-2
 4.600000000000000E7    -8.915067767232480E-1    6.996487434547574E-2   -3.749729069914281E-4    1.497355171728476E-4    1.375260111177584E-4   -5.860272765329975E-4    6.769605305650807E-1   -4.610042710532280E-2
 4.700000000000000E7    -8.983506135501343E-1    6.946417748491449E-2   -1.281252693117853E-4   -1.191650864136595E-5   -2.474656373174678E-4   -1.098736846630062E-4    6.683121716090560E-1   -4.866853117500838E-2
 4.800000000000000E7    -9.002903419971081E-1    6.614141432705883E-2   -6.145094181886477E-4    1.993267589054939E-4   -7.404058792891187E-4    3.701037911006858E-4    6.760092480226736E-1   -5.938937173716158E-2
 4.900000000000000E7    -8.999563322072803E-1    7.084849746222700E-2   -3.352747716919400E-4   -2.482415740412376E-4   -6.975979698296871E-4    2.479750251930503E-4    6.753206245237202E-1   -5.383136300687815E-2
 5.000000000000000E7    -8.956646926624848E-1    7.399861052215258E-2   -9.890835851057515E-5   -1.149921954418525E-4   -3.567129922483141E-4    7.886493463131938E-6    6.751508257712440E-1   -5.341942562139287E-2
 5.100000000000000E7    -8.885275895063498E-1    6.651534800797136E-2   -2.510041436355260E-4   -1.187105108182562E-4   -4.337962911722581E-5   -2.907074379374993E-4    6.725833534389877E-1   -5.261733008586628E-2
 5.200000000000000E7    -8.978171793774452E-1    7.178010418781698E-2   -1.767627548120833E-6    6.613037438175072E-4   -2.539446693915994E-4    1.162451115453194E-4    6.742335116486434E-1   -5.697947617073495E-2
 5.300000000000000E7    -8.935717189007749E-1    7.222400586515403E-2    2.681423916725341E-4    2.017329235975776E-4    6.988759671183004E-4    2.496934239160722E-4    6.796514260382538E-1   -5.930166999612937E-2
 5.400000000000000E7    -8.972688153799818E-1    7.543373772517534E-2   -4.262301832683367E-4   -3.778600639558627E-4    2.846253732482294E-4    7.677408767771695E-5    6.695319595415555E-1   -5.843924739453151E-2
 5.500000000000000E7    -8.937478676385151E-1    8.234746360953017E-2    1.005506624411688E-4   -6.277834828797497E-4    2.144299548490283E-5   -4.604872922961506E-4    6.683239243222706E-1   -6.356929634007170E-2
 5.600000000000000E7    -8.972728867355945E-1    8.617792752286864E-2   -2.752382686746085E-4    5.074648511956079E-4   -2.969079227774847E-4    3.066696306496875E-4    6.698440441251529E-1   -5.913272826153100E-2
 5.700000000000000E7    -8.936844931100261E-1    8.645415915236612E-2    4.708954996366444E-4   -1.980020385296702E-4    7.135342802702348E-4    1.473150489415042E-6    6.739268189533698E-1   -6.081879517572759E-2
 5.800000000000000E7    -8.916917610306384E-1    8.571068023491119E-2    9.473143893160605E-5   -3.649287659581840E-5    1.419019307175702E-4   -5.337264637783789E-5    6.706937085504485E-1   -5.949524177825994E-2
 5.900000000000000E7    -8.909818446435405E-1    8.446672505136328E-2    1.040652871695204E-3   -4.250724417987594E-4    4.954584309353995E-4   -4.826142057197259E-4    6.713670627311118E-1   -6.210247754894944E-2
 6.000000000000000E7    -8.912089604260164E-1    8.666034838360609E-2   -1.868563042254725E-4   -2.047897339322209E-5   -1.133714923770659E-4    2.116004624729707E-4    6.736112842359706E-1   -6.496209889777341E-2
 6.100000000000000E7    -8.872967741240775E-1    8.577421062442712E-2   -1.046820035231099E-4   -2.054996830846239E-4    4.282376013565060E-4   -7.394842207815003E-4    6.700696881637339E-1   -6.602556014654679E-2
 6.200000000000000E7    -8.902765476447742E-1    9.481192490205187E-2   -2.408876357147415E-4    3.956446061757303E-4    4.142675815122187E-4    2.691749274615979E-4    6.712155845938677E-1   -6.892723933105253E-2
 6.300000000000000E7    -8.926491722711101E-1    9.316203399135702E-2   -8.399682676457823E-5   -1.725788195733793E-4    1.912028540404826E-4   -1.260504699838299E-3    6.734563853742889E-1   -6.896886769321812E-2
 6.400000000000000E7    -8.959636558407242E-1    9.012142496261658E-2    4.034309060783092E-4    4.396697932157987E-4    3.183716753931268E-4    1.231228462601078E-4    6.652282147350158E-1   -6.639183393573068E-2
 6.500000000000000E7    -8.902734101023403E-1    9.206290408778661E-2    1.814733119351313E-4    6.747295425355497E-4    3.858620977834024E-4    3.292125073284154E-4    6.669259423322037E-1   -7.078232967974911E-2
 6.600000000000000E7    -8.883606417632964E-1    9.419714963401310E-2    6.951862526519764E-6   -1.128262809632273E-4    2.332314216133452E-4   -1.326133169125004E-4    6.703601078664844E-1   -6.878147415858955E-2
 6.700000000000000E7    -8.912962796581525E-1    9.442348782924435E-2    4.366790444286655E-4    3.882386569940464E-4   -2.020434536780493E-4   -6.397931794883821E-4    6.677798913552918E-1   -7.460284369810954E-2
 6.800000000000000E7    -8.890263786954081E-1    9.735032024448002E-2    2.540571200963200E-5    3.365966337685477E-4    3.914306168941077E-4    5.604680275657877E-4    6.714069392451445E-1   -7.444033566533727E-2
 6.900000000000000E7    -8.915579486358152E-1    9.730726246201747E-2    8.612739077881973E-5   -8.717840246438538E-5    4.048027809212859E-4    1.203431052614906E-5    6.725115380960436E-1   -7.355126347902272E-2
 7.000000000000000E7    -8.911526998141898E-1    9.776934855818006E-2   -5.431491622347196E-4   -7.814331625343062E-5   -1.403530623727235E-5   -6.073784026243605E-4    6.715269447192941E-1   -7.140015047948049E-2
 7.100000000000000E7    -8.901226127575098E-1    1.026815215312503E-1    4.339246256269359E-4   -3.411162695103475E-4    2.028809808383069E-4    4.742484753263485E-4    6.715910281941627E-1   -7.581564433431150E-2
 7.200000000000000E7    -8.880464747591368E-1    1.071815451721302E-1   -1.932113324582411E-4    3.931421532711147E-4    1.681772241790555E-4   -4.017545641558526E-4    6.689223575998783E-1   -7.469173807898781E-2
 7.300000000000000E7    -8.905619337388757E-1    1.042751926115049E-1   -8.562413618970886E-4    1.172850716534745E-4    8.323886845243438E-4    4.141943903530359E-5    6.687871677155365E-1   -7.412112785163348E-2
 7.400000000000000E7    -8.889747307668474E-1    1.023660376440930E-1    3.325818077090637E-4    4.857462769965289E-4   -2.514085924043598E-4   -8.792294330800084E-4    6.697280025796954E-1   -7.849970448140554E-2
 7.500000000000000E7    -8.888459565414307E-1    1.078248513536505E-1    1.236532090430672E-4    5.207186124451411E-4    1.724058883097963E-4   -2.317230446440063E-4    6.635310034834023E-1   -8.080436496781974E-2
 7.600000000000000E7    -8.839860764395183E-1    1.065657100186431E-1    3.553287952409471E-4   -2.186023114768992E-4   -4.945693884166313E-6    5.513831690680270E-4    6.711597056321994E-1   -7.943028792786659E-2
 7.700000000000000E7    -8.894997929178983E-1    1.094543331787572E-1   -3.503543423426374E-4    1.932930240960562E-4   -1.511081346036389E-4    6.552963011537804E-4    6.642521449276384E-1   -7.681558492896090E-2
 7.800000000000000E7    -8.944156617128999E-1    1.089533386335056E-1   -1.454816345991181E-4   -1.543077113154218E-4    1.527661231677931E-5   -4.742248207609105E-4    6.634257730724991E-1   -8.369101971492549E-2
 7.900000000000000E7    -8.892932601227194E-1    1.115579524454075E-1   -1.118328795825546E-4   -3.696740398461114E-4    2.072930487650544E-4    6.973693772477656E-4    6.600364165842565E-1   -8.420186350156988E-2
 8.000000000000000E7    -8.864524837231100E-1    1.093001358711449E-1   -2.151238840142094E-4   -7.478545541586489E-4    4.185925080624451E-4    6.506928869204132E-4    6.651759084518126E-1   -8.466579022945750E-2
 8.100000000000000E7    -8.892658682776106E-1    1.160773056123861E-1   -3.510634833240719E-4   -1.859017687667996E-4   -3.018441853897936E-4   -2.317588715596509E-4    6.637897467078993E-1   -8.169234706297772E-2
 8.200000000000000E7    -8.856509924513499E-1    1.143720577381255E-1    2.477916732248527E-4   -4.877580190441913E-4    2.409653264890033E-4    5.275495565270060E-4    6.620013689244396E-1   -8.902223578661275E-2
 8.300000000000000E7    -8.917839155479037E-1    1.132341044197313E-1   -1.172313313658922E-4    2.880168609729957E-4   -9.046932174407391E-4    1.722474455318575E-4    6.660784232386523E-1   -9.014517570699765E-2
 8.400000000000000E7    -8.917155845116433E-1    1.143554331042633E-1    6.151723405677854E-5    7.021517471699512E-5   -4.075513062442201E-5   -5.427650926072336E-4    6.677832312594375E-1   -8.543235594031684E-2
 8.500000000000000E7    -8.863768734793152E-1    1.178522209202302E-1    4.787653178470665E-5    2.901623312779473E-4   -8.940636371641268E-7    9.466955850670645E-4    6.648407358808643E-1   -8.514929672750081E-2
 8.600000000000000E7    -8.838112645702882E-1    1.186901607788898E-1    4.202943730174706E-4   -2.932752393310068E-4   -2.568439456767106E-4   -9.215232866113110E-5    6.687687771486830E-1   -8.498623289734419E-2
 8.700000000000000E7    -8.910678315447301E-1    1.222402624020618E-1    7.899446957471894E-5   -3.132907605036324E-4    1.354452344343393E-5   -3.138101548694525E-4    6.660152384447484E-1   -9.160453606793820E-2
 8.800000000000000E7    -8.822189561272635E-1    1.267953863186209E-1    5.194519561236373E-5    7.095649175045954E-5    5.071680679213363E-4    3.330702553252348E-4    6.640610174748903E-1   -9.288662214068263E-2
 8.900000000000000E7    -8.857836000115153E-1    1.225912769511020E-1    4.297361620749908E-4    5.815815010861922E-4   -5.914199003853641E-4    3.202049333733324E-4    6.625673051004395E-1   -9.335818002504444E-2
 9.000000000000000E7    -8.841275253778715E-1    1.262026672974996E-1    2.795733797896115E-4   -5.689419677471302E-4   -1.845038494802956E-4   -7.571713328543402E-4    6.697914042250814E-1   -9.661002582157890E-2
 9.100000000000000E7    -8.846468840028079E-1    1.326242288877785E-1   -2.063315993442905E-4    2.919890219738594E-4   -4.757362755387399E-4    5.451004959987791E-4    6.644731172977159E-1   -9.473256356206008E-2
