#  HZ   S   RI   R     50.00 
! Rohde & Schwarz Vector Network Analyzer 
! Rohde-Schwarz,ZNBT8-20Port,1318700624101681,3.50
! Created: UTC 7/15/2025, 2:09:59 PM
! freq[Hz]                re:S1010                im:S1010                re:S0610                im:S0610                re:S1006                im:S1006                re:S66                  im:S66
 1.000000000000000E6    -8.990818084720510E-1   -1.733322780699256E-2    2.958260624552453E-4    1.141900325443956E-4    2.653338870059657E-4   -1.289514645648270E-4    9.757143094047531E-1    1.633064656154395E-2
 2.000000000000000E6    -8.903677225039498E-1   -7.875459689511132E-3   -1.138433537657215E-4   -1.551054712170672E-4    2.656933969083472E-4   -3.516368558147504E-4    9.773143084275564E-1    1.739644709076029E-2
 3.000000000000000E6    -9.023720410421501E-1   -3.560211641360025E-3    6.732552784324207E-5    2.523433655153046E-5   -4.021867651939397E-4    3.226525438874778E-4    9.815510409773130E-1    5.621967056416009E-3
 4.000000000000000E6    -9.084781067609720E-1   -1.076868811464966E-2    1.551002486738314E-4   -1.470263573944838E-4    1.075935720034611E-4    2.193855491746124E-4    9.795061285053047E-1    4.733270175438842E-3
 5.000000000000000E6    -9.027150638036695E-1   -1.534847227317120E-4   -9.095633002998545E-5   -5.125688903261765E-5   -4.061782620827607E-4    2.788024633658655E-4    9.711422261136314E-1    5.676076249356342E-3
 6.000000000000000E6    -9.015414311009835E-1    1.165404954466167E-3   -5.201805938876326E-4   -1.849421420968291E-4   -3.316122324450027E-4    5.501104733484342E-6    9.698048827744432E-1    5.797169018803921E-3
 7.000000000000000E6    -9.091716596823669E-1   -9.393525287886985E-3   -6.565195986276254E-4   -9.675303042661777E-6    3.460438409841325E-4    1.037378544801219E-4    9.706018684322386E-1   -7.982860249358204E-3
 8.000000000000000E6    -9.025423312492717E-1    1.561963063478408E-2   -1.649689651899623E-4   -8.208509328392731E-5    5.444291956574875E-5    1.657877338236306E-4    9.705261871829376E-1   -9.104921764502345E-3
 9.000000000000000E6    -9.034053873515979E-1    2.013174797727300E-2    2.188227768143304E-4    1.404568915483089E-4    4.094265429252689E-4    2.300366089857923E-4    9.826119686013282E-1   -1.592940269539860E-2
 1.000000000000000E7    -8.956126203934799E-1    1.785593703379570E-2    2.951010455985301E-4    2.153480728387698E-4   -1.714255168221195E-4   -6.566088711243788E-5    9.716787012708820E-1   -2.133579231679105E-2
 1.100000000000000E7    -8.936444973136125E-1    2.258671719444798E-2    1.178287614660431E-4   -7.868865416733391E-6    7.435251140120931E-5   -5.612494751250112E-4    9.853484156753792E-1   -1.255820818320027E-2
 1.200000000000000E7    -8.910607170511454E-1    1.366003567401369E-2   -1.655091565153025E-5   -3.186383173928452E-4    2.605680796584982E-4    3.032348016509163E-4    9.743575890766495E-1   -2.379932889321706E-2
 1.300000000000000E7    -8.961762587129204E-1    2.722570604132418E-2   -1.266345366833336E-4    3.980939733297710E-4   -1.221370796449367E-4    7.216967760912297E-5    9.831271691080774E-1   -2.990187035234729E-2
 1.400000000000000E7    -9.037667510400245E-1    1.988014045127117E-2   -2.866976358116850E-4   -4.243194557227438E-6    2.468937829138671E-4   -4.948302232987139E-4    9.785774827909234E-1   -2.256992137811820E-2
 1.500000000000000E7    -9.043260029812032E-1    2.154897111673435E-2    6.483438512797488E-5   -5.514311738494752E-5   -2.052316158896342E-4    1.314406846422249E-4    9.751451991886807E-1   -2.199051362471051E-2
 1.600000000000000E7    -9.059867298003033E-1    2.452947728677070E-2    1.213123479015592E-4   -1.542142658775682E-4    7.224746176695301E-4   -4.682730090646961E-4    9.774050328266741E-1   -2.011654313881034E-2
 1.700000000000000E7    -9.005002150237380E-1    3.750374867189869E-2   -1.740587165336090E-4    2.682677358566561E-4    1.551654580510838E-4    6.206530390415315E-6    9.707665166172036E-1   -3.062634713802512E-2
 1.800000000000000E7    -9.005395784364393E-1    2.555210229783755E-2   -2.166109378111389E-4   -2.711218886869739E-4   -2.713697376212298E-4    1.659980432653693E-4    9.810767672549837E-1   -2.372803555562300E-2
 1.900000000000000E7    -9.057762003764401E-1    3.238518276764837E-2   -7.288653642356073E-5   -1.004743026351694E-5    3.836660805783597E-4    5.777139678339594E-5    9.742836232096319E-1   -3.266939659389414E-2
 2.000000000000000E7    -8.941681865535871E-1    3.494398915020729E-2    4.320475481433477E-4    2.044019977775798E-4   -2.937043678999011E-5    1.632386532230778E-4    9.813425388393849E-1   -2.748398954943370E-2
 2.100000000000000E7    -9.043711442100558E-1    2.773369655708339E-2    2.060377368676968E-4   -6.550983804876751E-5   -6.018912071263723E-5   -3.138501672194681E-4    9.592841664204559E-1   -3.314932773393962E-2
 2.200000000000000E7    -8.949890369849582E-1    3.225163543869591E-2    5.738403474719444E-5    1.502498096678049E-4   -2.523387707694649E-4    4.109755888560217E-4    9.709421424971222E-1   -3.813929742106810E-2
 2.300000000000000E7    -8.916667594201628E-1    2.895122595916349E-2    1.535284940122325E-4    4.289689418680448E-5    1.405081294206436E-4   -1.806026133126177E-4    9.738366443374410E-1   -3.737437594007592E-2
 2.400000000000000E7    -8.937734028202022E-1    4.175657873342850E-2   -1.286176517342087E-4   -5.018347056653514E-5   -1.256902321192402E-4   -4.906720014955010E-4    9.697643636284130E-1   -4.295192619749569E-2
 2.500000000000000E7    -8.878657059784877E-1    4.072400253741710E-2   -5.413775972547055E-4    3.482277097715494E-4   -2.078678390790526E-4    4.987291874242645E-4    9.781716298894114E-1   -4.869932542657728E-2
 2.600000000000000E7    -9.014428303842958E-1    3.897749984747542E-2   -1.075936141294293E-3   -6.128017573279008E-4    1.329546447851143E-4    4.013926835180646E-4    9.750344026390314E-1   -4.594744461574636E-2
 2.700000000000000E7    -9.005355605304386E-1    4.342875284200183E-2    1.836158205646586E-4    1.106068663335480E-3   -1.582880021302263E-4   -3.051671857155310E-5    9.756010315889447E-1   -5.255286335833212E-2
 2.800000000000000E7    -9.052805023662571E-1    4.148997296231415E-2   -2.028363145641673E-4   -1.209861113218936E-4    1.669680092900128E-4    1.766023239958172E-4    9.831037549111474E-1   -4.304168963946160E-2
 2.900000000000000E7    -8.986945155564444E-1    4.601612955199482E-2   -4.172176950581791E-4   -5.552782992928565E-4    3.747798584092081E-4   -7.111254715749293E-4    9.730385547778980E-1   -4.552292260272575E-2
 3.000000000000000E7    -8.986979563926804E-1    4.506910284470751E-2    2.286627723357703E-4    4.904458601292606E-5    2.179554318057794E-4    5.012150233311292E-4    9.770271567506060E-1   -5.073387463253966E-2
 3.100000000000000E7    -8.935130230421989E-1    4.184956947677585E-2   -2.681451480242370E-4    3.595252909686863E-4    4.742009237739028E-4   -4.672123930273480E-4    9.735411018619310E-1   -4.891417614305332E-2
 3.200000000000000E7    -9.047974841332941E-1    4.217346876780866E-2   -6.905581499854277E-4    2.636549142309809E-4   -4.791089122277407E-4   -2.891226199054071E-4    9.767620017897700E-1   -5.384381709973388E-2
 3.300000000000000E7    -8.977732592876677E-1    4.800633093912313E-2   -4.160058762303361E-4    3.597156842788622E-4   -3.480177515289835E-4    4.566915494673756E-4    9.700546954794004E-1   -5.485459226722920E-2
 3.400000000000000E7    -8.989214596104047E-1    4.757701437696531E-2    4.056737656083450E-4   -1.364165231007245E-4   -5.978387037777265E-4   -2.806656118687978E-4    9.732142031332291E-1   -5.512987965509758E-2
 3.500000000000000E7    -8.960118222073119E-1    5.092043277027536E-2    3.405489433966158E-4   -8.894946687425138E-4    6.760718021573938E-4   -2.133049387599972E-4    9.696397250852963E-1   -6.047530038786533E-2
 3.600000000000000E7    -9.040231176957547E-1    4.800390747844152E-2   -1.721002202018121E-4    6.279083121344215E-5   -3.908843655994492E-4    9.187607645828303E-4    9.699245998031790E-1   -5.660146066506149E-2
 3.700000000000000E7    -8.952125833071328E-1    5.832632529169203E-2    9.345462296877916E-4   -4.394628466373197E-4    7.532295035117283E-4    4.845675042401978E-5    9.777094375793545E-1   -6.056969635971732E-2
 3.800000000000000E7    -8.943223783600173E-1    5.456143629312111E-2    5.725164721453934E-5   -3.658626518736633E-4    1.065532404657448E-4    3.909689411856835E-4    9.730726007496356E-1   -6.262795910111091E-2
 3.900000000000000E7    -8.979907538410539E-1    5.598657389652335E-2   -2.419423884918643E-4   -4.814065057019104E-4    5.072827437164942E-5   -2.661972959892969E-5    9.732590705808717E-1   -7.132007866590959E-2
 4.000000000000000E7    -8.987401512812702E-1    6.374387950709796E-2    3.341289184800331E-4   -6.570499824289000E-4    2.258923388315293E-5   -5.705776815566046E-4    9.788198077225368E-1   -5.891931302932928E-2
 4.100000000000000E7    -8.991932508797146E-1    6.063660276413142E-2    7.716056915310354E-5    1.028748068587088E-4    5.294578561391157E-4   -1.724711169823242E-4    9.722091519981531E-1   -6.110855816123768E-2
 4.200000000000000E7    -8.995827552555810E-1    6.040706649125911E-2    6.434542043191466E-4    4.242345132408370E-4   -8.080043370233179E-4    1.139172779002542E-6    9.659805560322307E-1   -6.605346766348140E-2
 4.300000000000000E7    -8.995040560896973E-1    6.455129363219116E-2    3.938970658973277E-4    3.120030117229319E-4   -3.721576917836256E-4    2.093513138138267E-4    9.636944808318787E-1   -7.452691954811091E-2
 4.400000000000000E7    -8.943321147087235E-1    5.887265611872949E-2   -2.054415854653247E-4    1.223309593736212E-4   -3.242192917983095E-4    1.297174460363286E-4    9.612432788555925E-1   -7.334852451862613E-2
 4.500000000000000E7    -9.013741418966353E-1    6.259172251387410E-2    1.900093279148683E-4    1.094509334588617E-4   -8.586507703306026E-5   -4.319773926011924E-4    9.723753675572713E-1   -6.941338568326230E-2
 4.600000000000000E7    -8.963847242577819E-1    6.914230884206696E-2    3.551707616160132E-5   -6.942870565068792E-4    9.330650584499773E-5    1.186026531258054E-4    9.691012830364129E-1   -6.955336572028187E-2
 4.700000000000000E7    -8.999411182260696E-1    7.220634424547043E-2   -1.754537444482245E-4    1.662283351876137E-4   -3.393493161717971E-5   -1.731129443367698E-4    9.687223513339566E-1   -7.396678308607678E-2
 4.800000000000000E7    -8.994343142752516E-1    6.132741654338066E-2   -6.828318528793703E-4    1.675802807607519E-4    3.997229399740238E-4    3.805754624505520E-4    9.624906725961906E-1   -6.953887939528007E-2
 4.900000000000000E7    -9.013057984328362E-1    7.150403065486965E-2    1.305907577056950E-3    4.698197069537624E-4    1.797803748783662E-4   -1.008906716482268E-4    9.608867739045035E-1   -7.494807236648307E-2
 5.000000000000000E7    -8.973401823066516E-1    7.449801981828974E-2   -1.689468970573081E-4   -4.530542265009777E-5    3.273585474493851E-4    1.401794053048269E-4    9.672253871230823E-1   -7.589793518044805E-2
 5.100000000000000E7    -8.913519150984570E-1    7.714290422090578E-2    5.803016687219244E-4   -6.277398341191747E-5    8.030125034631950E-5   -4.303666988016150E-5    9.676829803149259E-1   -7.722244011779553E-2
 5.200000000000000E7    -8.994878079046600E-1    7.604248298796659E-2    5.455906399888914E-5   -4.031075419543470E-4    2.531259901316587E-4    2.284460220671869E-4    9.632585108412868E-1   -8.715187380157138E-2
 5.300000000000000E7    -8.941400050026539E-1    7.697886902450586E-2   -9.417093711305070E-4    1.164367962246820E-5    5.888899876282908E-4   -1.719698541684011E-4    9.691421297051594E-1   -8.628356659049929E-2
 5.400000000000000E7    -8.991785199312790E-1    7.866353381550940E-2    3.988569257598311E-4    3.230378546661420E-4   -6.468750758083524E-4    4.109390752320028E-4    9.611286086048551E-1   -8.491448139166660E-2
 5.500000000000000E7    -8.963905560279065E-1    8.377238362834805E-2    3.213986484000398E-6   -5.555630273958522E-4    5.670428922233976E-4    2.339221740629315E-4    9.643870357599607E-1   -7.624392069376057E-2
 5.600000000000000E7    -8.960100210119798E-1    7.919404008093758E-2    3.541610387153691E-4   -3.747591624250004E-4   -4.756829358207423E-4    2.143733049094897E-4    9.697047905395594E-1   -8.771037187194207E-2
 5.700000000000000E7    -8.918949463057460E-1    8.657379014958774E-2    5.400081368173285E-4   -5.839731579902025E-4   -5.129204465936085E-4    9.691544709124046E-5    9.591565020049972E-1   -9.007423263100404E-2
 5.800000000000000E7    -8.935193081960600E-1    8.849042829408560E-2    1.417639253936839E-4    1.795453107785400E-4    5.572654849886418E-5   -4.132170173658212E-4    9.647047324825102E-1   -8.646328896631028E-2
 5.900000000000000E7    -8.937379469447285E-1    8.741440650951318E-2    3.395125441636686E-4    1.697808526052216E-4    8.761712884647350E-5    1.786762989791059E-4    9.621538849392890E-1   -1.027227119154077E-1
 6.000000000000000E7    -8.973739264338204E-1    8.738933819347013E-2   -2.803810530242971E-4   -2.874216827093352E-4   -4.448134229067025E-5   -2.182577254841097E-4    9.669721215804622E-1   -9.250101888433501E-2
 6.100000000000000E7    -8.918461739403113E-1    8.782069007215457E-2   -9.169657210490256E-4   -3.003100879119077E-4   -2.852380556440578E-4   -7.963559629482964E-7    9.642260831533530E-1   -9.970288760354998E-2
 6.200000000000000E7    -8.982222846464721E-1    9.474375797728972E-2   -6.592658176470330E-5   -3.576251133173667E-4    3.472811951683878E-4   -1.635111835547776E-4    9.588121464701782E-1   -9.970091522019124E-2
 6.300000000000000E7    -8.958293028643404E-1    9.142895662844980E-2    2.487208033819451E-4   -7.476121008895395E-5   -2.995298259191428E-4   -6.602857044739573E-5    9.649923150850349E-1   -1.067292810709321E-1
 6.400000000000000E7    -8.896917562002314E-1    9.169341204844685E-2   -3.105463168838023E-4   -8.327748066639985E-4   -2.148113953916156E-4   -1.849051817108551E-4    9.588814783653693E-1   -1.002487308966573E-1
 6.500000000000000E7    -8.858322822776853E-1    9.133468745471807E-2    1.549640070595466E-4    1.298971675426690E-4    3.710374743878699E-4    2.927925578744672E-4    9.627585798912649E-1   -1.005298775979908E-1
 6.600000000000000E7    -8.879380413858966E-1    9.347421006351374E-2    5.745712722965853E-4    4.318031013757058E-5    3.896119066011512E-4    1.681922407507026E-4    9.552167638811504E-1   -1.045013550415688E-1
 6.700000000000000E7    -8.909927219639634E-1    9.279102610594875E-2    9.354711594704875E-5    7.060840463216450E-5   -2.356705472173322E-4   -4.798419463233163E-4    9.677500322738306E-1   -1.068322279550766E-1
 6.800000000000000E7    -8.899950274194266E-1    9.885692736172200E-2   -2.675411094298834E-4    1.975725648919656E-4    6.513831418936995E-5   -4.790467309969687E-4    9.586485409090422E-1   -1.071593319363406E-1
 6.900000000000000E7    -8.900085932286813E-1    9.756693500096782E-2    2.169183324699591E-4    1.495346443677753E-4   -1.856115680122062E-4   -9.919910356035327E-5    9.557344788550164E-1   -1.067912416423639E-1
 7.000000000000000E7    -8.943237768604300E-1    9.506292925314760E-2    2.824407989984783E-4    7.343800178057282E-4   -5.787311930038780E-4   -4.486221243299652E-4    9.654980842207170E-1   -1.164483904813342E-1
 7.100000000000000E7    -8.935330016523486E-1    1.053418879360056E-1   -7.392705227592847E-4    1.953833710320762E-4    2.470236964848430E-4    3.246672654357625E-4    9.663122512790113E-1   -1.160991775381417E-1
 7.200000000000000E7    -8.879308827599044E-1    1.017192286941425E-1    2.555565007107068E-4    3.513621685169769E-4   -6.996088830941372E-4   -5.358417873890911E-6    9.599800758044107E-1   -1.103204718770578E-1
 7.300000000000000E7    -8.911457826919114E-1    1.021254332754037E-1    4.244642848708410E-4   -6.995053129474723E-4   -4.881111844721268E-4    2.637999155881155E-4    9.593631612628822E-1   -1.161760132165967E-1
 7.400000000000000E7    -8.915088142087936E-1    1.020633332956724E-1    7.046559641360059E-4   -1.502460365786382E-4   -2.416307254736162E-4   -5.483598993024769E-4    9.610708101552602E-1   -1.181834982598762E-1
 7.500000000000000E7    -8.881298045126113E-1    1.043218114068195E-1   -1.507014970463213E-4   -1.561186312479098E-4    8.585822015168821E-5   -5.868167959605219E-4    9.530589107966180E-1   -1.203566782464022E-1
 7.600000000000000E7    -8.884180612455043E-1    1.084331647924807E-1    1.280009402444610E-4   -4.450226207795184E-4   -2.032754241648956E-4    4.932701518729528E-4    9.594112382191679E-1   -1.128495316412885E-1
 7.700000000000000E7    -8.931241242356461E-1    1.092239587372267E-1   -3.934709624743249E-4   -5.353068567185323E-4    5.298454587687991E-4    1.923478610406146E-4    9.608860127571751E-1   -1.170258723559850E-1
 7.800000000000000E7    -8.900248764475897E-1    1.026691813880331E-1    5.552487895048845E-6   -5.988772138372846E-4   -3.121392864764865E-5   -1.903685318614953E-5    9.590202215323417E-1   -1.209031193258491E-1
 7.900000000000000E7    -8.898475289657671E-1    1.055220861124836E-1   -4.556940192247992E-4   -4.804754458850958E-4    1.958200409660423E-4    1.176946593941106E-4    9.581695114259310E-1   -1.249180271882829E-1
 8.000000000000000E7    -8.872363836711220E-1    1.145540643642484E-1    2.728408831071565E-4    1.325364726874220E-4   -2.037173395334150E-4    4.909480282547157E-4    9.637216595836919E-1   -1.253072032489623E-1
 8.100000000000000E7    -8.841340721526962E-1    1.160593511411342E-1    1.558040160718813E-5    4.458614719265939E-4   -1.188700348861428E-5    6.172658212446263E-5    9.559031255323563E-1   -1.207034977328016E-1
 8.200000000000000E7    -8.837939012024157E-1    1.115190990675396E-1   -1.859952847489602E-4   -7.098153788016028E-5    2.282883007182363E-5    3.103388723296004E-4    9.546009573172644E-1   -1.254556533850934E-1
 8.300000000000000E7    -8.887868528819537E-1    1.123818540401093E-1   -2.067549326791499E-4    1.182998150633007E-4   -8.456244816184721E-5   -5.876308258604029E-5    9.568066259454638E-1   -1.299487442082100E-1
 8.400000000000000E7    -8.831381024401789E-1    1.144674817114972E-1   -6.139672406203037E-4    3.241793190513956E-5    2.417888361100934E-4    5.822556105247098E-5    9.594616199003589E-1   -1.309387939295367E-1
 8.500000000000000E7    -8.846713519519374E-1    1.147149327899636E-1    6.277332319013065E-4   -2.865068126530304E-5    2.018890330234491E-4    6.567928623517076E-5    9.549082983398639E-1   -1.296174124836004E-1
 8.600000000000000E7    -8.879039120403605E-1    1.223724301879755E-1   -4.635557739653226E-4    3.074513660239876E-5    2.942527599701758E-4   -3.583137075581932E-4    9.510011777681187E-1   -1.328915662180850E-1
 8.700000000000000E7    -8.895585010872532E-1    1.172174207163635E-1   -3.866124644760009E-5   -1.641901350798902E-4    5.066657378474698E-4    1.426940225858061E-4    9.527674468807831E-1   -1.337832802769566E-1
 8.800000000000000E7    -8.898834317209263E-1    1.273621233300968E-1   -5.618209319920223E-5   -9.359264657439492E-5   -3.630256504971896E-4    1.889363633317480E-4    9.559177726419098E-1   -1.304214959545502E-1
 8.900000000000000E7    -8.849221406325757E-1    1.258611432337918E-1    2.464703345650729E-5   -1.402585051748353E-4    5.105472410014734E-4    3.290492163144510E-4    9.478719076121292E-1   -1.324477545569359E-1
 9.000000000000000E7    -8.872001689990574E-1    1.286126980623928E-1    1.515679117537914E-4    2.760048117076152E-4   -1.988120510514885E-5    6.307401632578768E-4    9.568579401548145E-1   -1.441780215953830E-1
 9.100000000000000E7    -8.893057826857050E-1    1.295800742559946E-1   -1.531657323114385E-4    1.098941915581358E-5   -5.825367601636542E-5   -4.310612763991921E-4    9.596852179922293E-1   -1.430081121360968E-1
