#  HZ   S   RI   R     50.00 
! Rohde & Schwarz Vector Network Analyzer 
! Rohde-Schwarz,ZNBT8-20Port,1318700624101681,3.50
! Created: UTC 7/15/2025, 2:07:12 PM
! freq[Hz]                re:S1010                im:S1010                re:S0610                im:S0610                re:S1006                im:S1006                re:S66                  im:S66
 1.000000000000000E6    -8.309380091642383E-1    1.261089574208834E-3    1.498459787646958E-4   -1.773763266744682E-5   -2.089673997563229E-4    2.427626103802398E-5    9.802131497634895E-1    1.105532245876163E-2
 2.000000000000000E6    -8.152576733227052E-1    5.635198584184351E-3   -1.803821414014196E-5   -1.528647829732668E-4   -1.128078292602173E-6    3.621534105341126E-4    9.910473367631658E-1    1.470663728853425E-2
 3.000000000000000E6    -8.347605128777276E-1    1.002445669096546E-2   -8.318341032646517E-5    4.125936983001355E-5    6.521181965937099E-5   -1.495154665954784E-5    9.781770902994326E-1    1.257192616216665E-2
 4.000000000000000E6    -8.331129118005245E-1    5.789706642556960E-3    5.994764918175985E-4   -4.346712021918902E-5   -6.317997547010121E-5    1.386284638630685E-4    9.751436515505465E-1    4.882398221046865E-3
 5.000000000000000E6    -8.261315807514552E-1    1.411267912876736E-2   -7.739295898767316E-5    3.784202248264742E-4   -2.705172564426723E-4    3.584094880673722E-4    9.789656776647118E-1    2.228006826277609E-3
 6.000000000000000E6    -8.288733069621330E-1    1.004875413045083E-2    1.611235042157688E-4   -1.102840640017801E-4    3.418279651602985E-5    2.057581326353545E-4    9.734569059266942E-1    2.469210085914369E-3
 7.000000000000000E6    -8.334519352635754E-1    2.306488545800133E-2    5.439812923014953E-5   -1.123269895045212E-4    6.553880445036481E-5    3.192057637873916E-5    9.722024455570424E-1   -5.289929120062797E-4
 8.000000000000000E6    -8.285217864490446E-1    2.853528182279731E-2    3.745336232750978E-5    9.197145582039903E-6    2.439586401283019E-6    1.645163050023099E-4    9.692703847464874E-1   -6.520703357577165E-3
 9.000000000000000E6    -8.335913988075356E-1    3.833524142081226E-2   -1.709985939752127E-4   -2.887850955040288E-4    1.242123166207614E-4   -5.680261140073676E-4    9.725362345792846E-1   -1.812844955354811E-2
 1.000000000000000E7    -8.190090428031109E-1    3.933490929630938E-2   -7.562070141294910E-5   -2.081068462806076E-4    4.456588128536283E-4    2.187794113617949E-4    9.664694532321132E-1   -1.916919074683840E-2
 1.100000000000000E7    -8.228388021178217E-1    3.759606426692207E-2    3.578549875163401E-4    8.147385052807260E-5   -8.467033833928586E-5   -7.907771329785202E-6    9.904678616386111E-1   -1.830102886708813E-2
 1.200000000000000E7    -8.207102793934008E-1    3.994095630718236E-2   -2.344900815313557E-4    1.888241386188222E-4    1.022640968772526E-4   -1.555597877078044E-4    9.775905331000498E-1   -2.503674649331527E-2
 1.300000000000000E7    -8.253118991355084E-1    5.755278292129375E-2   -1.444730467802538E-5    6.580077152344761E-5   -1.677537141896121E-4   -3.675141697605443E-4    9.790234680458222E-1   -2.318064144129796E-2
 1.400000000000000E7    -8.195963249423168E-1    6.527831271838136E-2   -3.622136637907344E-4    2.107726426819904E-4   -1.491053880073465E-5   -4.855060135744866E-4    9.865670250168853E-1   -2.632673860059123E-2
 1.500000000000000E7    -8.269970973627326E-1    5.680975900254333E-2   -2.170591040784363E-4    5.243506422268914E-4   -9.372592582040559E-6   -1.215033693184223E-4    9.787747100867884E-1   -2.142764471008822E-2
 1.600000000000000E7    -8.263699931537579E-1    6.463058990908464E-2    2.219413206419972E-4    3.032173367584234E-4    1.753487016040533E-4    1.554900261526623E-4    9.809695124110402E-1   -2.106151724403062E-2
 1.700000000000000E7    -8.227929065803269E-1    7.922630230784752E-2   -4.782654573172459E-5    3.426900249074125E-5   -1.962467647765835E-5   -2.606749331555049E-4    9.753329353137314E-1   -2.614956745450812E-2
 1.800000000000000E7    -8.276281498593434E-1    8.195754054014724E-2   -1.005900556314550E-4   -2.884125932513057E-5   -3.800942545543464E-4   -9.875008030942284E-6    9.787196277229275E-1   -2.117361180290168E-2
 1.900000000000000E7    -8.193896403820400E-1    7.655948889658350E-2   -7.795120017635109E-5    2.926666340318193E-4   -2.987497856154271E-4   -1.178917021029091E-5    9.791499753572861E-1   -2.625400060715278E-2
 2.000000000000000E7    -8.166661251430867E-1    8.440793434421753E-2    1.938837979986823E-4   -1.640908039515732E-4   -2.409436837679814E-4   -2.413370556464696E-4    9.806794223714398E-1   -2.619305529308822E-2
 2.100000000000000E7    -8.189731866954026E-1    8.298499323039345E-2   -5.007272930803382E-5    1.852094073466677E-4   -3.303986819660974E-4    2.358057193454632E-4    9.634668443622273E-1   -3.916939710690248E-2
 2.200000000000000E7    -8.290627579925726E-1    9.226613279308188E-2    3.817343457272548E-4    2.734514180548737E-5    9.157869479041915E-5   -8.409300863387241E-5    9.740077104501200E-1   -4.301023592282426E-2
 2.300000000000000E7    -8.259665983178518E-1    8.600765125817170E-2    3.047834038425782E-5    1.874583674868026E-5   -1.516930513292828E-4    2.282520128478425E-5    9.754937415214696E-1   -3.340543922550677E-2
 2.400000000000000E7    -8.096617634390594E-1    9.208480648736247E-2   -4.754435309573277E-4    2.483155637946870E-4   -7.101562399926393E-5   -9.020677823387790E-5    9.735457080510467E-1   -4.043720738681230E-2
 2.500000000000000E7    -7.996883031445308E-1    9.987185827737938E-2    2.908285079161054E-4    2.830066618441452E-4    1.699311085672803E-4   -2.403032096359114E-4    9.844750855808262E-1   -4.581285662726008E-2
 2.600000000000000E7    -8.205298864528033E-1    1.056997390701066E-1    7.732572711362461E-4    5.731071286247567E-4   -3.554318603345562E-4    2.480031197171255E-4    9.748047625740223E-1   -3.766611598886418E-2
 2.700000000000000E7    -8.183211779689941E-1    1.126636042447914E-1   -3.798593208849330E-4   -1.317360866164605E-4    6.609209556094237E-4   -1.422535875974527E-4    9.775950359998763E-1   -4.538012350944499E-2
 2.800000000000000E7    -8.199738265449693E-1    1.202682114613411E-1    8.096061246511496E-5   -3.094241984128820E-4    4.838850875694151E-4    4.447009784037647E-4    9.836838912295541E-1   -3.640776209076639E-2
 2.900000000000000E7    -8.069655063883188E-1    1.183511421731331E-1   -2.116427416232004E-4    2.148750937938460E-4   -7.707092962094907E-5   -1.928429683508307E-4    9.727138169918800E-1   -4.688758311831246E-2
 3.000000000000000E7    -8.170155869373216E-1    1.238653119417327E-1    6.778281812216581E-4    6.012273209495759E-5    1.667086518412345E-4    3.848443031360158E-4    9.734996944670403E-1   -4.480332085160808E-2
 3.100000000000000E7    -8.114445250845532E-1    1.280910910054837E-1    3.076091545241799E-4   -4.482651254846708E-4    4.288676784291017E-5   -6.116703911922107E-4    9.676035955960198E-1   -4.448421621313573E-2
 3.200000000000000E7    -8.135744018113298E-1    1.274416847678224E-1    5.062742609266271E-4   -5.837775553375012E-4   -2.464680824453945E-4    8.098222870128816E-4    9.716691403080653E-1   -4.417168775575961E-2
 3.300000000000000E7    -8.080516538245457E-1    1.346782697054290E-1   -7.149834244333738E-5    5.483325841418078E-4    1.364349761502992E-4    1.688856534681180E-4    9.715243171667040E-1   -4.461965101332750E-2
 3.400000000000000E7    -8.152982077514264E-1    1.374342646410262E-1    5.876790892590382E-4    6.309717358218571E-4   -6.967128419757147E-4   -1.004524564451494E-4    9.746965907190425E-1   -4.803696395423664E-2
 3.500000000000000E7    -8.160864409853357E-1    1.409341805138630E-1    1.201854194929058E-4   -1.154832412385443E-4   -1.429124142287642E-4    8.452585288394501E-4    9.669211498155450E-1   -5.539344900474426E-2
 3.600000000000000E7    -8.049873594622260E-1    1.528480862647865E-1    3.234919608998306E-4   -6.889149237937570E-4    1.593607428935532E-4   -1.852673810942404E-4    9.722205504358261E-1   -5.113245774694329E-2
 3.700000000000000E7    -8.092242645816343E-1    1.518027863863281E-1   -1.509632736343021E-4   -2.695657052464598E-4   -1.219504024006875E-5    5.787613786284707E-4    9.763920103764909E-1   -5.029113436837904E-2
 3.800000000000000E7    -8.092450000119222E-1    1.584626398735358E-1   -4.653575179030160E-5    1.186428698700737E-4   -3.325113626522709E-4   -6.840503376298935E-5    9.685106624478379E-1   -5.223128784724838E-2
 3.900000000000000E7    -8.079999066263668E-1    1.590428314864629E-1   -3.567010719218830E-4   -5.716371722582858E-4   -3.202858726628708E-4    1.680407156467735E-4    9.772545989352125E-1   -6.083936345182586E-2
 4.000000000000000E7    -8.075095637605394E-1    1.648721843052930E-1    3.217466866826912E-4    3.973046020287599E-4   -1.221813823568059E-4    3.979121968869080E-4    9.746148665891733E-1   -5.354747821630138E-2
 4.100000000000000E7    -8.039625485979002E-1    1.635858521533149E-1    5.309729208326428E-4   -4.078045821997838E-4   -5.348092667541635E-5   -2.556744771717825E-4    9.703992779140403E-1   -5.105306340338429E-2
 4.200000000000000E7    -8.052870001808486E-1    1.738287420577115E-1    4.918861989504806E-4    8.915912107871008E-4   -3.664940528467912E-4    2.814827864789098E-5    9.647788772821245E-1   -6.005620077421493E-2
 4.300000000000000E7    -8.022311154485247E-1    1.783566017227457E-1   -1.219020298325725E-4    3.787377997238537E-4    4.659557931028532E-5    5.677329142113525E-4    9.658991346530534E-1   -6.863762220861259E-2
 4.400000000000000E7    -8.011341358621802E-1    1.752916895651973E-1    3.090422942190950E-4   -3.374270346982972E-4    1.650461881637057E-4    4.044796284984058E-4    9.637676777743581E-1   -6.302820156362253E-2
 4.500000000000000E7    -8.021329167365009E-1    1.803393211393884E-1    3.348996773824879E-4    7.734767201113595E-4   -2.553085446901981E-4    1.138258544300392E-4    9.728151240282942E-1   -6.497384587934263E-2
 4.600000000000000E7    -8.024900049623600E-1    1.886550072641524E-1   -5.135672793156632E-4   -1.135669313739745E-3    2.784573818109720E-4   -6.021247312716534E-4    9.704850482753612E-1   -5.974555102982147E-2
 4.700000000000000E7    -7.946628424869027E-1    1.911412684059575E-1   -7.636372265489073E-4   -1.259625283199980E-4    2.044140510271994E-4    6.516005060866524E-5    9.641527672500290E-1   -7.055109129385667E-2
 4.800000000000000E7    -7.978314160932768E-1    1.881037553962951E-1   -1.500009295026440E-5   -7.246014750827432E-4    5.915208260298108E-5    1.060211156262318E-4    9.616610222469006E-1   -6.207099677945524E-2
 4.900000000000000E7    -8.025913969651898E-1    2.001157929309111E-1    4.142347182821331E-4   -2.332718485594971E-4    2.646752787111775E-4    3.732759402429272E-4    9.611404862027277E-1   -7.039374335945808E-2
 5.000000000000000E7    -7.958616234965572E-1    2.060539460581996E-1    8.029493724756606E-5   -1.709453799845983E-4    1.818607343720229E-6   -1.645548926297619E-4    9.655867747295495E-1   -6.926889784761527E-2
 5.100000000000000E7    -7.913290234443109E-1    2.040131928546463E-1    1.182555640704184E-4   -1.265059883710761E-3   -6.337594864992260E-4    5.410896350852096E-4    9.688016604136778E-1   -7.026083025883738E-2
 5.200000000000000E7    -7.955458522726715E-1    2.132686483603628E-1    1.801694769705383E-5   -4.208586139756429E-4   -4.876606390472888E-4    1.534767835507564E-4    9.618070409637363E-1   -7.606832343296309E-2
 5.300000000000000E7    -7.867669583981527E-1    2.086924634795359E-1   -2.397731037482184E-4    6.219917048820153E-4   -3.945727804727303E-4   -9.205491227042237E-5    9.693403121486226E-1   -7.991707027842450E-2
 5.400000000000000E7    -7.874293386193059E-1    2.187010822649597E-1   -6.089846226858824E-4    6.933475149414172E-4    2.645351505814892E-4   -2.702246179020187E-4    9.601282782425475E-1   -7.467810488722762E-2
 5.500000000000000E7    -7.941346613252879E-1    2.229202609288342E-1   -4.899474344135065E-4   -1.463190907023532E-4    4.631497643634192E-5    1.343252222397885E-4    9.694683196119483E-1   -7.166516270547185E-2
 5.600000000000000E7    -7.886518263589319E-1    2.265712800732159E-1    4.700654384091722E-4   -2.099567217660121E-4    7.273239545831964E-4    2.654829840015361E-4    9.679977472978222E-1   -7.673686916621335E-2
 5.700000000000000E7    -7.814410404849704E-1    2.263538765318700E-1   -3.070207040904647E-4    4.495111533159099E-4   -1.778979819001637E-4    3.729240126239657E-4    9.593041010387103E-1   -7.947390557277025E-2
 5.800000000000000E7    -7.849527777135286E-1    2.314119647559859E-1   -3.218560963769700E-4   -6.219769805097357E-4   -2.339203165966696E-4   -2.225200182956654E-4    9.641018161821004E-1   -7.895830046514750E-2
 5.900000000000000E7    -7.813024851906895E-1    2.415025592828081E-1    7.835378939521621E-4   -7.579484575702351E-4    2.381964511242190E-4    2.900771865652604E-4    9.635096011385792E-1   -8.773558901750314E-2
 6.000000000000000E7    -7.802297823288331E-1    2.396834945828005E-1    3.276633142260972E-4    2.645262366294338E-4   -8.870048968497100E-5   -1.403035248965005E-4    9.618565430088871E-1   -8.205236817231777E-2
 6.100000000000000E7    -7.790280306040851E-1    2.449395271060193E-1   -6.082754359160365E-4    1.286684474423348E-4   -5.445769774767831E-6   -6.507464405496292E-5    9.646750584651076E-1   -8.654935356534431E-2
 6.200000000000000E7    -7.784044961571703E-1    2.459335632408797E-1    2.451533842913945E-4   -1.951134050224250E-4   -3.878583457060780E-4   -3.136507321697013E-4    9.563208514852978E-1   -8.389346941752431E-2
 6.300000000000000E7    -7.778746962954923E-1    2.476920755520046E-1   -7.061328128313039E-4   -7.844861184835860E-4   -6.572934733904321E-5   -3.388927517128743E-5    9.676643387705062E-1   -9.797147435491987E-2
 6.400000000000000E7    -7.722758896357678E-1    2.583077046028451E-1   -1.101854847283204E-4   -5.925527074803756E-4    5.373528160631953E-4    3.932671803393996E-4    9.563977855703975E-1   -8.829591730178916E-2
 6.500000000000000E7    -7.716025998437365E-1    2.623256444607997E-1   -4.133700828419752E-4   -1.250325616674213E-3   -3.550107755915769E-5   -3.179779631933094E-4    9.592975299859963E-1   -9.125061902788746E-2
 6.600000000000000E7    -7.705782697921097E-1    2.651050415007726E-1   -2.659891171173471E-4    2.243573114642560E-5   -1.116257523302083E-4    1.277208517170296E-4    9.598489110805059E-1   -9.785833209243247E-2
 6.700000000000000E7    -7.717102975460348E-1    2.663390763044980E-1    5.533829511373698E-4    1.403186590334219E-4    8.829233599652051E-5    6.901719449744944E-4    9.671004721478249E-1   -9.586842748748599E-2
 6.800000000000000E7    -7.670172180989914E-1    2.705091588281170E-1    2.005613132912123E-4    1.064910055436136E-3    1.547318216666735E-4    6.036851379719202E-4    9.611054935795250E-1   -9.627204215481275E-2
 6.900000000000000E7    -7.700911424894525E-1    2.712235472110379E-1   -5.784496212582649E-4   -2.908871138967349E-4   -1.198910340536708E-6   -5.571416258558988E-4    9.643001502447713E-1   -9.781467151125660E-2
 7.000000000000000E7    -7.691485571096045E-1    2.750077948726407E-1    1.673854337919655E-4   -1.836417571158650E-4    1.665238134130694E-5   -1.175220461087731E-4    9.565963249069487E-1   -9.800389429600898E-2
 7.100000000000000E7    -7.703208515496568E-1    2.834253054679322E-1   -1.447822509576607E-4    1.820504997089123E-5   -5.915638129529043E-5    1.610258962101923E-4    9.653372870192631E-1   -9.898030561933863E-2
 7.200000000000000E7    -7.637615801721499E-1    2.872648610132326E-1   -6.449505436779057E-5   -1.021921456727871E-5   -7.011871097116142E-4   -2.191135628441566E-4    9.623186995265830E-1   -9.653291420201346E-2
 7.300000000000000E7    -7.632448354049529E-1    2.874159484322216E-1   -9.470196760825510E-5    8.968950126913601E-4    4.667738087788014E-4    1.005302775146763E-4    9.567146831482936E-1   -1.044581305852577E-1
 7.400000000000000E7    -7.626840374401127E-1    2.917986951964200E-1   -4.476719525774245E-4   -1.867956420986304E-4   -5.437251479223795E-4   -2.334966546464297E-4    9.632023482744070E-1   -1.072057264952617E-1
 7.500000000000000E7    -7.614645843523234E-1    2.929910999021481E-1   -3.097206306342950E-4    6.314942351873117E-4   -1.790221028023609E-4   -1.688293880310651E-4    9.571919843719880E-1   -1.063936240180649E-1
 7.600000000000000E7    -7.576594530602698E-1    3.019995699681616E-1    4.120618022145197E-4   -1.460531538366379E-4   -4.299601504667316E-5    4.294795265401119E-4    9.634622536161270E-1   -1.027934561413533E-1
 7.700000000000000E7    -7.587544672922190E-1    3.065834210022790E-1   -8.981728920552347E-4    4.889797141115607E-4    1.108473054258931E-4    2.302711468154139E-4    9.639305964577060E-1   -1.028922334241221E-1
 7.800000000000000E7    -7.501788914863913E-1    3.087353958680311E-1    9.106971485309885E-5   -7.563930946444696E-5   -1.213851084399897E-4   -7.154949483474904E-4    9.632462048979485E-1   -1.068444440587731E-1
 7.900000000000000E7    -7.512591512850723E-1    3.070287037662200E-1   -2.662316617929329E-4   -6.539039572396918E-4    3.128019716967624E-4   -4.957700098843868E-4    9.624247438752241E-1   -1.074403619035514E-1
 8.000000000000000E7    -7.546845496668798E-1    3.135235467933129E-1   -6.446261200119597E-5   -6.003777918807791E-5   -3.763111541891533E-4   -6.329547957069514E-4    9.566822107659932E-1   -1.107191511170482E-1
 8.100000000000000E7    -7.460866785918707E-1    3.155283267806082E-1   -7.412430026856359E-4   -3.118286005294791E-4    8.210569569248764E-4    2.776972092032830E-4    9.570259988154570E-1   -1.108188263435120E-1
 8.200000000000000E7    -7.498719338304534E-1    3.225865096254980E-1   -9.795892677524084E-6    5.366020024973684E-4    4.663672472063114E-6    1.506201983075760E-4    9.635599470330780E-1   -1.139002362410851E-1
 8.300000000000000E7    -7.490473898950554E-1    3.213200587974210E-1    2.907777234163537E-4    2.746009365438229E-5   -4.216373740673302E-5    6.112103981072109E-5    9.570990954298220E-1   -1.148627831527821E-1
 8.400000000000000E7    -7.444324992876455E-1    3.243301798917252E-1   -5.324802586400799E-4    4.375422790598761E-4    3.267388341175440E-4    4.614373653294583E-4    9.623967877267823E-1   -1.145297971249860E-1
 8.500000000000000E7    -7.495622850221610E-1    3.304272939215208E-1    2.356694238633606E-4   -5.165878576628487E-4    2.308798117113184E-4   -4.735375944770622E-5    9.565694919149846E-1   -1.165368557713720E-1
 8.600000000000000E7    -7.411633826214201E-1    3.434766841851969E-1    1.655431499039516E-6   -5.728668489218836E-4    3.066445007908764E-4   -1.202272409534580E-4    9.542261804852218E-1   -1.219200233779537E-1
 8.700000000000000E7    -7.393565750061938E-1    3.444556018878799E-1   -5.352679909318851E-4   -6.857445550799884E-5   -9.242254764984113E-4   -2.257886742274593E-4    9.562851530064087E-1   -1.176167030585799E-1
 8.800000000000000E7    -7.304924966913983E-1    3.447185030847912E-1    5.856047082430196E-4    9.325252240010816E-5   -1.932052273778957E-4   -9.961420353405636E-5    9.582702418250837E-1   -1.215208785975477E-1
 8.900000000000000E7    -7.342044262591882E-1    3.456706441960436E-1   -2.908134094716526E-4   -6.391076958068479E-4    8.587143269793169E-5    1.390855753823291E-5    9.510861424986286E-1   -1.206349896810211E-1
 9.000000000000000E7    -7.328074277316159E-1    3.454307928617644E-1   -1.311676080599795E-5    4.948731593510579E-4    4.347915733197589E-4   -5.557554211562786E-4    9.598587214956147E-1   -1.255911966513871E-1
 9.100000000000000E7    -7.332246741354020E-1    3.551145199291437E-1   -5.722983571023508E-4   -6.737090917582543E-4   -3.111131045896890E-4   -6.395472998666112E-4    9.632067218689562E-1   -1.243734225313672E-1
