#  HZ   S   RI   R     50.00 
! Rohde & Schwarz Vector Network Analyzer 
! Rohde-Schwarz,ZNBT8-20Port,1318700624101681,3.50
! Created: UTC 7/15/2025, 2:08:19 PM
! freq[Hz]                re:S1010                im:S1010                re:S0310                im:S0310                re:S1003                im:S1003                re:S33                  im:S33
 1.000000000000000E6    -8.375597823361386E-1   -6.132763877968029E-3    5.800553225675934E-5   -3.886140536039827E-4    4.098643892034238E-4    1.082610623546073E-4    9.731507314453517E-1    1.283554750826831E-2
 2.000000000000000E6    -8.239077689027700E-1    2.644263957873737E-3   -4.694091599294657E-4   -6.797823335399329E-5    3.556700361842756E-4    6.888655496339976E-5    9.512316247606801E-1    1.287207564767179E-2
 3.000000000000000E6    -8.211900055541300E-1   -3.708666973730257E-3   -1.243854154072055E-4    1.779193991886926E-4   -2.954034598562158E-4    2.574474493876250E-4    9.722486125042161E-1    1.673498029503554E-2
 4.000000000000000E6    -8.253428674880422E-1    8.642999601037944E-3    1.302609691867495E-4   -1.348398317804171E-4   -1.341971409871795E-4   -2.190800549375158E-4    9.804947940817229E-1    8.322315704385434E-3
 5.000000000000000E6    -8.196486211467072E-1    8.886274795604653E-3    2.157053524453834E-4   -1.309204510876178E-4    3.907206422739764E-5    7.970543272947149E-5    9.776387200792687E-1    3.034745869313338E-3
 6.000000000000000E6    -8.215086997637775E-1    1.514951468860676E-2   -5.786242556765200E-5   -1.351713387741548E-4   -4.967618710912403E-5   -1.905825391775432E-4    9.756490175955522E-1    4.368538942879879E-3
 7.000000000000000E6    -8.322399808947950E-1    2.293029901272845E-2   -1.139744528701775E-4    5.207000412948520E-4    4.208778167164650E-4    6.286042139998624E-5    9.777114693466032E-1   -8.771158331660320E-3
 8.000000000000000E6    -8.280269834946182E-1    2.770196539765563E-2    3.814658770091669E-7    2.464074346794954E-4   -4.752288514380446E-4    3.982892951214199E-5    9.768161098407268E-1    6.668917988218470E-3
 9.000000000000000E6    -8.287951924843706E-1    3.653432922855311E-2   -1.520291458259478E-4    4.010168231756620E-5    4.497291114599551E-5    2.527812945369858E-6    9.792233889139692E-1   -5.857275664749920E-3
 1.000000000000000E7    -8.180100190472435E-1    3.900153353477363E-2   -3.044842801234118E-6    3.716927390794734E-4   -1.392970460084096E-4   -1.415399592173752E-4    9.858662661156617E-1   -2.102693355017586E-2
 1.100000000000000E7    -8.245878407475161E-1    4.151081038410949E-2    1.426825629983138E-4   -4.246913844909862E-5   -9.759915638268765E-5   -2.642074294782999E-4    9.720545587782848E-1   -2.117451423195595E-2
 1.200000000000000E7    -8.198574691106316E-1    3.869920961927147E-2    7.102841018102413E-5   -1.363734811084147E-4    6.919419547614425E-5   -4.827432991249729E-5    9.703079411158533E-1   -1.439780278113452E-2
 1.300000000000000E7    -8.268764598668830E-1    5.881208296820915E-2    4.063595732515189E-4   -5.484809943415028E-5    3.697235026774812E-5   -8.862920145329396E-5    9.715490957872421E-1   -1.797129778132144E-2
 1.400000000000000E7    -8.198499179369415E-1    5.570709802393908E-2   -8.348090330303127E-5    1.888058519960428E-4    6.460967493791424E-5   -1.689694724021367E-4    9.871000939456330E-1   -1.949478939783464E-2
 1.500000000000000E7    -8.203207983120762E-1    6.097125903479590E-2   -2.117336457415870E-4    3.317318294157612E-4    6.210344460742825E-5    2.486368750631389E-4    9.773455951204995E-1   -1.839370069110679E-2
 1.600000000000000E7    -8.281921978334827E-1    6.516718167353848E-2   -1.438844879023186E-4    3.585147548228196E-4   -5.793264711531634E-5   -2.156532591848139E-4    9.764327872583168E-1   -1.392103106598813E-2
 1.700000000000000E7    -8.163483405454295E-1    6.681745148378748E-2   -8.699505396748917E-5   -1.798735973812598E-4    2.417845925303751E-4    3.457155711707528E-5    9.808237942565344E-1   -3.222872168958385E-2
 1.800000000000000E7    -8.319384408417817E-1    7.585764683760780E-2   -2.250328571303934E-4   -1.606975057910065E-4    1.956386358298489E-5    3.923429825616226E-4    9.885712644076049E-1   -2.768917686686730E-2
 1.900000000000000E7    -8.229880376204268E-1    8.490422210878182E-2    2.614365784503379E-4    2.765166053904582E-4   -1.312482076165908E-4    1.988656832350686E-5    9.780102684394554E-1   -2.436389012594309E-2
 2.000000000000000E7    -8.159867114069728E-1    8.338491940762059E-2    6.075079966587180E-5   -2.286131262162190E-4    6.668174398763100E-5    2.990447241128925E-4    9.719713612944758E-1   -2.489085491714885E-2
 2.100000000000000E7    -8.188574098651510E-1    9.008033911645631E-2   -1.601759617478526E-4    3.752202511684761E-4   -2.722177115743432E-5    4.025007385731530E-5    9.866390407576277E-1   -2.829769924342452E-2
 2.200000000000000E7    -8.179276781667930E-1    9.255140232952397E-2   -2.596889594505052E-4    2.607740170191466E-4    2.500459814083098E-4   -1.382381010811048E-4    9.908822321270373E-1   -1.854329990899428E-2
 2.300000000000000E7    -8.163496240349629E-1    8.720068978073409E-2   -1.291401614849089E-4    8.182566662164312E-5   -3.213628981132056E-4    1.982190466351881E-4    9.646301320756208E-1   -3.043389325539552E-2
 2.400000000000000E7    -8.191008441870974E-1    9.919261439720703E-2    3.368958020542699E-4    3.016338944934431E-4   -1.565119859085915E-4   -1.687661337300027E-4    9.619059877558663E-1   -2.106203104757582E-2
 2.500000000000000E7    -8.206842605247291E-1    1.018194776190896E-1   -4.835138561969615E-4    3.762159174589357E-4   -5.243810148751684E-5    1.597250765715339E-4    9.604260221002303E-1   -4.244718858210165E-2
 2.600000000000000E7    -8.213610102886372E-1    1.057771425604500E-1    3.715439119786822E-5    3.566969430331458E-4   -1.338458032136800E-4    4.309204930875006E-4    9.703372600605540E-1   -3.207550501223161E-2
 2.700000000000000E7    -8.175441361153677E-1    1.167297114699977E-1    3.714177782613127E-4    4.627514664339882E-4   -1.991817595794867E-4    3.262550830145448E-4    9.766795855129190E-1   -3.286002594163424E-2
 2.800000000000000E7    -8.161175917465949E-1    1.172069340215766E-1    1.802394398659795E-4   -4.928484676112845E-5    2.041653055589209E-4   -2.790751972186560E-4    9.763373810439636E-1   -2.645484448725245E-2
 2.900000000000000E7    -8.095682046234367E-1    1.234371360404227E-1   -1.983738330188080E-4    4.570225190682191E-4   -3.612525364946867E-4   -1.424143906051106E-4    9.748576092992571E-1   -3.876855783725681E-2
 3.000000000000000E7    -8.144181192898633E-1    1.276961626718791E-1   -1.711557092165258E-4   -3.652582614146441E-4   -2.118550482090632E-4    1.591657084685946E-4    9.698009619218326E-1   -4.928037561256839E-2
 3.100000000000000E7    -8.119718173193960E-1    1.239174510835906E-1   -3.795312467469282E-4    7.781189866836676E-4   -2.840136631373070E-4   -5.269582705993063E-4    9.696184195893397E-1   -5.070573101174489E-2
 3.200000000000000E7    -8.151967718183363E-1    1.237108148224895E-1   -3.041275057104063E-4    4.140288980639912E-4   -7.281533750171183E-4    1.662919291830137E-4    9.755551020122751E-1   -4.052528958130418E-2
 3.300000000000000E7    -8.122571171676181E-1    1.346250635859313E-1   -2.242721746241275E-4   -1.715720167677341E-4    2.991553904161520E-4   -3.986212650395673E-4    9.732022943699274E-1   -4.357581139688773E-2
 3.400000000000000E7    -8.095275562461314E-1    1.410685715664521E-1   -6.719187908029600E-4   -8.157132383949620E-5    6.925719145298790E-4   -4.560124547814512E-4    9.836826198531872E-1   -4.683377336692351E-2
 3.500000000000000E7    -8.111586348019553E-1    1.466719934397038E-1    8.140252508914605E-5    7.100711395287517E-4    3.119891475540433E-5    3.068575803874605E-4    9.770757944534328E-1   -4.850169681632505E-2
 3.600000000000000E7    -8.130225603541877E-1    1.493624875956608E-1    7.138058723573539E-4   -2.962904766583345E-4   -4.872634441609159E-5   -1.438206563414830E-4    9.752189648805476E-1   -4.806218602817489E-2
 3.700000000000000E7    -8.115230658439422E-1    1.553114827161864E-1    2.147148019683167E-4   -2.806349890199107E-4   -1.834492431472280E-4   -6.168215532142099E-5    9.741035276957231E-1   -5.242286235102760E-2
 3.800000000000000E7    -8.082044741737660E-1    1.586251221272801E-1   -5.244709014220198E-4   -2.795057272919441E-4   -1.041046173771779E-4    1.589345260851913E-5    9.773557422202896E-1   -5.008071659268638E-2
 3.900000000000000E7    -8.064934080559777E-1    1.553472617316018E-1   -3.069676422991907E-5   -7.887656127457552E-4    2.637708085829916E-4   -4.665276551823196E-4    9.794478619549331E-1   -5.224886471868875E-2
 4.000000000000000E7    -8.054055380472745E-1    1.612927510075433E-1   -2.979328684287924E-4   -6.245008077130317E-4   -1.824152664267351E-4   -1.996277057598719E-4    9.707754942386286E-1   -4.982692404067444E-2
 4.100000000000000E7    -8.027095110830548E-1    1.659390371573308E-1   -4.981224954438225E-4   -4.415593392710726E-4   -5.814545156488204E-4   -3.454644544382374E-4    9.733147030696878E-1   -5.709103518171695E-2
 4.200000000000000E7    -8.087476778266274E-1    1.763193169233085E-1   -6.622460586319392E-4   -1.066057571165867E-3   -3.476128144398431E-4    3.276547159314522E-4    9.694164374228967E-1   -5.287725806080084E-2
 4.300000000000000E7    -8.050272285695090E-1    1.769466539139163E-1    6.557972880210615E-4   -3.175934179315140E-4   -2.778229814811106E-4    5.403003626833253E-4    9.724618626086901E-1   -5.085148528805490E-2
 4.400000000000000E7    -8.014388923541116E-1    1.779776211783906E-1    7.292422337604571E-5   -7.318505966693359E-4    4.710199824961918E-4   -3.913899848974701E-4    9.727400144890069E-1   -5.920460740695787E-2
 4.500000000000000E7    -7.977999300865372E-1    1.829172040850586E-1   -5.098539026980789E-4   -2.699184013226506E-4   -3.708021420876620E-4   -3.404467357886657E-5    9.622324617734572E-1   -5.224544732301837E-2
 4.600000000000000E7    -7.968669943709965E-1    1.898463592352692E-1   -1.864281830360866E-4   -2.075542790236575E-4    2.587905845633198E-4    3.285797799664217E-5    9.776262682393214E-1   -6.410495821349707E-2
 4.700000000000000E7    -8.011404532753695E-1    1.916849478901726E-1   -6.264323470141980E-4    5.904221826080109E-4   -6.869884523687546E-5   -2.726463764972742E-4    9.658055312405018E-1   -6.180361999464793E-2
 4.800000000000000E7    -7.945459939482397E-1    1.906104972414586E-1    4.688319863197416E-4   -3.271702226348264E-4   -4.222065140888432E-5   -6.104784522155130E-5    9.681639303580896E-1   -5.584377676834963E-2
 4.900000000000000E7    -7.955315120124912E-1    1.964767591872602E-1   -9.147126725683159E-6   -3.151492312654306E-4   -9.452596371930011E-6   -3.049310161142470E-4    9.672559653090338E-1   -6.327829661255151E-2
 5.000000000000000E7    -7.964754548743691E-1    2.053882957966718E-1    1.576248151853304E-4   -5.724339793827876E-4    1.866073745028483E-4    5.461133596304251E-5    9.657328030629783E-1   -6.558935083467232E-2
 5.100000000000000E7    -7.929007936994023E-1    2.050367343931522E-1    5.136599102118017E-5    1.525559706927444E-4    1.554509411911388E-4   -1.446290124139845E-4    9.640216461875447E-1   -6.717705222173667E-2
 5.200000000000000E7    -7.943195549291546E-1    2.082861227677760E-1    3.652411272437719E-4   -5.605894456881852E-4   -2.166724045066702E-4    7.932488598196208E-4    9.682023907477419E-1   -6.497355528960407E-2
 5.300000000000000E7    -7.882723840159697E-1    2.081979164127128E-1   -4.269685461427805E-4    9.363121296029398E-5   -2.597272565102012E-4   -4.927298336101953E-4    9.663531542852729E-1   -7.150697784860580E-2
 5.400000000000000E7    -7.843717505122358E-1    2.152260736862746E-1    3.494300823421628E-4    7.120533619977960E-4   -3.229657927230757E-4    4.514781376369721E-4    9.759506459399143E-1   -7.463571778140145E-2
 5.500000000000000E7    -7.919231680184999E-1    2.196850164282543E-1   -7.811626182488391E-5    1.122908334678065E-4   -1.129288835760414E-4   -3.481254543386364E-4    9.697929571239247E-1   -6.812589833422457E-2
 5.600000000000000E7    -7.906244148679407E-1    2.284168897793631E-1    2.028886652623993E-4    4.200034999310301E-4   -3.195961081144534E-4    1.328222019540943E-4    9.655494735548457E-1   -7.387680623449044E-2
 5.700000000000000E7    -7.851453230314512E-1    2.249482444005774E-1    4.001107350572589E-4    2.990358174745361E-4   -8.039043526545010E-5   -6.230418684046971E-5    9.686265896821113E-1   -6.617132924379139E-2
 5.800000000000000E7    -7.833993517150705E-1    2.312752451884813E-1   -1.999160230513854E-4    7.002609780165486E-4    7.624510131995712E-4   -1.863695383154089E-4    9.708554309854053E-1   -7.160243055811320E-2
 5.900000000000000E7    -7.810638658546895E-1    2.358499386674671E-1   -1.317301324639736E-4   -7.966658336982648E-4   -3.551163868853030E-4    2.979054216554835E-4    9.675676634925663E-1   -7.184214165464950E-2
 6.000000000000000E7    -7.801336307382593E-1    2.400799565407903E-1    2.905579917988855E-5    7.989724088926991E-4   -5.598181829219476E-4   -1.608759691763989E-4    9.681142995559974E-1   -7.915491640667995E-2
 6.100000000000000E7    -7.744103264724139E-1    2.440298830563305E-1    5.592660604540728E-5   -1.482875133228839E-5    2.527956243637201E-4    3.821223777406311E-5    9.715098572004082E-1   -8.960630860110728E-2
 6.200000000000000E7    -7.762098242673692E-1    2.463106219953669E-1   -3.430321148959081E-4   -1.277868189524604E-3   -9.283144993253023E-5   -3.134456002058579E-4    9.614740442112358E-1   -8.430117176668776E-2
 6.300000000000000E7    -7.789171410644008E-1    2.493663454692227E-1   -1.820226625259881E-4   -3.640805775465357E-5    5.713936516488522E-5    9.760865766765381E-5    9.666261808947469E-1   -8.171506340083801E-2
 6.400000000000000E7    -7.778131819191423E-1    2.516856130119441E-1    3.554672495038283E-4    1.535185723996795E-4   -1.667402373868249E-4    1.827640626609675E-4    9.655881429183303E-1   -8.693976415753314E-2
 6.500000000000000E7    -7.723392383440548E-1    2.578517448681365E-1   -6.066206125617592E-5   -9.439823061048226E-4    1.460697353226336E-4    2.865748128628329E-4    9.626092912095557E-1   -8.520602226983286E-2
 6.600000000000000E7    -7.746420607982963E-1    2.630829547157149E-1    8.610899169275021E-4    7.030862904457079E-4   -3.680860000897729E-5   -1.312070745634060E-4    9.555309836322529E-1   -8.581693371933574E-2
 6.700000000000000E7    -7.695103439144255E-1    2.716887575315778E-1   -1.683620137829658E-4   -5.589943742436606E-6    4.694335611376901E-4   -3.006788162135658E-4    9.654442672477394E-1   -8.957694533967749E-2
 6.800000000000000E7    -7.735149614996820E-1    2.680008559374489E-1   -2.754187396421853E-4   -3.987535820743202E-4    3.243866953023304E-5   -2.796339227509641E-4    9.645436307723897E-1   -8.610581854778451E-2
 6.900000000000000E7    -7.716295262572155E-1    2.736618530903956E-1   -3.717418723431328E-4    2.330103935451906E-4   -2.980053011916727E-5    1.628390523642066E-4    9.630411535907247E-1   -8.805009098863623E-2
 7.000000000000000E7    -7.692589228983802E-1    2.754212910872631E-1    1.257911652431759E-4   -4.107585999966816E-4   -2.638348942643305E-4   -3.044004979482238E-4    9.661351138410735E-1   -9.463925808783390E-2
 7.100000000000000E7    -7.715141654311539E-1    2.811957308262812E-1   -5.249917746632328E-4    3.361703797464327E-4   -2.905714208371124E-4    1.748634149748439E-4    9.638877909780794E-1   -9.419533007199238E-2
 7.200000000000000E7    -7.677171191128180E-1    2.842712278928026E-1   -1.304680685485902E-4   -1.692521101367455E-4    5.081650279723813E-4    4.899330376143035E-4    9.684867823727182E-1   -8.736663619367431E-2
 7.300000000000000E7    -7.626516084772664E-1    2.868213754379537E-1   -4.783830037048961E-4    2.352767740793629E-5   -4.896454554143087E-4   -1.050546398754790E-5    9.620427442505227E-1   -9.085650288209726E-2
 7.400000000000000E7    -7.612484870696934E-1    2.875181744874037E-1    4.697949333775606E-4    4.400687349453705E-4    5.389144338049392E-4   -1.473714733517856E-4    9.688411307111129E-1   -9.572212466913183E-2
 7.500000000000000E7    -7.623916074285757E-1    2.908272164652203E-1    3.516374069210936E-4   -1.488027093514142E-4    2.127028315453563E-4   -5.085322821030552E-4    9.594936809857189E-1   -9.646701321103707E-2
 7.600000000000000E7    -7.545801918858829E-1    3.004636386317756E-1   -1.703181281855236E-4   -5.098237044937133E-4    3.247439673847172E-4    1.863520818067900E-4    9.641642856226076E-1   -1.010499179738475E-1
 7.700000000000000E7    -7.538844832102202E-1    3.030731071739188E-1    4.088242254992872E-4   -4.099811390273855E-4    2.181196006747091E-4   -6.629568312563489E-4    9.605972750190783E-1   -9.763573331865275E-2
 7.800000000000000E7    -7.512127658338300E-1    3.063662499159572E-1    6.052890682807534E-4   -3.337820551709711E-4   -2.423132208029955E-4   -2.616368343516269E-4    9.606031548263405E-1   -1.030735934639501E-1
 7.900000000000000E7    -7.524423263572025E-1    3.083776350208761E-1    2.593724460582402E-4   -3.696135245361716E-4    1.620591830937289E-4   -7.043055411734451E-5    9.614320685570744E-1   -1.004320957046847E-1
 8.000000000000000E7    -7.467140114319386E-1    3.174947368133236E-1   -3.626902685333308E-4   -6.195751444584768E-4   -6.232055502406077E-4    2.616061280386089E-4    9.703233706369437E-1   -1.011867787380224E-1
 8.100000000000000E7    -7.476386356421370E-1    3.144102520307440E-1    1.228240085472713E-4    8.684459093261503E-4    5.390643188191944E-4   -1.128050811207923E-4    9.627925560102303E-1   -9.921938216849498E-2
 8.200000000000000E7    -7.528565876719396E-1    3.166514000273699E-1    3.666256909560414E-4    5.022311062220871E-4    5.436276155957382E-4   -1.361590298635196E-4    9.594633889265833E-1   -1.050267881609770E-1
 8.300000000000000E7    -7.450189891351691E-1    3.244198504920653E-1    7.001649924566074E-4    4.304645055557996E-4   -1.658430271208293E-4   -2.484481122975260E-4    9.622068588595281E-1   -1.036594948892028E-1
 8.400000000000000E7    -7.441649982055486E-1    3.264840392975508E-1   -2.589292270127893E-4   -4.378772989734304E-4   -6.039107540705194E-4   -4.809265350006242E-4    9.646472571505141E-1   -1.136442216984771E-1
 8.500000000000000E7    -7.433784323151407E-1    3.277956174989066E-1    9.389012823772469E-4   -5.901278107879762E-4    2.161842694849007E-4    6.048024858276434E-5    9.600440509653512E-1   -1.062770461729483E-1
 8.600000000000000E7    -7.384054870987748E-1    3.340580069736179E-1   -1.088745762709250E-4   -3.674436879607269E-5    2.510501241343518E-4    4.277877307888928E-4    9.595404648110170E-1   -1.071749361915730E-1
 8.700000000000000E7    -7.373370192342827E-1    3.340326533197656E-1   -3.467549248338580E-4    5.983745891383323E-5    6.638337838563646E-4   -4.131769068030209E-4    9.646458853198150E-1   -1.046247680404660E-1
 8.800000000000000E7    -7.320479432011172E-1    3.386298972152514E-1    8.460956880753006E-5    6.107249742752885E-4   -1.000227916849728E-4    4.354088236480524E-4    9.578562729635302E-1   -1.107142024548577E-1
 8.900000000000000E7    -7.374016024050991E-1    3.465600752112473E-1    1.804958570686366E-4    1.936367069162271E-4    1.009377474799369E-4   -1.414376818800665E-4    9.578600885661024E-1   -1.129080106254851E-1
 9.000000000000000E7    -7.322102442170472E-1    3.504662970738330E-1   -6.881183933275229E-4    1.313561224635222E-4    1.972937477970369E-4    5.219694313325774E-4    9.555124983185348E-1   -1.166728228156028E-1
 9.100000000000000E7    -7.273146571352269E-1    3.568047684579701E-1   -3.407345033347335E-4   -5.909238834324691E-4    3.804767573912304E-5   -4.414901722696175E-4    9.563185234285342E-1   -1.182235171593277E-1
