#  HZ   S   RI   R     50.00 
! Rohde & Schwarz Vector Network Analyzer 
! Rohde-Schwarz,ZNBT8-20Port,1318700624101681,3.50
! Created: UTC 7/15/2025, 2:14:11 PM
! freq[Hz]                re:S1010                im:S1010                re:S0410                im:S0410                re:S1004                im:S1004                re:S44                  im:S44
 1.000000000000000E6    -8.970397064675703E-1   -1.614204276318275E-3    2.410805777939231E-5   -2.902371350302635E-4   -2.246214734037421E-6   -1.895946342791774E-5    9.708365137114363E-1    1.810064012043399E-2
 2.000000000000000E6    -8.950296250373010E-1   -1.196401309315029E-2    1.822710721659505E-4    2.903055788054931E-4   -2.970978730743524E-4    1.138321122377037E-4    9.898060843233059E-1    9.688262037106411E-3
 3.000000000000000E6    -9.050815907919532E-1   -9.920739033488047E-3   -1.237441538622216E-4    7.261781789861441E-5    1.295956104675308E-4   -9.312191765151491E-5    9.883068855427920E-1    5.174613226766656E-3
 4.000000000000000E6    -9.089732770739701E-1   -6.322581783966158E-3   -6.230803615233107E-5   -6.420081167153099E-5   -3.668424519220641E-4    8.558614619999721E-5    9.754883610119994E-1    8.474985759880597E-3
 5.000000000000000E6    -8.960486273714731E-1   -3.132499727487791E-3   -2.693886721329187E-4    4.576844784497849E-4    3.094315645166124E-4    2.022982867138134E-4    9.790429976152824E-1    6.449886109323675E-3
 6.000000000000000E6    -9.041669001010493E-1    4.110102316321093E-3    2.908331234324141E-4    3.898596235602155E-4   -1.047264395620128E-5    1.369268330432050E-4    9.754989013135945E-1   -2.586566374636195E-3
 7.000000000000000E6    -9.083640088843553E-1    7.445892837733021E-3   -3.461438293459307E-5   -8.105639324284080E-5   -6.105431964817639E-5    3.686614535560756E-5    9.784825738703901E-1   -4.249594026304533E-3
 8.000000000000000E6    -8.968671080983008E-1    1.022949038482361E-2    1.817453889997731E-4    3.178954922896489E-4   -5.494263426169307E-5   -5.077392341368501E-5    9.673096871522726E-1   -3.871472488516641E-3
 9.000000000000000E6    -9.021089559680938E-1    8.692159629473175E-3    5.007200552137868E-5   -1.365134445858036E-5   -7.457735740322038E-5   -1.440257283465097E-5    9.718307227784132E-1   -5.612111212600757E-3
 1.000000000000000E7    -8.949040526477031E-1    2.861758204966455E-2   -2.731784749400239E-5    1.978020551097025E-4   -3.551311723497763E-4    1.840988584018379E-4    9.709308713518147E-1   -2.118782234417662E-2
 1.100000000000000E7    -8.986078524029869E-1    3.118003267721532E-2   -1.334778767465341E-4   -1.124228269737981E-4    3.337687063219306E-4    1.553966624239250E-5    9.801772539625301E-1   -2.006884809191589E-2
 1.200000000000000E7    -9.055392867109899E-1    8.149147570486881E-3    1.760869104815616E-4   -8.545051946618599E-5    1.115119195641855E-4   -1.242158477099575E-4    9.826296871606954E-1   -1.299010110684730E-2
 1.300000000000000E7    -9.035393212565862E-1    2.506638889288158E-2    2.118382520344032E-4   -2.382347903531953E-4   -1.338449605865451E-4    3.605953593892453E-4    9.691080885132533E-1   -2.176505673812342E-2
 1.400000000000000E7    -8.933884357542679E-1    2.398406666841503E-2    8.050150954345693E-5    5.128357659246329E-5    2.951601820951242E-5    4.835856778309733E-4    9.728485555826345E-1   -2.628656847899055E-2
 1.500000000000000E7    -9.003499110562933E-1    2.548078438971538E-2    9.035547925767963E-5   -9.519214744972500E-5   -1.165435277509399E-4    3.909639955014553E-4    9.702190402609298E-1   -2.814094205801308E-2
 1.600000000000000E7    -9.075906612853338E-1    2.321474497874394E-2    4.019473934789651E-5   -3.451021998459685E-4   -1.806137387869278E-4    1.402312863315633E-4    9.735004976742714E-1   -2.262989478395623E-2
 1.700000000000000E7    -9.026956742839050E-1    3.390903051534646E-2   -1.640182044859135E-4    9.227579742512821E-5   -5.896685865588077E-4    1.352301274632000E-4    9.841638251635684E-1   -3.020029363221229E-2
 1.800000000000000E7    -9.082955959787217E-1    2.206949574783021E-2   -1.553791669015264E-4    2.909134212353843E-5   -8.835779497521880E-5    1.118023922529761E-5    9.809799607352683E-1   -3.458573378568466E-2
 1.900000000000000E7    -8.953454751663341E-1    3.403285401693259E-2    1.587272377228926E-4   -1.590622051869863E-4    2.215634820507540E-4   -2.400182313507723E-5    9.760331963995392E-1   -2.599848189889932E-2
 2.000000000000000E7    -8.991249626379546E-1    3.098175300757855E-2    1.352876080929715E-4   -1.004230533375983E-4   -1.690663685000180E-4    5.481127502969256E-4    9.748142727989891E-1   -3.491116510577428E-2
 2.100000000000000E7    -8.973130760651036E-1    3.029826939476360E-2   -1.007661460007705E-4   -5.834055175853327E-5   -3.232111181834439E-4   -6.588097675037658E-5    9.690196597344689E-1   -3.714557794401677E-2
 2.200000000000000E7    -8.986487804479490E-1    3.217101011058771E-2   -9.112729825667280E-5   -3.769723258130305E-5    4.768852656077257E-5    3.099403344181231E-4    9.805742124744327E-1   -3.274273310855440E-2
 2.300000000000000E7    -8.946061875481673E-1    4.179024297255078E-2    7.494991590211593E-6   -1.186843428470985E-4    2.463056834201975E-4   -2.358420938287081E-4    9.769054966568468E-1   -4.757905516901002E-2
 2.400000000000000E7    -8.954049100806863E-1    4.663741559050300E-2   -1.737317833610682E-4   -4.375169999024074E-4   -3.252237145835617E-4   -1.392062917454391E-5    9.765066022184311E-1   -3.487039761181705E-2
 2.500000000000000E7    -8.876500257147205E-1    5.079322706093644E-2    2.419895625033470E-4   -2.163206589167719E-4    4.603499419197432E-5    1.740382722617622E-4    1.000936465727018      -4.041699950723158E-2
 2.600000000000000E7    -8.958901422134624E-1    4.699664660155706E-2    2.770955008169916E-4   -5.664488024528816E-4    1.954198114575773E-4    3.972012654029756E-4    9.729855889142237E-1   -4.870550133625069E-2
 2.700000000000000E7    -9.002014640527743E-1    4.809042119955224E-2   -3.152668156355931E-4    2.260221723646157E-5    5.211347442599741E-5    4.190867771294513E-6    9.735759618505154E-1   -4.354428425936587E-2
 2.800000000000000E7    -8.990151020845453E-1    4.962901964024415E-2    4.694713444998020E-4   -2.145575214424820E-4    9.768098956752376E-7   -6.237104401706189E-5    9.721240529885750E-1   -5.192708508015062E-2
 2.900000000000000E7    -8.924616899760019E-1    5.204054402055599E-2    2.860576847097800E-4   -1.651037508851758E-4   -5.078086598019010E-4   -1.582762592815419E-4    9.776334283537227E-1   -5.267186760566453E-2
 3.000000000000000E7    -8.949534932436352E-1    4.548155719804259E-2   -9.545480217619218E-6   -5.598477696413215E-4   -5.419729002027145E-4    2.090767704083916E-4    9.679261238209067E-1   -4.618131481807482E-2
 3.100000000000000E7    -8.974082884123035E-1    5.344811879194224E-2   -4.882147210585748E-4   -4.051632596602253E-4    3.901914300143040E-4   -3.204897126190101E-4    9.762874277309559E-1   -4.919486435664232E-2
 3.200000000000000E7    -8.987529526074458E-1    5.008142601120031E-2   -1.171754129369366E-4   -2.469347207759721E-4   -6.448511618441407E-4   -1.921275380670341E-4    9.779179084438427E-1   -5.493557753299656E-2
 3.300000000000000E7    -8.954033647410714E-1    5.174332635603977E-2    3.760419594170987E-5    2.689210125395994E-4    9.547809345128397E-5    7.776034902482053E-5    9.680320347865418E-1   -5.525060923278850E-2
 3.400000000000000E7    -8.948565372670657E-1    5.486812362557143E-2   -1.749367801016569E-4   -9.225520478318972E-5   -1.920826410771773E-4   -6.368970851622575E-4    9.745158506827752E-1   -4.910804146390529E-2
 3.500000000000000E7    -8.983939552785113E-1    5.828175909391409E-2    1.430085138396190E-4    1.805000657722908E-4   -2.232715534997588E-4    3.856176441829334E-4    9.732310437260300E-1   -5.733609752718584E-2
 3.600000000000000E7    -9.019822792204905E-1    5.972934734263280E-2   -9.929660501347854E-5    1.806460491297636E-4    1.722050921838997E-4   -5.412205756959049E-4    9.779502485983845E-1   -6.649827048776129E-2
 3.700000000000000E7    -8.984151478804799E-1    5.762041570024024E-2   -3.705820125659529E-4    6.679589253023127E-4    6.688809289435492E-4   -5.923216078501564E-4    9.737025328065878E-1   -6.499928628640048E-2
 3.800000000000000E7    -8.937121556358324E-1    6.320554488785024E-2   -2.530733316579607E-4   -5.126746988693674E-4    5.502623781674088E-4    5.217288931772295E-4    9.775271697378231E-1   -5.556620807291836E-2
 3.900000000000000E7    -8.974294478418744E-1    6.293905737761329E-2   -2.546111682625502E-5    9.497576886962493E-5   -4.023960139658853E-4    2.781365383657584E-4    9.695945636496003E-1   -6.232407337811982E-2
 4.000000000000000E7    -8.953409335938549E-1    6.496051369756915E-2   -1.454201943601482E-4   -1.491213203286428E-4   -7.218802354973366E-4    2.786675951566212E-4    9.743656513016784E-1   -5.875268782042938E-2
 4.100000000000000E7    -8.997644444136349E-1    6.654771147696098E-2   -1.449026372411443E-4   -4.018052194782681E-4    2.975204522341498E-4    4.840332107905965E-4    9.704479961794886E-1   -6.314075467606331E-2
 4.200000000000000E7    -8.929603769839387E-1    6.552642585799712E-2    2.849296210699416E-4   -1.323637239706793E-4    1.155958775346298E-3    7.203408190891415E-5    9.706599495304506E-1   -6.126641064478301E-2
 4.300000000000000E7    -8.959236834017839E-1    7.228404669156940E-2   -8.277656307254883E-4    5.532233422422211E-5    1.522130533882059E-4    4.866836850908423E-5    9.686619550861172E-1   -6.476359414302958E-2
 4.400000000000000E7    -8.928404341917716E-1    6.800535332012093E-2   -4.479920604076191E-4    3.301174711812350E-5   -1.648546409171496E-4    4.060438474871133E-4    9.716225981327313E-1   -7.178757199336488E-2
 4.500000000000000E7    -8.970903400327970E-1    6.204958542273996E-2    1.301659152722820E-4    4.994231334936142E-4    2.913042967346328E-4   -3.907247846480490E-4    9.723004691013836E-1   -7.105641292250028E-2
 4.600000000000000E7    -8.958039537867328E-1    7.229280252190541E-2    8.365953853789927E-4    2.396794181521581E-4    5.769508736606958E-4    1.146867545325816E-4    9.683390034670860E-1   -7.371735948636395E-2
 4.700000000000000E7    -8.959173975695363E-1    7.544067225967345E-2    4.959634699884812E-4    7.870205128355067E-5    5.214092533143872E-5    5.026032756786895E-4    9.667637099492401E-1   -7.313572645882284E-2
 4.800000000000000E7    -8.946065188153741E-1    6.506973222926293E-2    4.614487986603013E-4    6.248745167908137E-4   -4.632671024233913E-4   -3.962660677466112E-4    9.741780098514881E-1   -8.093035583714098E-2
 4.900000000000000E7    -8.988135660270291E-1    7.343078393657980E-2    2.968013830803171E-4   -8.433960206096677E-4   -5.937904252895760E-5    3.533283122826577E-4    9.667536416581707E-1   -7.057031268217230E-2
 5.000000000000000E7    -8.956935626743012E-1    7.265292095468606E-2    1.859596741471640E-4   -1.038386153513844E-4   -2.133050645897118E-7    2.474488515176051E-4    9.641862510513580E-1   -7.758663169474399E-2
 5.100000000000000E7    -8.918777953910206E-1    7.732030821994930E-2    4.578001492894102E-4    8.106538566775717E-5    1.383899591237319E-4   -5.289828206569439E-4    9.714588068414098E-1   -8.114901024979118E-2
 5.200000000000000E7    -8.861523081250580E-1    8.016067507138518E-2    3.326056818174855E-4    4.676751994823788E-4    1.790588140096140E-4   -3.664538966906751E-4    9.675928646251888E-1   -8.440005002501902E-2
 5.300000000000000E7    -8.918585154903044E-1    8.605871850076996E-2    6.580272963038026E-4    9.368740357522923E-4    3.302519544892690E-4    8.160459164930539E-5    9.676580500215255E-1   -8.772808522777105E-2
 5.400000000000000E7    -8.914902511427870E-1    8.266547957307731E-2    5.629160344233822E-4    5.092130764925168E-4    2.057357377020133E-4   -9.231481719353864E-4    9.616639242465203E-1   -8.255119724683130E-2
 5.500000000000000E7    -8.960789283204261E-1    8.334678551541681E-2   -4.632622637383423E-4   -4.866852019671564E-4    6.419373710765801E-5   -8.153371829297198E-4    9.726753429631457E-1   -8.387434870689754E-2
 5.600000000000000E7    -8.934391817606506E-1    8.644989619217607E-2    4.329649475459925E-4    4.158059952521474E-4    3.414399610613505E-4   -1.213837490136491E-4    9.630321071944086E-1   -8.681957640036221E-2
 5.700000000000000E7    -8.884694121439083E-1    8.645248247100654E-2   -7.928117613503503E-4   -2.741609546872612E-4   -5.493657980499103E-4    8.972953384696311E-4    9.745273291497437E-1   -8.810815562769356E-2
 5.800000000000000E7    -8.902661381263994E-1    9.298706772778713E-2    3.316819966602817E-4   -1.371075813961653E-4    4.231603390401259E-4   -5.468941956796747E-4    9.636694495345631E-1   -8.674701517570797E-2
 5.900000000000000E7    -8.925319592795514E-1    8.246482235883909E-2    7.539869327324227E-5    3.469100982554244E-4    4.617847953934809E-4    2.730520003858741E-4    9.581579789470066E-1   -9.015547381938106E-2
 6.000000000000000E7    -8.927211997237814E-1    8.723732688857513E-2   -6.254164782507375E-5    5.328755713890711E-4    8.229791845641916E-5    2.870877103664008E-4    9.631610988518192E-1   -8.973407417260006E-2
 6.100000000000000E7    -8.935238739108919E-1    8.978913296132918E-2    1.852327922544009E-4    3.035084804478862E-4    3.117715537352444E-4   -1.091601973726131E-3    9.648904880377386E-1   -9.951578576943403E-2
 6.200000000000000E7    -8.953325121967219E-1    9.942996091542282E-2    1.010945554097576E-3   -1.403271209648544E-4    6.731648124090359E-5    3.186608652191450E-4    9.606070767334434E-1   -8.721147406620207E-2
 6.300000000000000E7    -8.880775902929365E-1    9.977079082574619E-2   -5.110061101133329E-4   -9.674329579994692E-4    7.805665655210993E-5   -8.307512672018427E-5    9.643363745269571E-1   -1.000736638426612E-1
 6.400000000000000E7    -8.893858916320905E-1    9.146500082313234E-2   -5.479257482044015E-4   -5.714623106504617E-4   -4.988551755464570E-4   -2.969751745955610E-5    9.601449947936276E-1   -9.983922520879131E-2
 6.500000000000000E7    -8.876923739976837E-1    1.016626857177044E-1   -4.783381691198274E-6   -3.191817613556779E-4    3.601043551413366E-4    7.113318206446008E-4    9.654893786233220E-1   -1.006324031701155E-1
 6.600000000000000E7    -8.956064515930692E-1    1.043789356123241E-1    3.878704076125989E-4   -4.268719453555722E-4   -1.397204288735303E-4   -1.453877328961443E-4    9.606588094684636E-1   -9.922870600120948E-2
 6.700000000000000E7    -8.885887250653159E-1    1.007869681203668E-1    4.765635547747416E-4   -1.867037183512220E-5    3.063630057963930E-4   -3.598738357276587E-4    9.666621440299278E-1   -9.840792094208974E-2
 6.800000000000000E7    -8.906528397684512E-1    1.037429566961049E-1    7.224803912673544E-4   -3.041315058726372E-4    7.228811470919156E-5    2.411507933627372E-4    9.564615220937304E-1   -1.055695498625307E-1
 6.900000000000000E7    -8.901572705443284E-1    1.059558131215749E-1    3.841226210905539E-4   -5.296597751300799E-4    1.370709711819231E-4   -5.548703913465558E-5    9.664091941806759E-1   -1.040193410157634E-1
 7.000000000000000E7    -8.878533178511814E-1    1.046202576524213E-1    6.782411744427327E-4    5.164600870563442E-4    4.862987367454498E-5    9.057680818995623E-6    9.595862982134512E-1   -1.039233641476188E-1
 7.100000000000000E7    -8.881914132294602E-1    1.097237286679257E-1   -3.026987365605483E-5    4.550515481223291E-4   -1.397389530703207E-4   -8.393015783301212E-4    9.615821837288175E-1   -1.059597125108153E-1
 7.200000000000000E7    -8.848764178045512E-1    1.074891397974524E-1   -4.522255925216014E-4   -6.121241208551175E-4    1.709192047748049E-4   -2.075746574076669E-4    9.646772571146129E-1   -1.122047601286671E-1
 7.300000000000000E7    -8.896913401419834E-1    1.114554048298579E-1   -1.953112625926348E-4   -7.431222751809276E-4    5.918795172157396E-5    1.407656368865569E-4    9.584237172835238E-1   -1.084450406512600E-1
 7.400000000000000E7    -8.897389415886046E-1    1.118281936871018E-1   -7.278436618363413E-5   -6.825890359164011E-4   -1.417310452006662E-4    6.834873126595014E-4    9.603953506592545E-1   -1.095867046557278E-1
 7.500000000000000E7    -8.898876463955956E-1    1.116827505284247E-1    6.750995883282636E-4   -7.684216499290942E-4   -3.231267924418162E-4   -3.431520972542210E-4    9.572880587620385E-1   -1.151872754666889E-1
 7.600000000000000E7    -8.894668192249805E-1    1.165543286023084E-1    4.143357318382441E-4   -1.360193397245468E-5    5.957327442955167E-4    1.075754845308599E-4    9.610413910192843E-1   -1.175085643801251E-1
 7.700000000000000E7    -8.864600915633079E-1    1.144437897869340E-1   -3.286318224699145E-4   -9.820997507761415E-4    1.835434932163301E-4   -4.048853703613523E-4    9.576759956200894E-1   -1.185771896314472E-1
 7.800000000000000E7    -8.886834384495104E-1    1.139959452029304E-1    1.450746046503387E-4    5.321343764459697E-4   -3.277657466137131E-4    2.025169421330373E-4    9.568659051462433E-1   -1.160638083200110E-1
 7.900000000000000E7    -8.824718605240112E-1    1.141738966974267E-1    6.358358520624676E-5    1.953768891014999E-4    5.388482431873922E-4   -5.089447855924200E-4    9.609586028083411E-1   -1.231534035490565E-1
 8.000000000000000E7    -8.904398796168742E-1    1.195915136777616E-1   -6.026786746246384E-4   -1.330398802194933E-4   -5.478624811151118E-4    1.288240431894821E-4    9.561474751787385E-1   -1.175542578614519E-1
 8.100000000000000E7    -8.845710576165339E-1    1.187127742592621E-1    6.163287500950993E-4    1.367198749856939E-5   -4.386283069228680E-4    9.715357110774462E-4    9.594059504654813E-1   -1.180981355445477E-1
 8.200000000000000E7    -8.854177416345035E-1    1.161468178093565E-1    9.460315906133202E-6    3.847695460805473E-4   -1.347819741911920E-4   -6.106806625943482E-4    9.544987952289979E-1   -1.266770534028036E-1
 8.300000000000000E7    -8.869411075229678E-1    1.213617577833059E-1   -4.161039501591544E-4    8.047007498973474E-4    3.410197656103009E-4   -1.531420812612600E-4    9.565279226974722E-1   -1.254853683499981E-1
 8.400000000000000E7    -8.822654367020503E-1    1.207110972513424E-1    1.017559750191242E-4   -5.598663200947853E-4    1.365328751905761E-4   -1.335833962496480E-4    9.582738755768760E-1   -1.236117391073346E-1
 8.500000000000000E7    -8.846137422386476E-1    1.169608753263675E-1   -1.144095871771454E-4    2.086134065716647E-4   -1.912861690954148E-4   -4.858170067625682E-5    9.535933717040035E-1   -1.281100838589224E-1
 8.600000000000000E7    -8.848049440880982E-1    1.270635026776306E-1    3.400956558476788E-4   -1.135071689983066E-3   -1.054307566205401E-4    5.329536041464125E-4    9.575254421880682E-1   -1.273383167377633E-1
 8.700000000000000E7    -8.884404281750535E-1    1.235091135833526E-1    4.043087577939733E-4   -1.438382334944507E-4    3.342306833939760E-4   -6.278776379493282E-4    9.581967785500926E-1   -1.299092816007355E-1
 8.800000000000000E7    -8.837896530736380E-1    1.345448169504343E-1    9.676273820301057E-5   -3.324680202580368E-4   -2.447181007914143E-4   -5.478908472962161E-4    9.532609020754339E-1   -1.314999787383133E-1
 8.900000000000000E7    -8.791861881569463E-1    1.353943848941328E-1    4.500335728880971E-5    2.581205147766217E-4    6.146149313113334E-5    4.183498113980603E-4    9.519368952059597E-1   -1.340103331007969E-1
 9.000000000000000E7    -8.789280215358063E-1    1.325314577562180E-1   -2.823721157991563E-4    8.861711504310725E-5   -2.108767397520680E-4    5.044713670866675E-4    9.549430418941846E-1   -1.322922435791783E-1
 9.100000000000000E7    -8.806749196758250E-1    1.365976396056729E-1   -5.615630880306689E-4    1.946345684350228E-4    7.170782887149134E-4    5.843837329307159E-4    9.555640387340745E-1   -1.340951812382479E-1
