#  HZ   S   RI   R     50.00 
! Rohde & Schwarz Vector Network Analyzer 
! Rohde-Schwarz,ZNBT8-20Port,1318700624101681,3.50
! Created: UTC 7/15/2025, 2:10:12 PM
! freq[Hz]                re:S1010                im:S1010                re:S0510                im:S0510                re:S1005                im:S1005                re:S55                  im:S55
 1.000000000000000E6    -9.040671808257585E-1   -1.652635829011439E-3    2.155203908215407E-4    1.067665961699521E-4    1.783998158869647E-4    8.189475615095706E-5    9.794141120376226E-1    2.464285142296961E-2
 2.000000000000000E6    -8.888539692664050E-1   -1.038106351535833E-2    8.376618837550080E-5    1.233703085978047E-4    1.349111186306285E-4    6.523266387628095E-5    9.784064163829804E-1    1.504973753884921E-2
 3.000000000000000E6    -8.972091239522139E-1   -7.175228904724951E-3   -1.746056463679749E-4   -2.947040043485776E-4   -7.728284918736855E-5   -2.103975798208308E-4    9.763822473875936E-1    8.330402502193192E-3
 4.000000000000000E6    -9.120808431897105E-1   -8.421183228486055E-3   -1.237417242643203E-4   -1.626178278448793E-4   -1.264478616938925E-4   -7.136196245172365E-5    9.801246407965759E-1    3.614970013282653E-3
 5.000000000000000E6    -8.969440252798841E-1   -9.165115062191166E-4   -3.643127621894374E-4    2.293412314118716E-4    4.638075786602365E-6   -1.332468084480144E-4    9.705630377743265E-1    6.019727183720506E-3
 6.000000000000000E6    -9.001016887529558E-1   -6.214643273235465E-3   -1.168687989287424E-5   -1.316868860807344E-4    3.872764392018969E-4   -2.868408382046986E-4    9.774927717436115E-1   -8.123115779699874E-3
 7.000000000000000E6    -9.083959111980164E-1    5.402169858336021E-3   -2.009922679724888E-4    1.049207537375166E-4    7.150415208693323E-5    8.523175291966852E-5    9.805608835486894E-1   -8.927807590582877E-3
 8.000000000000000E6    -8.941078361882536E-1    6.182454346967657E-3    1.588051640478122E-4   -1.013382603123067E-4   -2.312633361445582E-4   -2.324030581642610E-4    9.893368329348285E-1   -5.291859257787082E-3
 9.000000000000000E6    -9.058592985018392E-1    1.420214940439029E-2   -1.010791380999752E-4    1.564669457484437E-6   -5.933827378667341E-5    2.508303313990389E-4    9.801106670331190E-1   -1.833430490596495E-2
 1.000000000000000E7    -8.917574279768028E-1    2.752292878343797E-2   -2.348455347280155E-6    1.651556900902691E-4   -1.319352035368314E-4   -1.779564084852270E-4    9.703272816021598E-1   -2.212939214176508E-2
 1.100000000000000E7    -8.973221300806320E-1    2.185531267680576E-2    6.045520714896623E-5    2.436060848522459E-4    1.612070116839529E-4    1.017419093486285E-5    9.849236433866130E-1   -1.259284002208227E-2
 1.200000000000000E7    -9.052759551414137E-1    1.225741579675594E-2   -4.189297256346802E-5   -1.296124759313609E-4   -2.759203442339934E-4   -1.573110764664050E-4    9.788596648938807E-1   -1.577805033590079E-2
 1.300000000000000E7    -9.002950865689148E-1    2.077288015892517E-2   -1.392211842482348E-4   -1.101409909587259E-5    2.665581705500632E-4   -1.081004076467968E-4    9.861758623508717E-1   -1.584824770954336E-2
 1.400000000000000E7    -9.084463950400031E-1    3.285255952894416E-2   -2.310380909676334E-4    2.766070269503843E-4   -1.098384205229617E-4    6.315735201258403E-5    9.836867052503523E-1   -1.408710343021671E-2
 1.500000000000000E7    -9.044462025271851E-1    1.813274063365906E-2   -1.268471475390117E-4    1.164938088124661E-4    9.658390518477354E-5    1.021693516008244E-4    9.775846411844560E-1   -2.037956720003270E-2
 1.600000000000000E7    -9.000061638033190E-1    2.323972060554363E-2    1.099066280845148E-4    7.957504807199954E-5   -3.987070811370782E-4   -1.318269456501218E-5    9.781121989916314E-1   -2.919121617755240E-2
 1.700000000000000E7    -9.077783433126049E-1    2.683863977945879E-2    1.246095111440815E-4   -1.808367099878156E-4   -1.672776416994076E-4    1.123804174785855E-4    9.827339033474811E-1   -2.963920679572556E-2
 1.800000000000000E7    -9.085651813270100E-1    2.459588712237748E-2    1.096750396519028E-4    2.613831170518480E-4    8.008220559593842E-5    2.937933924325761E-5    9.744585288999086E-1   -3.241646903986896E-2
 1.900000000000000E7    -8.981680187692173E-1    3.020512727694597E-2    6.860275967846627E-4    9.046781823176263E-5   -6.470087813238272E-6    2.545057548963831E-4    9.875942443674678E-1   -1.805334203691801E-2
 2.000000000000000E7    -8.987889082153457E-1    2.823795645679328E-2   -1.740754686639686E-4    3.052402912911180E-4   -1.319222308010006E-4   -2.469178126390252E-4    9.722194613394547E-1   -3.169411384692918E-2
 2.100000000000000E7    -9.016539253602374E-1    3.422708990979009E-2    6.120236964574155E-4   -4.639977335888352E-4    1.194457819780274E-4   -1.761360072663963E-4    9.755457041813423E-1   -3.711648870442422E-2
 2.200000000000000E7    -9.006399490602979E-1    3.388745089165454E-2    4.492262491618946E-4    2.387765392857606E-4    4.524105318048650E-4    5.010127722705854E-5    9.672266315830816E-1   -4.059293887208001E-2
 2.300000000000000E7    -8.933998057922322E-1    4.239251679683757E-2    3.993296788728251E-4    1.280215034704346E-4   -3.852190595978579E-4    4.503652666172773E-4    9.760510916982352E-1   -2.679564055443371E-2
 2.400000000000000E7    -8.843562120750879E-1    3.520106162885923E-2    1.236523147791123E-4   -2.268734653080784E-4    3.712184979449496E-5   -6.272505958793834E-5    9.939212405860827E-1   -2.919303268086489E-2
 2.500000000000000E7    -8.880865295564816E-1    4.563820613467832E-2    1.983269884192812E-4    3.083073245175166E-4   -2.174787614093967E-4    3.430834546781921E-4    9.762037422345123E-1   -2.169994800389065E-2
 2.600000000000000E7    -9.001666991039153E-1    3.892044441197038E-2   -1.412110254891712E-4    1.178698868379133E-4   -2.962284195621190E-4   -2.778724957732407E-4    9.730380868712876E-1   -1.707250486105761E-2
 2.700000000000000E7    -8.977980904311506E-1    4.664668361295481E-2   -9.841958223062647E-4    1.117333262636140E-3   -8.275602749774290E-5    2.561423277290032E-4    9.852722116773396E-1   -1.884847379224773E-2
 2.800000000000000E7    -9.005950538781528E-1    4.430794855523347E-2   -7.365345159235446E-5    2.148386502220720E-4   -1.335679984922030E-4    6.336915911568222E-6    9.747322971695485E-1   -1.773545105184876E-2
 2.900000000000000E7    -8.934717385601038E-1    4.701348110170303E-2    4.787927149063959E-4   -2.507971984110262E-4   -3.534008209274122E-4   -2.210600671468748E-5    9.712756448696479E-1   -2.154105229541411E-2
 3.000000000000000E7    -8.988279384279116E-1    4.850308801999719E-2   -7.133818334643844E-4    4.916727540016308E-5   -6.027522619533102E-4    2.459886229731942E-5    9.652886915242963E-1   -1.957559142836252E-2
 3.100000000000000E7    -8.996607435014082E-1    4.507834085061305E-2   -4.402061403801323E-4    3.859041234604620E-4   -7.552944184844311E-4   -8.483820677241230E-4    9.698471521935006E-1   -2.136260700114761E-2
 3.200000000000000E7    -8.960269623335798E-1    4.229490655670119E-2    5.046320606203984E-5    1.225696632873299E-4   -1.460884658888538E-4    4.549379116963610E-4    9.713365645639997E-1   -1.878956688961715E-2
 3.300000000000000E7    -8.962219552402376E-1    5.050440696860131E-2   -1.359661987387376E-4   -3.197018260140236E-4   -4.500729763541066E-4   -2.741167368754509E-4    9.722891314211853E-1   -2.047449068684919E-2
 3.400000000000000E7    -9.038268713699822E-1    4.604648637699466E-2    4.069373730686906E-4    2.829991726366256E-4    1.108157259509832E-4   -2.539130396870792E-4    9.711212675530043E-1   -3.074651318359456E-2
 3.500000000000000E7    -8.986641637538300E-1    5.953068407282646E-2   -4.370642960038628E-4   -3.947518782715968E-4   -1.572758867614992E-4    4.989393569221288E-4    9.770821568738752E-1   -2.385705113500112E-2
 3.600000000000000E7    -9.051051045821066E-1    5.324481921731190E-2    2.074958910901011E-4    3.225189549002082E-4   -1.400120499264763E-4    5.068261269866810E-4    9.682738279368246E-1   -3.379797342691105E-2
 3.700000000000000E7    -8.997355881567761E-1    5.311330554843816E-2   -5.485600793992503E-4    4.901203550508699E-4   -5.798078809741410E-4    3.053575252333768E-4    9.650694953517160E-1   -3.063074928682980E-2
 3.800000000000000E7    -8.952961469779189E-1    5.512588633456263E-2   -1.079087676326573E-3   -3.469408594224881E-4   -1.226447764453302E-5    9.444412945050193E-5    9.671364592067033E-1   -3.238618834675522E-2
 3.900000000000000E7    -9.032059917563054E-1    5.392006472300976E-2    1.960607290342800E-4   -4.634514965065430E-5    2.529519750238137E-4    4.595146736014004E-4    9.682584292561909E-1   -3.076655218101518E-2
 4.000000000000000E7    -8.991355267708970E-1    6.012481249568199E-2   -4.105141529573983E-4    1.231078206780249E-4   -2.543836127490127E-4    4.707334353897315E-4    9.654936247465314E-1   -2.790779244943021E-2
 4.100000000000000E7    -9.022723810362523E-1    5.970315098020108E-2    4.380523753688624E-5   -9.888630745038865E-4    3.822636074198136E-4   -1.586117628972466E-4    9.692127192094279E-1   -3.971717464174250E-2
 4.200000000000000E7    -8.986631065554305E-1    6.025478861009965E-2   -4.988064919219569E-4    1.412660531396636E-4   -7.447488638939087E-4   -5.759284616612435E-4    9.672558392961002E-1   -3.597353652210798E-2
 4.300000000000000E7    -8.987942784781313E-1    6.457252723749664E-2    8.428580489161198E-4   -7.732281548034317E-4    9.458899227342915E-5    5.777713871556265E-4    9.717135305696571E-1   -3.393518139375521E-2
 4.400000000000000E7    -8.955775638027009E-1    6.482821182454415E-2   -8.633298849005839E-4   -1.655993412115908E-4    3.841163489533384E-4    5.456119257350317E-4    9.645296716974002E-1   -3.716268621767429E-2
 4.500000000000000E7    -8.986207968586973E-1    6.223432475027856E-2    2.386870852329939E-4   -7.536044187673743E-5    1.857530712880292E-4   -1.355640342078421E-4    9.674040859477504E-1   -4.102763601739584E-2
 4.600000000000000E7    -8.960233535674842E-1    7.191227530426608E-2    4.181483621689210E-4    6.254582255948981E-4    3.237402210741554E-4    3.142832211972206E-5    9.664251155548407E-1   -4.242924002785001E-2
 4.700000000000000E7    -8.964580185356816E-1    7.115686442373520E-2   -4.656742146081837E-4    3.675793007565686E-4   -6.111467954854570E-5   -2.379113027269306E-6    9.644673156750621E-1   -4.638428456989574E-2
 4.800000000000000E7    -8.986726665214777E-1    7.065919431360576E-2    5.265782213992036E-4   -1.399200511355552E-4   -3.126078798856865E-4   -1.311045966487401E-5    9.740148182367134E-1   -4.324151755610911E-2
 4.900000000000000E7    -9.007559899893177E-1    7.460401621560664E-2   -1.016317865737157E-4    2.236850742884889E-4    2.568061388000467E-4   -4.434469900633065E-4    9.666660584140773E-1   -4.638111324059264E-2
 5.000000000000000E7    -8.978017139517005E-1    7.132661006405164E-2    2.468212357388991E-4    3.561208819560952E-4    6.685762503200987E-5   -5.912002950259999E-4    9.711126858650518E-1   -4.428259197439755E-2
 5.100000000000000E7    -8.889662000948430E-1    7.593666618678870E-2    1.134041397835616E-4    4.140806376448635E-4   -8.318733784899112E-4    8.684198997395943E-4    9.629043960946090E-1   -4.927777396039011E-2
 5.200000000000000E7    -8.956826111964484E-1    7.361903748857498E-2   -3.128088928754660E-4    4.094742357666509E-4   -4.612830192295359E-4   -7.878214200687671E-4    9.716343064238966E-1   -5.494373647352117E-2
 5.300000000000000E7    -8.921754281816433E-1    7.775693516277467E-2   -3.547857529417550E-4    1.300746774473892E-4   -3.348757525603456E-5    5.426964843206084E-4    9.673105216263617E-1   -5.825478231180904E-2
 5.400000000000000E7    -8.933839978847934E-1    8.201292939158515E-2   -1.357587389523142E-4   -6.348744901271819E-4   -1.410773895168007E-3   -9.030539812949647E-4    9.671926043762037E-1   -5.288853699816060E-2
 5.500000000000000E7    -8.980648123633628E-1    7.934102659033765E-2    4.278097203636013E-4    6.815092157584899E-4    1.205594962433669E-4   -8.273637354789512E-4    9.701324919339350E-1   -5.687184838280106E-2
 5.600000000000000E7    -9.015787158642362E-1    8.057066162988417E-2    5.225401362415034E-4    1.874511104006882E-4   -2.038455851001241E-4    2.109098777124932E-4    9.688134411154146E-1   -5.808381827989494E-2
 5.700000000000000E7    -8.959653797892712E-1    8.752859152530366E-2   -8.845799265534892E-5    6.602649762799942E-5    1.073825261555168E-3   -7.376829715181224E-4    9.652673652674040E-1   -7.176555209366488E-2
 5.800000000000000E7    -8.940787055764434E-1    8.332935889702683E-2   -5.214436600358214E-4    1.000721486910457E-3    3.859373723225110E-4    8.401200395603031E-4    9.629690980811818E-1   -6.738297198309293E-2
 5.900000000000000E7    -8.889929107204022E-1    7.909609416239441E-2   -4.941499683710505E-4    7.058467304395441E-4    7.160171712973238E-5    1.328320967627202E-4    9.667399461006103E-1   -7.423304257164767E-2
 6.000000000000000E7    -8.959879876605962E-1    8.245797719687095E-2   -3.413385763393082E-4    4.444189527481682E-4    1.941536726618828E-6    5.192881842434348E-4    9.664567006078256E-1   -7.584806777415166E-2
 6.100000000000000E7    -8.929219270160453E-1    9.062814620231535E-2   -4.115222884462958E-4   -3.612133230684506E-4   -9.459576836189997E-5   -3.434736661843804E-5    9.687148766350522E-1   -7.449474585359515E-2
 6.200000000000000E7    -8.914377325872677E-1    8.978441202821351E-2   -1.020045599151889E-3    7.042590971771077E-5    5.323832226140043E-4   -9.837727520045464E-5    9.690468847576572E-1   -7.460006850505625E-2
 6.300000000000000E7    -8.895999478667006E-1    9.345290129427679E-2    2.467508232083674E-4    3.640589337950879E-4   -1.060488097896245E-3   -2.960199288940884E-4    9.673318938485264E-1   -8.319537365487348E-2
 6.400000000000000E7    -8.895691494948690E-1    8.850561960618367E-2   -1.852461779177568E-4    6.979887355845018E-4   -4.916423065952161E-5   -5.646733931501033E-4    9.660918470820929E-1   -8.314923959568632E-2
 6.500000000000000E7    -8.929193139312629E-1    9.973223296828407E-2   -1.289545360316050E-4    6.826087171142062E-5   -8.472625060668074E-4    4.206265983338143E-4    9.625327121116605E-1   -8.574886443231033E-2
 6.600000000000000E7    -8.971460880791579E-1    9.388308599710786E-2    1.207033588369893E-4   -3.660433125763806E-4    7.575924483586990E-5   -2.258083995737761E-4    9.611360313196005E-1   -8.457566166160015E-2
 6.700000000000000E7    -8.915537347836963E-1    9.457946325416777E-2    7.413577557088763E-4   -3.729433660057250E-4    2.742199934963886E-4   -4.813999646111930E-4    9.601403933206378E-1   -9.266308061757918E-2
 6.800000000000000E7    -8.900056242051727E-1    1.013149940813225E-1    4.450606947502845E-5    8.392748602854487E-4   -6.473522224461750E-4   -3.007429899112449E-4    9.688385715441753E-1   -9.639297184023030E-2
 6.900000000000000E7    -8.921025547903381E-1    9.672415354857626E-2   -8.386158620886505E-4    5.247083014128304E-4    3.594831394850755E-4    4.774521714120437E-5    9.611439349427120E-1   -9.248046874187332E-2
 7.000000000000000E7    -8.954535753123956E-1    9.742362697124636E-2    2.715459534569299E-4   -2.326324632175329E-4   -6.304312934064074E-5    2.588499805356260E-4    9.668258337348450E-1   -9.632451996045967E-2
 7.100000000000000E7    -8.955061525185061E-1    9.939450102871482E-2   -1.813589292414003E-5   -1.375154772892725E-4    7.743692321459433E-4   -6.529076856230413E-4    9.673106795943217E-1   -9.217430585347457E-2
 7.200000000000000E7    -8.882338612220891E-1    1.082521185243981E-1   -7.676242431478601E-6   -2.058649507850146E-4    5.613185514873441E-4   -1.519022000969515E-4    9.660904299811081E-1   -9.534868965950243E-2
 7.300000000000000E7    -8.897758167934520E-1    1.029453591639291E-1    3.321055900831899E-4   -1.449951368837447E-4    5.078156470087213E-4    1.194371061951837E-4    9.703040857743184E-1   -1.017345500389685E-1
 7.400000000000000E7    -8.931372779249932E-1    1.034857960920271E-1    4.527599376475566E-4   -5.000227805659875E-4    5.033793077351818E-4   -3.551717598678979E-4    9.684187467610565E-1   -1.006219814478225E-1
 7.500000000000000E7    -8.910071606978618E-1    1.015884609754281E-1   -4.009743269212584E-4    2.622431441887798E-4   -9.150850204650064E-5    6.419314215990781E-4    9.605115816409916E-1   -1.068676347016394E-1
 7.600000000000000E7    -8.893064429334779E-1    1.116425242768164E-1   -2.698515857826791E-4    2.756136021537208E-4   -4.348221714677147E-4   -3.794265613793016E-4    9.597174826763402E-1   -1.084340398728693E-1
 7.700000000000000E7    -8.854787204785778E-1    1.035140485018713E-1    3.758796567047894E-4   -1.819317905472986E-5   -5.930930117282104E-5    5.936217436199234E-4    9.635731966877313E-1   -1.002334098338784E-1
 7.800000000000000E7    -8.920779070681943E-1    1.084761190832997E-1    9.063327194745731E-5   -3.718445776312110E-4   -9.822131970441369E-5   -7.410235552662356E-4    9.609392523834245E-1   -1.032314136236395E-1
 7.900000000000000E7    -8.887084384100190E-1    1.073867226854657E-1   -3.821123442482501E-4   -3.443621698601076E-5    4.390241909969004E-4    2.516864799004620E-4    9.570508231727475E-1   -1.077229121068591E-1
 8.000000000000000E7    -8.914605195016871E-1    1.121092457477042E-1    2.359159673937670E-4   -4.009796181008713E-4   -3.487958110097999E-4   -1.600845894215292E-4    9.635039738565984E-1   -1.166292554468783E-1
 8.100000000000000E7    -8.869882298501048E-1    1.129046374819345E-1   -6.847383279920942E-4   -1.616802166062233E-4   -5.586146182548166E-5   -7.243389951341930E-4    9.627835205098556E-1   -1.108425739477846E-1
 8.200000000000000E7    -8.836454281601708E-1    1.146455898302160E-1    7.220001053070845E-4    3.848157749306408E-4   -9.102384108676089E-5   -4.746662131378707E-4    9.617531638661875E-1   -1.092588256968244E-1
 8.300000000000000E7    -8.871622934576794E-1    1.166387134897727E-1    3.319330632267153E-4    6.122797937780745E-4   -2.092815463178799E-4    1.408671177948583E-4    9.636115668404434E-1   -1.150611911991016E-1
 8.400000000000000E7    -8.833980779507111E-1    1.119816153583215E-1   -3.003519433853402E-4    2.023167033557440E-4    2.087372448701505E-4    2.943482298372675E-4    9.583099518308941E-1   -1.120455714520964E-1
 8.500000000000000E7    -8.874366569688016E-1    1.170803218751343E-1   -3.328078896194831E-4   -1.495527780444764E-4   -4.984635002344897E-4   -4.679949130479611E-4    9.563426171839555E-1   -1.150575841783001E-1
 8.600000000000000E7    -8.888525350662216E-1    1.163148658390400E-1    6.944440513136464E-4   -5.969940631158950E-5    1.301591453659361E-4   -2.733034926449828E-4    9.631291300828199E-1   -1.186176924845290E-1
 8.700000000000000E7    -8.889847399929840E-1    1.208485292594186E-1   -3.022505448671230E-4   -1.431436757922422E-4   -2.933309153426700E-4    9.179994754100653E-4    9.652051099656981E-1   -1.187933906031841E-1
 8.800000000000000E7    -8.870623995481310E-1    1.263720163158164E-1   -3.392775788473179E-4    7.923126830731474E-4   -4.237885682535446E-4    1.065072250132748E-4    9.584436415913695E-1   -1.181737574548248E-1
 8.900000000000000E7    -8.869045891482112E-1    1.213464138076584E-1   -8.709053104799750E-5   -2.621816818081138E-4   -3.963098643841613E-4   -5.151304789384540E-4    9.613302692240135E-1   -1.194640867812524E-1
 9.000000000000000E7    -8.875556297139763E-1    1.247196228694601E-1    5.342511001335818E-4    9.576145745084463E-5   -1.036348506725897E-4   -2.549475379288367E-4    9.544434094990448E-1   -1.203040045001048E-1
 9.100000000000000E7    -8.861272571302535E-1    1.308460937874577E-1    3.297348939804326E-4   -6.315539370085703E-5   -5.908444813487794E-4   -5.264630690060338E-4    9.616309980193217E-1   -1.257200878155835E-1
