#  HZ   S   RI   R     50.00 
! Rohde & Schwarz Vector Network Analyzer 
! Rohde-Schwarz,ZNBT8-20Port,1318700624101681,3.50
! Created: UTC 7/15/2025, 2:09:31 PM
! freq[Hz]                re:S1010                im:S1010                re:S0610                im:S0610                re:S1006                im:S1006                re:S66                  im:S66
 1.000000000000000E6    -9.096957942193238E-1   -9.977577825107968E-3    2.686593078764621E-5   -3.886474814772428E-5   -1.213546230403422E-4   -2.387865292318234E-4    9.758762510101170E-1    1.621316113892033E-2
 2.000000000000000E6    -9.029014173122158E-1   -6.319663015962604E-3   -3.848195278592548E-5    2.948032017457364E-4   -2.285967366914811E-4    2.238693111675391E-5    9.793898756646360E-1    1.897106402379811E-2
 3.000000000000000E6    -8.952775902241421E-1   -1.219210589379789E-2    2.559034822796347E-4   -2.498715282063318E-4   -5.558377273397331E-5    1.361007247022598E-4    9.674978854078272E-1    1.919132652868408E-2
 4.000000000000000E6    -9.096289785463376E-1   -1.041033747027393E-2   -1.677753200990029E-4   -4.084869881461600E-5    1.254483219818395E-4   -8.856321819003288E-5    9.758310888477360E-1    6.326771968107030E-3
 5.000000000000000E6    -9.024888479343207E-1   -6.240928038767853E-3    7.615199511552403E-6    1.490413378162722E-4   -2.901482139451160E-4    2.770746428940981E-5    9.706829508761432E-1    5.872770063867579E-3
 6.000000000000000E6    -9.074626871539895E-1    4.487936186483557E-3    1.795688057978207E-4   -1.197364149278716E-4   -2.303867571734729E-4    9.347174961090460E-5    9.782749509182500E-1    5.534127661598208E-3
 7.000000000000000E6    -9.078143289096505E-1    3.592791019505961E-3   -3.148065509758298E-4    5.776388611576163E-5    1.289513908962190E-4    2.510338780470158E-5    9.692323721423221E-1   -8.468775427721113E-3
 8.000000000000000E6    -9.093863052947366E-1    5.335481558229393E-3    3.822426437374818E-4    2.068195177855912E-5   -8.711517161761573E-5    1.619028784954524E-5    9.702096709993835E-1   -4.295859315587409E-3
 9.000000000000000E6    -8.999458166546825E-1    2.103298556479692E-3    7.783240346584335E-5   -4.162174701104782E-5   -3.027455014578047E-4   -4.833356010750286E-4    9.741546281476208E-1   -2.447559966998846E-2
 1.000000000000000E7    -8.991327147756140E-1    2.246766784500097E-2    7.262656657085732E-5   -2.871825968562782E-4   -2.546237238402303E-4    1.110370056607848E-4    9.695448757508000E-1   -1.510068957779786E-2
 1.100000000000000E7    -9.070432658928242E-1    1.174099484969022E-2    2.598063427737517E-4   -3.509622637651638E-4   -2.056823578657022E-4   -1.332913954203662E-5    9.806878129480574E-1   -2.078649922492380E-2
 1.200000000000000E7    -9.012884015422097E-1    1.989264552200918E-2    1.079467585819180E-4   -4.407983875342945E-6   -2.515765491975707E-5    2.190351490400374E-6    9.767512988791046E-1   -2.282621517011283E-2
 1.300000000000000E7    -9.039866815042435E-1    2.035828688444810E-2    3.140346123231881E-4   -2.303612249193723E-4    1.337003030796811E-4    8.352870190022849E-5    9.800185626767524E-1   -2.584947439779358E-2
 1.400000000000000E7    -9.080883874039689E-1    2.113991195039023E-2    2.013457417146033E-5    1.559411472159206E-4    1.334386650479526E-5   -5.119952924315258E-6    9.793310563533595E-1   -2.058897352328307E-2
 1.500000000000000E7    -9.061483559642397E-1    2.945765799058170E-2   -1.511131387841238E-4    3.563142382263224E-4    1.342705721079951E-4   -2.329680214727199E-4    9.704503045297961E-1   -1.716900901362329E-2
 1.600000000000000E7    -9.065710770285877E-1    2.921639916644892E-2   -6.665903034526729E-5    1.486857278048750E-4   -6.749809489770152E-5   -2.336817625033213E-4    9.772468725386553E-1   -2.220406535132424E-2
 1.700000000000000E7    -8.993812416962877E-1    3.039328861779446E-2   -6.779572393912826E-5    3.632193360758017E-5   -1.609885670127606E-4    1.981610640477296E-4    9.729856451594211E-1   -2.583503339083872E-2
 1.800000000000000E7    -9.042411777499707E-1    2.266728458627457E-2    3.758500141034666E-4    3.008981062842004E-4    1.044095711819204E-4   -7.069912837482570E-5    9.790870870310473E-1   -2.269154304906869E-2
 1.900000000000000E7    -8.969032485391526E-1    2.792968124326920E-2    8.381667218412101E-5   -2.599435603840464E-4   -3.060294468830444E-4    2.640407608577864E-4    9.746419254633183E-1   -2.755813468703194E-2
 2.000000000000000E7    -9.038042583716643E-1    2.768938871651593E-2    1.019839372851785E-4    1.794994030734304E-4   -2.658442736809526E-4   -3.217704939881235E-5    9.844011858692148E-1   -2.497681084054373E-2
 2.100000000000000E7    -9.029573341369056E-1    3.228481923873122E-2    6.669773803538679E-6    1.929228006893354E-4   -6.505674394784053E-5   -1.635432233761898E-4    9.785550284752906E-1   -2.951566738949222E-2
 2.200000000000000E7    -8.995063008917359E-1    3.190624165454737E-2   -1.164658953778350E-4   -4.418547696379350E-5    2.886127312437245E-4    5.889443060900890E-5    9.745996653757153E-1   -4.501760063654328E-2
 2.300000000000000E7    -8.836854666292191E-1    2.705984933061149E-2   -2.116916706153557E-5   -7.594809042688256E-5    2.928531582482924E-4   -1.087067818380109E-4    9.656463360905756E-1   -4.496917017636296E-2
 2.400000000000000E7    -8.878305777021134E-1    4.680802226161974E-2   -1.549544649011274E-4   -1.193390889581038E-4    1.653988338999632E-4   -4.478274440933278E-5    9.748820327461741E-1   -4.226507525969186E-2
 2.500000000000000E7    -8.916261869573532E-1    4.208656630910954E-2    3.782706939724752E-4    1.825224252626743E-5   -2.021379010325791E-4    1.486374353795209E-4    9.849618583813611E-1   -3.819684516490671E-2
 2.600000000000000E7    -9.027017629613222E-1    4.008186134193072E-2   -5.664310396999051E-4    1.053507204882091E-4   -3.122769432678127E-4    1.747429195498705E-4    9.731268723931518E-1   -4.013893489333570E-2
 2.700000000000000E7    -9.049178801333904E-1    4.469724290922666E-2   -1.163278987073175E-4    5.126213779693429E-4    5.199914380155155E-5    2.555673762967499E-4    9.736766324659301E-1   -4.636702499983029E-2
 2.800000000000000E7    -9.037660379914800E-1    4.287960634161900E-2    3.037404063747861E-4   -1.694163958657321E-4    2.587176504596938E-4    1.461806080395432E-5    9.796590742138793E-1   -3.623458356384258E-2
 2.900000000000000E7    -8.976524858045591E-1    4.322450196519066E-2    3.065300656805860E-4   -4.522047365063676E-4    9.766113611610649E-4    1.297390355578265E-4    9.770810478640958E-1   -4.415249106116157E-2
 3.000000000000000E7    -9.036708832259467E-1    4.520720405298608E-2   -8.210050595352939E-5   -4.986998714221889E-4    7.206641506308625E-5    2.279616019090166E-4    9.729207776258102E-1   -4.034106409832942E-2
 3.100000000000000E7    -8.943967261824264E-1    4.629416693803828E-2   -1.790699845371491E-4   -7.195556955822211E-4   -1.677091826631396E-4   -6.587657138406586E-4    9.656287373415581E-1   -4.622514075773981E-2
 3.200000000000000E7    -8.997348685180497E-1    4.723160731167932E-2   -5.802032995778415E-5   -4.313772617650577E-4    1.833602264739407E-4    2.789002734805663E-4    9.771572385906179E-1   -4.640819742522872E-2
 3.300000000000000E7    -8.992295291726774E-1    5.085980532850209E-2   -5.028620514025544E-4    1.660099701837097E-4    4.983316716287577E-5    4.575987532034398E-4    9.764035156093313E-1   -4.184984755843327E-2
 3.400000000000000E7    -8.975374983302914E-1    4.825837491533762E-2   -1.369361329678951E-4    1.058538396618429E-3    3.645293899448137E-4   -4.378337908283269E-4    9.706375679059333E-1   -4.648732009780707E-2
 3.500000000000000E7    -8.992258498072602E-1    5.223053824873183E-2    3.245480045408467E-4   -3.230377400757772E-4   -1.659832482947388E-5    5.683749915486994E-5    9.713939709764245E-1   -5.191150627044101E-2
 3.600000000000000E7    -9.025074618307637E-1    5.268327350310194E-2   -7.105930827876225E-4    4.381458480031472E-5   -6.616740071759813E-4   -1.388558868439625E-4    9.741065735890700E-1   -4.285564973765822E-2
 3.700000000000000E7    -9.005390450230110E-1    5.130247480158726E-2   -4.942009461303279E-5    3.892597332204504E-5    6.318822186890170E-4    1.722774070691432E-4    9.747092218048664E-1   -5.292194762029885E-2
 3.800000000000000E7    -8.993176401981806E-1    5.980257217221417E-2   -2.633600564003385E-4    3.374301364966217E-4    6.057715098110596E-4   -7.176232848373361E-4    9.707815852484911E-1   -5.510119170481877E-2
 3.900000000000000E7    -9.019416911409843E-1    5.673809192057799E-2    5.862280456096281E-5   -3.781134274666189E-4   -3.667693256580346E-4   -6.081087594554303E-4    9.723176401085135E-1   -5.891918167754610E-2
 4.000000000000000E7    -8.981150452873329E-1    6.325560828948128E-2    6.007461011112941E-4    4.830227829507662E-4    4.118989837589856E-4    8.330141368731788E-4    9.714925023534519E-1   -5.015648051516922E-2
 4.100000000000000E7    -9.005890794450871E-1    5.843392552961048E-2    7.837142899079948E-4   -3.671152394727790E-4   -6.045511032959030E-4   -3.770788270248809E-4    9.659519757847257E-1   -5.726817026277532E-2
 4.200000000000000E7    -8.994203808868976E-1    6.264540771603559E-2   -4.877130931524865E-4    1.120653759808968E-4    5.885129471135495E-4   -5.453232352503627E-4    9.670474109802571E-1   -6.004631818016405E-2
 4.300000000000000E7    -8.960641098132621E-1    6.463246122586611E-2    4.408437320897490E-4    4.215396455360541E-4    5.062272986574143E-4    4.353684712995943E-4    9.681564146811411E-1   -6.147780562343386E-2
 4.400000000000000E7    -8.954494519497097E-1    6.508690517144583E-2   -5.093937701731002E-4   -5.431594088289624E-4   -2.775093824342008E-4    9.510027532641624E-5    9.684110867171591E-1   -6.037793766453398E-2
 4.500000000000000E7    -8.978918448742733E-1    6.454688302674978E-2    5.180070784620358E-4    4.176052954098156E-4   -7.646216789484923E-4    2.740803875536951E-4    9.691231486287627E-1   -6.431273511305825E-2
 4.600000000000000E7    -8.938409036440476E-1    6.949542827414415E-2    1.063879303497757E-4   -6.927792715210205E-4   -9.246268876603716E-5   -2.907914358046869E-4    9.691931603934806E-1   -6.190761686890190E-2
 4.700000000000000E7    -8.938895558097053E-1    6.842632195330299E-2    4.536698036353689E-5   -1.504975426514030E-4    2.761369239990497E-5    3.693967476973817E-4    9.644681872632050E-1   -6.829586576758152E-2
 4.800000000000000E7    -8.927991548096509E-1    6.629252897485075E-2    2.094692112082716E-4    5.488043398025000E-4    1.068221367402250E-4    4.989792796098280E-4    9.630303154538910E-1   -6.340285359570337E-2
 4.900000000000000E7    -9.027744144636117E-1    6.989952756053129E-2   -5.272200645821782E-4   -2.091312314141315E-4   -1.966586014225096E-4    4.960921586560322E-5    9.610854099494677E-1   -6.600826790413328E-2
 5.000000000000000E7    -8.974319421648856E-1    7.399990824483857E-2    2.150860676776832E-4   -2.006061167998323E-4   -6.097349992295757E-4   -9.238869546167589E-5    9.640114037529603E-1   -6.296524192217463E-2
 5.100000000000000E7    -8.943533151436317E-1    7.727118174410236E-2   -8.213783421256543E-5   -7.855486230607291E-5   -6.788155996835337E-4   -3.913842948864943E-4    9.652013622109922E-1   -6.991613308046025E-2
 5.200000000000000E7    -8.952321296590650E-1    7.251187047096695E-2    3.402104062160060E-5    2.150516951208362E-5   -3.329462225482143E-4   -2.268602419568333E-4    9.639234156161441E-1   -8.206006106313161E-2
 5.300000000000000E7    -8.948152130161623E-1    7.381944942702334E-2   -5.630272768942892E-4    2.009237200575406E-4    9.417566970906945E-4   -1.471870446081719E-4    9.643626657791227E-1   -7.850147077002223E-2
 5.400000000000000E7    -8.952300371404556E-1    8.265556910058275E-2   -3.503660610421402E-4   -4.175129167584562E-4    1.445762018149682E-4   -6.556244676615561E-4    9.665850504474243E-1   -7.153749844247126E-2
 5.500000000000000E7    -8.953947743294363E-1    7.986385684039866E-2    2.342599951552623E-7    6.790846282269684E-4    3.487276808150450E-4    7.559751416477094E-5    9.659808314242894E-1   -8.070051043440377E-2
 5.600000000000000E7    -8.993848765949073E-1    7.872559962183832E-2    8.272675085100094E-5    5.275511926261378E-4   -1.459394617674172E-4    2.104688474017629E-4    9.719281031382756E-1   -7.709518978790213E-2
 5.700000000000000E7    -8.917160167852940E-1    7.765851254318171E-2   -6.166873579191886E-4    4.846667515851082E-5    1.325427340856672E-3   -9.106109053049089E-5    9.612793649189515E-1   -8.002717288244700E-2
 5.800000000000000E7    -8.928124240282707E-1    7.988932984357719E-2   -7.069311370718371E-5    2.073512441436318E-4    1.948575741222540E-4    2.088975896885864E-5    9.659463548377943E-1   -7.420202899328680E-2
 5.900000000000000E7    -8.906064314167017E-1    8.459482853977981E-2    3.541640047439293E-4   -1.242329015158033E-3    5.676591570125663E-4    1.800285781519768E-4    9.675027827382924E-1   -8.883309140124478E-2
 6.000000000000000E7    -8.940175120214364E-1    8.510428824290688E-2   -3.410326855757794E-4   -7.441446459463951E-4   -1.464973162783197E-4    1.566459928866673E-4    9.652784166665265E-1   -7.998471795832242E-2
 6.100000000000000E7    -8.881531868892799E-1    8.753342710234523E-2   -4.726073171656834E-4    3.399501823992137E-4    5.972776852109470E-4    8.431377819881418E-4    9.618499588661905E-1   -8.635545158912523E-2
 6.200000000000000E7    -8.962287110304433E-1    9.003584906722877E-2   -3.030991735237040E-4    2.075034602393777E-4   -8.990423324777538E-5   -9.126898785811175E-4    9.591575974912504E-1   -8.445803172066989E-2
 6.300000000000000E7    -8.947173834741159E-1    9.047744009134942E-2    4.494719807783931E-4   -2.252499219122312E-4    8.023355749206535E-5    3.542433504300636E-4    9.633315057809427E-1   -8.926375630740079E-2
 6.400000000000000E7    -8.924033193479055E-1    9.044194187301914E-2   -5.278090875365991E-4   -1.799186412470819E-4   -4.812336738354177E-4   -5.682668735756920E-4    9.612228769561982E-1   -9.140563357065495E-2
 6.500000000000000E7    -8.923522941773639E-1    9.239802089272053E-2   -7.086714794942261E-4    3.209880783873260E-4   -2.574278317368244E-4    3.652529169398107E-4    9.580675972165300E-1   -8.755609262275682E-2
 6.600000000000000E7    -8.921644258181251E-1    9.706353566868853E-2   -2.117088896527601E-5   -8.747821417432000E-4    2.078015536572899E-4   -2.815461036605778E-4    9.605730950457499E-1   -1.011033949623795E-1
 6.700000000000000E7    -8.969230237714584E-1    9.492398386724762E-2    2.687494438479286E-4   -5.983539283973282E-4    2.352005726355820E-4   -8.115611406924461E-4    9.651050611569288E-1   -9.629987991016074E-2
 6.800000000000000E7    -8.934185396132417E-1    9.894757976541009E-2   -2.248990126729603E-4   -5.241662079142887E-4   -2.265810868456386E-4    4.675751128522414E-4    9.669434416412017E-1   -9.302354298597153E-2
 6.900000000000000E7    -8.950018760453757E-1    9.993508352512545E-2    1.049759073594464E-4   -7.235752427242449E-5   -1.060468422076823E-4    4.073881462248377E-4    9.640637107844039E-1   -9.693251406004598E-2
 7.000000000000000E7    -8.947649696303592E-1    9.698577955483567E-2   -9.998271834967679E-5   -4.632051485596132E-4    4.029793330637692E-4   -7.437516284388642E-5    9.594621287357544E-1   -9.995510566869990E-2
 7.100000000000000E7    -8.894298827833459E-1    9.949922800845425E-2   -1.126432617124392E-3    1.669521876265859E-4   -3.766537924520234E-4   -4.523931049562977E-5    9.645448334306810E-1   -1.035139785835291E-1
 7.200000000000000E7    -8.875288408398327E-1    1.004276624169480E-1    1.295084957512179E-4    4.477952728123586E-4   -3.407960978591697E-4    2.797009277517610E-5    9.636103291668319E-1   -9.895068787659626E-2
 7.300000000000000E7    -8.909934199617413E-1    9.791824162932142E-2   -4.032852665264068E-4    2.765849589383152E-4    1.855022944926155E-4   -4.220853985714478E-4    9.602539904304217E-1   -1.069326417228195E-1
 7.400000000000000E7    -8.876830664938504E-1    1.001372936010945E-1   -4.457385718632421E-4   -4.977913830489929E-4   -1.495249453734727E-6    9.417546077891433E-5    9.634006361816274E-1   -1.040377995810274E-1
 7.500000000000000E7    -8.915326878041796E-1    1.049025169429182E-1    9.430719093036373E-4    8.115439700471992E-4    3.723743354785206E-4    1.723025810430235E-5    9.615194163576628E-1   -1.054511606022589E-1
 7.600000000000000E7    -8.893589395198954E-1    1.080351581787541E-1    2.009132602485752E-4   -6.818623673075110E-4    6.490877715463743E-5   -1.374541341570113E-4    9.566134859471721E-1   -9.765218624709263E-2
 7.700000000000000E7    -8.940202494489126E-1    1.091502442697976E-1   -1.243257033153861E-4    2.392807153225778E-5   -4.717800308954526E-4   -4.431801458938519E-4    9.597030591584054E-1   -1.053327137873002E-1
 7.800000000000000E7    -8.914324854992268E-1    1.091853568530309E-1   -7.868783670618547E-4   -2.274354306474717E-4   -2.383145631184430E-4   -1.013098058169105E-4    9.627546076846482E-1   -1.138012858582506E-1
 7.900000000000000E7    -8.879150596455628E-1    1.077422632324736E-1    3.773764979950106E-4    1.877184862942672E-4    3.151211306800410E-4   -7.893807123153346E-5    9.599984536532344E-1   -1.082948855964293E-1
 8.000000000000000E7    -8.937429765763614E-1    1.105469770204231E-1    7.999771576951855E-4   -2.340678807968111E-4    3.599869016682389E-4   -3.192183010930747E-4    9.634505601440858E-1   -1.105262066416102E-1
 8.100000000000000E7    -8.877345225809621E-1    1.107294862548299E-1   -1.179524073812811E-4   -8.286438255271611E-4   -2.107665401075883E-5   -1.014215964411531E-4    9.597170249338196E-1   -1.107432758247813E-1
 8.200000000000000E7    -8.893434694339148E-1    1.093850551752505E-1    4.214564473191570E-4    7.088263088307289E-4    3.010273527645529E-4    1.636423822740681E-4    9.616541434238984E-1   -1.089997110125689E-1
 8.300000000000000E7    -8.876037236090913E-1    1.103949079956622E-1    1.434725567673321E-4   -1.558375214314955E-4    5.181513569666994E-4    5.265077828956854E-4    9.582399946855006E-1   -1.172446741583553E-1
 8.400000000000000E7    -8.884492909085343E-1    1.139390805929542E-1    7.866538084880052E-4    3.619126387340935E-4   -6.531345483583094E-4   -1.106816225894482E-4    9.586252207595479E-1   -1.119981924907860E-1
 8.500000000000000E7    -8.868625912542727E-1    1.166597836136973E-1   -6.861339573157429E-4    2.838977680534885E-4   -6.607866954489500E-4   -1.199211602157070E-3    9.546729141655367E-1   -1.199596241527877E-1
 8.600000000000000E7    -8.859314699162988E-1    1.192169094624615E-1    5.941526356978656E-4   -4.562054401695068E-4   -2.011481521465719E-4   -2.065553717550331E-4    9.574340731213777E-1   -1.197329171615348E-1
 8.700000000000000E7    -8.905404510350230E-1    1.164127763084407E-1   -2.311385180799050E-4    4.583458810067110E-4   -2.546660408453029E-5    7.463992225745525E-5    9.588290875899933E-1   -1.209534081985742E-1
 8.800000000000000E7    -8.856021149330990E-1    1.226096145945188E-1    7.212003516997715E-4    3.776911850444834E-4   -9.158204015302291E-4    1.232659544579564E-4    9.547450529312940E-1   -1.207249180881562E-1
 8.900000000000000E7    -8.840218584208532E-1    1.210258771850514E-1   -1.003649894559860E-4    2.870519957457837E-4   -5.045086993157569E-4   -5.107359590223808E-4    9.543156462522828E-1   -1.244897848430832E-1
 9.000000000000000E7    -8.848343058660478E-1    1.186090506253548E-1    1.704103259585268E-4   -1.694796400753403E-4   -9.352707283708100E-4   -3.156804529308807E-4    9.549615951331282E-1   -1.249650965817129E-1
 9.100000000000000E7    -8.843440628534487E-1    1.267838059359062E-1    9.046110177741645E-4   -4.469261231507606E-4    3.282158024362293E-4   -7.853947342418309E-5    9.580365340631333E-1   -1.262582098012182E-1
