#  HZ   S   RI   R     50.00 
! Rohde & Schwarz Vector Network Analyzer 
! Rohde-Schwarz,ZNBT8-20Port,1318700624101681,3.50
! Created: UTC 7/15/2025, 2:11:19 PM
! freq[Hz]                re:S1010                im:S1010                re:S0410                im:S0410                re:S1004                im:S1004                re:S44                  im:S44
 1.000000000000000E6    -9.007474014099753E-1   -5.384400229955306E-3    3.774089374515728E-4    3.512138466470509E-4    9.445366128711874E-5   -7.680682524804542E-5    9.757662939393001E-1    2.001817900548063E-2
 2.000000000000000E6    -8.967290784121383E-1   -1.440027936772932E-2   -1.361592877704265E-4   -6.428626457219088E-4   -2.234834656808941E-4   -3.431558165204737E-4    9.780056201160655E-1    1.523198892433004E-2
 3.000000000000000E6    -9.064009158297662E-1   -7.151961303708389E-3    2.625175572270805E-4   -1.168176576965359E-4    2.317473895752142E-4    4.542098357957550E-5    9.882243909692064E-1    1.090197783781998E-2
 4.000000000000000E6    -9.126544651783927E-1   -1.168766221778370E-2   -6.440072236832498E-5    1.679201755366626E-4   -1.141926322803272E-4   -2.299281279976972E-4    9.790015583475582E-1    1.274506750460362E-2
 5.000000000000000E6    -8.962760606403097E-1   -6.646164210775922E-3    3.218083934105032E-5    8.592446663832581E-5    2.152460727887234E-4   -1.023213616641219E-4    9.786771611219753E-1   -4.170154463380341E-3
 6.000000000000000E6    -9.036588834902795E-1    7.377067494949976E-3   -4.466180189664660E-5   -1.519275931216914E-4    1.174681011887515E-4    4.421468680720179E-5    9.761713584525603E-1    3.085489898406543E-3
 7.000000000000000E6    -9.137358988290580E-1    2.043852940074095E-3    3.352559910362668E-4   -6.739541684474565E-5   -1.370750464100629E-4   -8.978293771196591E-5    9.815343967886389E-1   -5.558362060270880E-3
 8.000000000000000E6    -9.039607092673945E-1    7.864476058608924E-3   -1.814158341685094E-4    1.107653895407993E-4   -2.963438568822986E-4    4.052157972736165E-4    9.688119995208992E-1   -7.477979087557871E-3
 9.000000000000000E6    -9.056878568521752E-1    4.381161755805647E-3   -9.783736748191203E-5    1.752476264062974E-4   -8.813482709041263E-5    1.730636314032197E-4    9.744709724289871E-1   -4.176526142885195E-3
 1.000000000000000E7    -8.892263385577600E-1    2.292731593489800E-2    2.571844046142390E-4    2.101387956908663E-4    2.584103255914645E-4    7.454069340964273E-5    9.741283395615851E-1   -1.700310868096425E-2
 1.100000000000000E7    -9.004587562689909E-1    1.988423584594202E-2    2.195956696379975E-5   -8.660253165739393E-5   -4.001898253108773E-4   -1.876371202602729E-5    9.752610280330765E-1   -2.285221813533036E-2
 1.200000000000000E7    -8.942297707597041E-1    1.743098848843827E-2   -9.712643437665485E-5    5.836338401777298E-5    1.573939022023628E-4   -8.395701235713575E-5    9.838276482595688E-1   -1.564293680521505E-2
 1.300000000000000E7    -8.933380513191954E-1    1.992062792927456E-2   -1.097755079707684E-4   -1.938149554152165E-4   -4.482618151236363E-4    2.053789006811624E-4    9.687997257357758E-1   -1.981652957195524E-2
 1.400000000000000E7    -9.036205140125144E-1    1.844566897212688E-2   -1.667340126512693E-4   -5.903492181409637E-5   -2.846245299393003E-5    4.903910878612129E-4    9.768098995628322E-1   -1.543167330871801E-2
 1.500000000000000E7    -9.073227330068441E-1    1.926419442455091E-2    1.268278581881272E-4   -2.188895588335143E-4    6.567221948284533E-5    2.482168826448717E-4    9.880805067930950E-1   -3.559818476539030E-2
 1.600000000000000E7    -9.135420945405787E-1    2.735563090728445E-2    1.333957231638164E-4    1.665906898432020E-4   -5.858178894590129E-4    2.428473843976804E-4    9.781711377444530E-1   -2.261670269147450E-2
 1.700000000000000E7    -8.932682028674340E-1    3.049877367543673E-2   -2.537636153141574E-5   -1.113011328322967E-4    9.173482868281841E-5    1.164766537846730E-4    9.844972521865152E-1   -2.929398703818979E-2
 1.800000000000000E7    -9.116066093262822E-1    2.139620504229731E-2    2.321744189699024E-4    1.399817342327705E-4    1.965113249349627E-4   -2.183562079580248E-4    9.778166369700146E-1   -2.481617555906156E-2
 1.900000000000000E7    -9.034842981520491E-1    3.097853854510139E-2   -1.805552748201179E-4    8.022169946711245E-5    2.961484762635548E-4   -1.737887765240536E-4    9.713537028503039E-1   -2.418781054310619E-2
 2.000000000000000E7    -9.029295957621841E-1    3.407700394095547E-2    1.055174728222221E-4    1.439065092010780E-4    2.357299565987286E-4    4.413320252672735E-4    9.748727076575355E-1   -2.853630538883358E-2
 2.100000000000000E7    -9.045173753621292E-1    3.568130281285401E-2    1.365875076076852E-4   -9.647138742979408E-5   -4.578909983997790E-5   -1.849097300640413E-4    9.720108230779585E-1   -2.453003626638166E-2
 2.200000000000000E7    -9.002819120080338E-1    2.754563517869327E-2    6.223429279435392E-5   -1.728994078043557E-5   -1.849741473453867E-5   -1.651346358812397E-4    9.754807639501162E-1   -3.612939042639299E-2
 2.300000000000000E7    -9.037006212924306E-1    3.755172976405515E-2    5.868331905581454E-5   -1.879622327114795E-4   -2.780979170668222E-4   -5.448024570659722E-5    9.692400480638670E-1   -4.365459182599214E-2
 2.400000000000000E7    -9.167365794392404E-1    5.078370721541870E-2   -1.732223642157631E-4    2.466293308810734E-6   -3.779825651879428E-4    4.953815514793139E-5    9.779146943793116E-1   -2.860321305775473E-2
 2.500000000000000E7    -8.862733951700911E-1    5.284202707375701E-2    1.447635495265584E-4    7.089779650422027E-5    3.054461543447246E-4    3.103682982585754E-5    9.902024820218087E-1   -2.699424973825989E-2
 2.600000000000000E7    -9.062407392110580E-1    4.356753374298145E-2    6.437486455943509E-4    7.485399924972660E-4    3.627894277008576E-4    1.753959994431735E-4    9.825544848290096E-1   -4.193011098795955E-2
 2.700000000000000E7    -9.030389683453083E-1    4.287171868502314E-2   -6.719869625445290E-5    1.208589337478879E-4   -6.376343866291921E-5   -6.323446379129623E-4    9.781076257315009E-1   -2.806578294955786E-2
 2.800000000000000E7    -9.016722259224279E-1    4.342436493772705E-2   -5.413292826625599E-5    4.607133313326536E-7    4.681317264057892E-4    3.352477267772218E-4    9.784912226977025E-1   -4.579313105717452E-2
 2.900000000000000E7    -8.976532556988466E-1    4.739245535315270E-2    2.417514500382469E-5   -3.857206408535336E-4   -7.720637311487247E-4   -1.659373667255753E-4    9.747897036885049E-1   -5.062917612139926E-2
 3.000000000000000E7    -8.960296598975566E-1    4.320118703413666E-2    3.630946102661844E-4   -2.175543448982986E-4   -3.348075511406322E-4    1.180773500955185E-4    9.739373092229681E-1   -3.711992517475238E-2
 3.100000000000000E7    -9.009204421549502E-1    4.623812958388142E-2    2.233644341605852E-4    9.793600639911193E-5   -6.254317835285542E-4    5.354611760386198E-4    9.740955776501220E-1   -4.875590220185436E-2
 3.200000000000000E7    -9.022339889886004E-1    4.273259337465699E-2   -6.983885862425313E-4    6.062903934336351E-4    3.226109267750156E-4   -7.321246302850692E-5    9.760744950512474E-1   -5.006613571949029E-2
 3.300000000000000E7    -8.998580657152613E-1    4.827999255679053E-2    1.147898917495826E-4    6.274698380984255E-4   -1.083712623219596E-4   -3.437893505414800E-4    9.777028048927868E-1   -5.141676782546880E-2
 3.400000000000000E7    -8.997790282112229E-1    4.678209252672740E-2    4.025570880331682E-4    4.767404157611803E-4    2.953024992737032E-4    6.443102761661123E-4    9.716161612153035E-1   -4.669763942305401E-2
 3.500000000000000E7    -8.963491307453398E-1    5.417602415596082E-2    6.194561413303312E-4    8.513499789984636E-5    2.609205797637257E-4    7.388711019480951E-4    9.731096937065173E-1   -4.846356578115617E-2
 3.600000000000000E7    -9.030346556755842E-1    5.575470264204489E-2    2.153858344369791E-4    4.308122049437373E-4    1.612216701087306E-4    1.026479295305412E-3    9.768529492035123E-1   -5.001033091010042E-2
 3.700000000000000E7    -8.982356384844237E-1    5.666576345639033E-2   -1.259724364546820E-4   -5.708259789080630E-5    2.526892121907669E-4   -3.546385202493196E-4    9.789895370295250E-1   -5.586368013076659E-2
 3.800000000000000E7    -9.031930052686623E-1    5.558246866451342E-2    1.367092338693529E-4   -6.682776462865612E-5    2.747156958060818E-4    2.790794482664049E-5    9.744280145276067E-1   -5.346480787663122E-2
 3.900000000000000E7    -8.972099565379058E-1    5.790381612333503E-2   -2.762136813826916E-5    4.779148423175183E-4   -9.659696260914759E-5    1.410982172444531E-4    9.710207872603563E-1   -4.422934117487835E-2
 4.000000000000000E7    -9.000133341813867E-1    6.190743490751149E-2   -2.775768848925584E-4    5.565138870017916E-4   -2.669531064301840E-4   -4.622397119170144E-4    9.761911287042037E-1   -5.515093551124169E-2
 4.100000000000000E7    -8.985935715202457E-1    5.747108071253293E-2   -1.738245818265902E-4   -3.365094030539314E-5   -4.677845120797564E-4    3.528303766453730E-4    9.703914290402574E-1   -5.091297043520829E-2
 4.200000000000000E7    -8.999154091234001E-1    5.901239248171285E-2    4.388408135346615E-4    4.185732952351673E-4   -5.137955836722234E-5    1.496402065869467E-4    9.726311109579527E-1   -5.062353758899286E-2
 4.300000000000000E7    -8.930836126305451E-1    6.428869421062049E-2   -3.043661132226125E-4   -2.890152622927455E-4   -4.605268007443022E-4    5.903092523978961E-5    9.706783799557968E-1   -5.833052491953560E-2
 4.400000000000000E7    -8.975169267791269E-1    6.479831760828468E-2    2.370963442062667E-4   -4.959582612132048E-4    5.041443360969272E-4    3.578302862974426E-4    9.692528058420816E-1   -5.863284349194377E-2
 4.500000000000000E7    -8.979741589202124E-1    6.665594939430540E-2    5.215080908713093E-4    3.653527764648354E-5   -1.477771713156481E-4    2.563625516148119E-4    9.728245571099188E-1   -6.482322957568804E-2
 4.600000000000000E7    -8.975165233454592E-1    6.787008594070934E-2   -4.517518568055352E-4   -7.046694599115484E-5    9.504703749251580E-4   -4.662048275769113E-4    9.745528514887626E-1   -6.422809393286064E-2
 4.700000000000000E7    -8.953236187618587E-1    7.412635139414082E-2   -2.984230291511503E-5    4.399020404702948E-5   -9.704642342443681E-6    3.182976168358138E-4    9.686612110399617E-1   -6.698417785374110E-2
 4.800000000000000E7    -8.929910522182833E-1    6.684875897016859E-2   -5.222390615506359E-5   -3.375721587750874E-4    5.432792285954835E-4    6.610064937408945E-4    9.646868273079855E-1   -6.210158120642610E-2
 4.900000000000000E7    -8.966524097613344E-1    6.912383249962256E-2   -4.012596362456343E-4    5.626635074594517E-4    3.734976535487384E-5    2.611307390072698E-4    9.688111792198322E-1   -6.957058506066129E-2
 5.000000000000000E7    -8.989913003876749E-1    7.555754912645921E-2    2.441968959616414E-4   -1.352314551964327E-4   -7.284072986956361E-4   -6.145910400511468E-4    9.573423362668956E-1   -7.294163446171656E-2
 5.100000000000000E7    -8.978180990509321E-1    7.053350581955403E-2   -5.736190216350536E-4    2.065379234725450E-4   -7.413690518420967E-4    2.022916878570678E-4    9.650646286531807E-1   -7.088936667781695E-2
 5.200000000000000E7    -8.967945408422981E-1    7.302951678159862E-2    3.082352158377900E-5   -2.446941612203735E-4   -7.449416550229819E-4    1.184216167634640E-4    9.689573736285619E-1   -7.199744895801240E-2
 5.300000000000000E7    -8.957228370539436E-1    7.875600533234785E-2    5.958687584601213E-5   -3.500280259709135E-4   -2.962022402275846E-4    6.783515288455357E-5    9.765438658515249E-1   -7.331822323045274E-2
 5.400000000000000E7    -8.923808926350755E-1    8.148614886029637E-2   -7.948704074164977E-5    3.973546468617274E-4    5.483116136331322E-4    5.825711568526936E-4    9.669926546721946E-1   -7.550912904584398E-2
 5.500000000000000E7    -8.976203603445737E-1    7.984650321726999E-2   -6.638306414121972E-4   -2.709941704452283E-5   -5.898421580433745E-4    8.664629048196446E-4    9.718861551754847E-1   -7.749607145742754E-2
 5.600000000000000E7    -8.985505567893554E-1    8.057698224893674E-2   -8.416380068725094E-4   -4.997669459528034E-4    3.222356906244720E-4   -2.508062637365781E-4    9.709337440362726E-1   -7.635439273068235E-2
 5.700000000000000E7    -8.930138811368755E-1    8.324772406215131E-2    3.134423605403493E-6    8.076058498943391E-5   -2.952205439331497E-4    2.013259262107909E-4    9.706440771150677E-1   -7.719005266300785E-2
 5.800000000000000E7    -8.928819879763248E-1    8.122162682258614E-2    1.717197517077402E-4    1.478668118892038E-4   -4.209537162260214E-4    7.109773242950685E-4    9.680022720177974E-1   -7.558231725596166E-2
 5.900000000000000E7    -8.941901868732962E-1    8.319714543566210E-2    9.106503075724395E-4    3.176106818166047E-4   -1.804336768544680E-4   -5.283690787709663E-4    9.634022541582056E-1   -8.265133016947331E-2
 6.000000000000000E7    -8.958018033698882E-1    7.994834202367319E-2   -3.007699038020339E-4   -2.566887945003791E-4   -1.786552160923451E-4    1.337143507290109E-5    9.656925804567296E-1   -7.956513644544518E-2
 6.100000000000000E7    -8.903797443111007E-1    9.254340345319020E-2    6.207476068568871E-4   -4.730278669088054E-4   -4.741624906335275E-4    2.297925133346477E-4    9.735413102531094E-1   -7.857397801177876E-2
 6.200000000000000E7    -8.915902559221019E-1    8.824043703781025E-2   -1.992335122721687E-4    1.210923955782764E-4    4.884519640555884E-4   -5.518628340408523E-5    9.614855003096235E-1   -7.902909264134297E-2
 6.300000000000000E7    -8.918260156628037E-1    9.555966494101489E-2   -4.855058070085107E-4   -5.393765368541855E-4   -1.695024254748075E-4    5.949643489336578E-4    9.674924656779024E-1   -8.360124430399402E-2
 6.400000000000000E7    -8.932639386896352E-1    8.938189236529186E-2    2.029208221402721E-4   -3.784268809038973E-4   -3.133163915004037E-4    5.422651447104809E-4    9.630306591971135E-1   -8.226426084334940E-2
 6.500000000000000E7    -8.902627647236057E-1    9.402696320195301E-2   -3.583366228450213E-5    9.182768759683983E-5    2.648772513690618E-4   -7.432005748100014E-4    9.604818484656988E-1   -9.205155470211601E-2
 6.600000000000000E7    -8.927763549346813E-1    9.499734307037566E-2    9.719687979928229E-5   -3.674203172016950E-4   -5.936399551911990E-4    8.772639438728116E-4    9.645031518093299E-1   -8.582100471443638E-2
 6.700000000000000E7    -8.906950337690663E-1    9.256211991114856E-2   -2.146636928688726E-5   -8.106941323295268E-5    1.377820383274071E-4    2.942080546371114E-4    9.680171611669993E-1   -8.603299175840470E-2
 6.800000000000000E7    -8.948315401258217E-1    9.344158031503291E-2    3.395127290454469E-5   -3.199009305243203E-4    1.412334614911885E-3   -7.398272430955346E-4    9.609663037174065E-1   -9.572130500480217E-2
 6.900000000000000E7    -8.910323616994796E-1    9.218803448820684E-2    2.494762258369222E-4    3.479580085810228E-5   -2.489073583549988E-4   -8.950978316635872E-6    9.620744473939551E-1   -9.304227664932629E-2
 7.000000000000000E7    -8.936370373523235E-1    9.438151639508331E-2   -6.103277377501305E-4   -4.704637543874640E-4   -6.106165726527067E-4    1.218935918390726E-3    9.639878308115365E-1   -8.742660228821636E-2
 7.100000000000000E7    -8.899627243524888E-1    1.015698698337282E-1    4.005566988592749E-4    1.345798978732403E-4    7.132881739268936E-4   -4.791067838764109E-4    9.651265704474223E-1   -9.067359649094996E-2
 7.200000000000000E7    -8.843699669692281E-1    1.011689289064953E-1   -5.750715128625448E-5   -5.805779141571382E-4    4.824230852688411E-4   -1.854010100711689E-4    9.658458714219276E-1   -9.352487166684031E-2
 7.300000000000000E7    -8.904616415737423E-1    1.012956665897500E-1    2.033932437348734E-4   -5.574006538240793E-4    9.714860492861325E-5    2.942927819454809E-4    9.606175602021899E-1   -9.726637338795042E-2
 7.400000000000000E7    -8.926489689377289E-1    1.001807531020293E-1   -7.681856938640439E-6   -4.375825145085434E-4   -2.286551821870589E-4   -6.064996477917045E-4    9.710996432604331E-1   -9.859997306357011E-2
 7.500000000000000E7    -8.928973504166529E-1    1.019132054123208E-1   -4.353628621199129E-4    1.821881764370608E-4    5.982170106059075E-4   -7.398485793473378E-4    9.584093087585561E-1   -1.009214633007936E-1
 7.600000000000000E7    -8.901409409944885E-1    1.088311922401935E-1   -6.089062558529581E-4    1.054148647064728E-4   -4.659562933898018E-4   -3.888087125687794E-4    9.681620719132387E-1   -9.725713417510791E-2
 7.700000000000000E7    -8.927793108422288E-1    1.075840235791471E-1    6.181272914928239E-4   -3.002968277825297E-4   -9.581559513678422E-4    1.694146286965954E-4    9.620598936813473E-1   -1.035379664535539E-1
 7.800000000000000E7    -8.950667444032391E-1    1.067921747371867E-1    1.841768503580636E-4    2.765504634805472E-4   -8.937066784822703E-4    5.714514469607046E-5    9.614307719518866E-1   -1.017756550824476E-1
 7.900000000000000E7    -8.869478081430677E-1    1.078207518349831E-1   -1.304107448438078E-4   -3.045534122341735E-4    2.057357924866117E-4   -1.553782371669149E-4    9.619094797969406E-1   -1.121467029225147E-1
 8.000000000000000E7    -8.911836992423987E-1    1.129224580035832E-1    1.981290940786156E-4   -5.739699223980315E-4    4.244627381363255E-4   -2.933040021071096E-4    9.606448353064929E-1   -1.036198161322313E-1
 8.100000000000000E7    -8.867687696237355E-1    1.149389039704296E-1   -2.103598681280674E-4   -1.421761184754946E-4    1.611121649139261E-4    3.160464364051330E-4    9.617430251824080E-1   -1.097576476446718E-1
 8.200000000000000E7    -8.901406610042603E-1    1.140653528847125E-1   -3.985363461022305E-4    1.687941512715173E-4    5.904308768204849E-4   -5.419602330497346E-4    9.555894385890550E-1   -1.085138666560048E-1
 8.300000000000000E7    -8.900937318715879E-1    1.165705226368379E-1   -3.994002953568327E-4   -9.950091224369972E-4    5.107790186925241E-4    6.397317076665692E-5    9.585577280646019E-1   -1.128603840384872E-1
 8.400000000000000E7    -8.853838856014010E-1    1.114754418403470E-1   -3.799549949818535E-5   -1.201794150285286E-4   -3.449479846240328E-4    5.284018300088206E-5    9.620103657969850E-1   -1.091834556731070E-1
 8.500000000000000E7    -8.907447143652290E-1    1.157640516309073E-1   -1.210797388318138E-4    2.480251368558019E-4    9.056202304566838E-5   -2.998076802248781E-4    9.579338556447577E-1   -1.051904959287344E-1
 8.600000000000000E7    -8.904232171964880E-1    1.255101023002441E-1    3.574274906597172E-5    1.441645784307726E-4    3.630205904364781E-4   -7.766249000269311E-4    9.569324189358196E-1   -1.180662516084456E-1
 8.700000000000000E7    -8.847153324690561E-1    1.200969619132730E-1   -2.052243700308965E-4   -9.332336849487780E-5   -3.206502490035165E-4   -2.292694755959096E-4    9.570538256316220E-1   -1.184519664195750E-1
 8.800000000000000E7    -8.868481433571597E-1    1.218143985303536E-1    2.112561028760845E-5   -8.502883523090350E-4   -2.325946263005490E-4    9.481567149953051E-5    9.563189988967692E-1   -1.191887012303285E-1
 8.900000000000000E7    -8.850120558526761E-1    1.200337905579723E-1   -3.538090546451256E-4   -3.330094970009344E-4    9.073044477396319E-4    8.212305818652630E-5    9.536679114790512E-1   -1.179276415929215E-1
 9.000000000000000E7    -8.857548701263034E-1    1.253796661605383E-1    1.089866903696088E-5   -5.364577828030922E-4   -6.489814996105890E-4   -8.319719388189963E-5    9.624826822225176E-1   -1.195856115925320E-1
 9.100000000000000E7    -8.859878239563234E-1    1.270388585278696E-1   -3.540941350274133E-5   -2.939230664548363E-4    1.686696422548099E-4    4.675445343848085E-4    9.615412772047202E-1   -1.158850249774196E-1
