#  HZ   S   RI   R     50.00 
! Rohde & Schwarz Vector Network Analyzer 
! Rohde-Schwarz,ZNBT8-20Port,1318700624101681,3.50
! Created: UTC 7/15/2025, 2:10:35 PM
! freq[Hz]                re:S1010                im:S1010                re:S0510                im:S0510                re:S1005                im:S1005                re:S55                  im:S55
 1.000000000000000E6    -9.103476814560199E-1   -4.611940765745924E-3   -1.333603507244306E-4   -2.004632281827827E-4    9.838253311118161E-6    1.850243461034116E-4    9.729520170380437E-1    2.903873578927579E-2
 2.000000000000000E6    -8.960707109528602E-1   -1.013134596295926E-2   -2.344198848283041E-4    2.182412698290861E-4    1.214334761616056E-4    2.979462235100545E-4    9.779123304911808E-1    9.901990403370335E-3
 3.000000000000000E6    -9.072894630275367E-1   -7.946155291510935E-3    4.671177048099650E-5   -1.417316913280587E-4    1.566428413267415E-4   -5.099659411348019E-5    9.713029780648683E-1    2.358568355509112E-2
 4.000000000000000E6    -9.037100145995969E-1   -6.312047617092242E-3   -3.243217717369923E-4   -2.488857577449654E-4   -2.533061400212450E-4    6.813285445952748E-5    9.766393821281851E-1    6.762296108941126E-3
 5.000000000000000E6    -9.076805609104870E-1   -1.112633743859965E-2    3.733459875410508E-4    2.608428508868140E-4   -1.748386713118919E-5    4.924604057164921E-5    9.751720990288923E-1    2.019372392620654E-3
 6.000000000000000E6    -9.041674913104437E-1    3.179136349447482E-3   -5.690997463940717E-5   -4.262524278797607E-4    3.345879509542613E-4    3.218498778261355E-4    9.674559649763993E-1   -1.899770081808419E-3
 7.000000000000000E6    -9.096646259483435E-1    4.486474928357679E-3    2.288161409644214E-6   -7.296022558633969E-5   -8.488134209550618E-5    5.244157736663507E-5    9.745430259535811E-1   -1.173328742208267E-2
 8.000000000000000E6    -9.012290335460357E-1    2.552469639474196E-3   -1.361182242905642E-4    3.817327343839671E-5   -5.619894919558236E-5   -1.130343695503966E-4    9.877480744381247E-1   -1.339619844341827E-2
 9.000000000000000E6    -9.036885892487870E-1    6.289427897172258E-3    5.650737251534396E-5   -5.712751786177666E-4    2.253076120753348E-5   -2.787853155555073E-4    9.745563181864707E-1   -1.263836332247260E-2
 1.000000000000000E7    -8.914730635400079E-1    2.129623096560744E-2   -1.553993878774088E-4   -1.870033978725609E-4   -1.412924917834523E-4    1.475419129150708E-4    9.692430300978773E-1   -1.676910204995815E-2
 1.100000000000000E7    -8.916484107802334E-1    2.174018861690298E-2   -1.310712510844810E-4    3.971635791901457E-5    1.029191976682107E-4   -1.688140639241734E-4    9.738579920681125E-1   -1.421176896608458E-2
 1.200000000000000E7    -8.981911330596060E-1    8.429756273480265E-3   -9.805087838683341E-5    1.548048420402297E-4    1.045992114619336E-4   -1.039046253203052E-5    9.789324993475161E-1   -1.855976578656558E-2
 1.300000000000000E7    -9.071140752857437E-1    1.595098739188210E-2   -2.369941062713678E-4   -8.131983567450328E-5    7.030841497040974E-5    7.024519405962716E-7    9.820190747508211E-1   -1.739484619335460E-2
 1.400000000000000E7    -9.021439374614562E-1    1.764415814387857E-2    2.704268468523572E-5    1.634035239995415E-4   -9.145300406670733E-5    2.442358869860379E-4    9.832349724149868E-1   -1.592623108966645E-2
 1.500000000000000E7    -9.026306662708469E-1    2.441045361516268E-2    3.027166161506376E-4    1.111204166030815E-4   -3.699781448781340E-5    1.070613765059042E-4    9.778491915854390E-1   -1.745137853448657E-2
 1.600000000000000E7    -9.068907413672704E-1    2.640184557288565E-2    3.005340157130993E-4   -5.680693366542225E-5    1.935341549119939E-4    1.052913272316803E-5    9.806352577808390E-1   -3.536998134939522E-2
 1.700000000000000E7    -9.021027012496782E-1    2.599385157201998E-2    1.442161902040945E-4   -5.338650176347236E-4    4.823895401207111E-4    5.721436589596967E-5    9.792257252352138E-1   -2.552806774012639E-2
 1.800000000000000E7    -9.128283155663365E-1    2.333898740089312E-2   -1.774125995169193E-4   -1.334148013273083E-4   -2.095664930520239E-5   -3.220428397171005E-4    9.793895367619100E-1   -3.160732170948487E-2
 1.900000000000000E7    -9.029053670803273E-1    2.993973569142894E-2   -3.166442242199914E-4    2.323438109062780E-4    2.179172819238799E-4   -3.939480714361149E-4    9.761227355407321E-1   -2.561107538446739E-2
 2.000000000000000E7    -9.022756242574489E-1    2.838028631469819E-2    3.099924687950929E-5   -1.502945129297162E-4   -3.719395221044158E-4    1.044028585697654E-4    9.707187537091159E-1   -3.356650779567608E-2
 2.100000000000000E7    -9.067209637903756E-1    2.617676648334733E-2    6.283234014106754E-4    1.241884523169299E-4   -2.434667220638785E-4    6.923163756028212E-5    9.803707827049042E-1   -3.972175842731089E-2
 2.200000000000000E7    -8.991523655876590E-1    3.089381001159441E-2    5.735948519665705E-5    3.983809755705425E-5   -2.395236080619600E-4    2.480565380454992E-4    9.759564384425125E-1   -4.213457624011984E-2
 2.300000000000000E7    -9.020338444403500E-1    2.747529515387431E-2    1.420782328121468E-4   -8.636569224370422E-6    8.864167897516924E-5   -5.938706774993035E-4    9.791999880649107E-1   -3.512789141726255E-2
 2.400000000000000E7    -8.914263422203444E-1    5.035896291838211E-2   -1.466494795979048E-4   -2.078278113204633E-4    3.254320625825865E-4    2.416741320316484E-5    9.893707271716342E-1   -1.883942989555139E-2
 2.500000000000000E7    -8.890144102644885E-1    4.676683050385549E-2    5.635812163876853E-4    8.624264778298588E-5    1.185667038789463E-4    5.202039727839512E-5    9.804842832536705E-1   -3.404642387199951E-2
 2.600000000000000E7    -9.001398188467851E-1    3.649856484908988E-2    1.388788769325423E-3    7.482184513043786E-4    6.249814972456031E-4   -7.076675567273369E-5    9.772403641309368E-1   -1.596796177442225E-2
 2.700000000000000E7    -9.045368479709081E-1    4.230022741644817E-2   -8.540070381798607E-4    3.252619696523981E-4   -1.380136684512291E-4   -6.515775713705755E-4    9.813712167914251E-1   -2.709311584528722E-2
 2.800000000000000E7    -8.986877333712039E-1    5.034958281737573E-2   -4.703522874258304E-5    1.091612225733930E-4    3.709052943192115E-4   -4.774772133486843E-4    9.760788571536838E-1   -1.807915671009440E-2
 2.900000000000000E7    -9.008136956407202E-1    4.227860056471102E-2    9.197042840745087E-5    1.765338689099345E-4   -2.773529288747262E-5    1.389883495007953E-4    9.734963212505701E-1   -2.685035893650597E-2
 3.000000000000000E7    -9.025127600386949E-1    4.621594165525742E-2    5.391069093389170E-4   -7.937597560163876E-4    2.848399244012542E-4    3.033081648202744E-4    9.681647718242327E-1   -2.828706433360689E-2
 3.100000000000000E7    -8.975894177600772E-1    4.394520942154689E-2    6.576326706825621E-5   -2.379425059598936E-4   -1.361795028129767E-4   -7.568629598022800E-4    9.720310379814130E-1   -3.210646880905692E-2
 3.200000000000000E7    -8.980913024823209E-1    4.396412410018161E-2   -3.177537742927644E-4    2.710241925145128E-4   -6.237275453004997E-4    1.250031138066521E-4    9.716305821653612E-1   -2.943231448901272E-2
 3.300000000000000E7    -8.973594001603561E-1    4.650651961055677E-2   -6.346233212657715E-4   -6.356802961760813E-4   -4.785381761503216E-4   -4.658126006240919E-4    9.714134396896751E-1   -2.895545714802213E-2
 3.400000000000000E7    -8.951656790140727E-1    4.854870871111770E-2    3.537878379810561E-6   -7.007019768141918E-4    8.694050023677973E-4   -5.239307964567807E-5    9.716599945918466E-1   -3.638065390179077E-2
 3.500000000000000E7    -9.000125370862473E-1    5.371354535933112E-2   -4.559108501468665E-4   -7.536459818070754E-4   -4.736468846793521E-5    4.440299755184186E-4    9.713457625418871E-1   -3.336933903600827E-2
 3.600000000000000E7    -8.962904392550004E-1    5.151492689296281E-2   -4.520525487651862E-4   -1.862776247918688E-4   -2.702371134955565E-4   -1.617288502919208E-4    9.711970513923079E-1   -3.122134053757819E-2
 3.700000000000000E7    -8.990160008286644E-1    5.212780594428436E-2   -2.158286401681019E-4   -3.455297079089702E-4    2.355833231297258E-4    3.074851737923466E-4    9.656155524614490E-1   -3.758945577948410E-2
 3.800000000000000E7    -8.940695171025261E-1    5.485156303914539E-2   -1.372324015793388E-4   -8.988244873991745E-4    3.296459544959118E-4   -1.334123675610929E-4    9.679502162743933E-1   -3.820523381474126E-2
 3.900000000000000E7    -9.008271432170520E-1    6.196279740320788E-2    2.760085875353746E-5    1.927438795231050E-4   -1.138406758370425E-4   -4.314739742210332E-5    9.685980239386633E-1   -3.240745661733432E-2
 4.000000000000000E7    -8.960468252856583E-1    5.978247352477979E-2    4.193982467200843E-4   -7.095380616475749E-4    3.161548342428962E-4   -4.502864132897600E-5    9.645334597614179E-1   -3.376770299551806E-2
 4.100000000000000E7    -8.995290640642134E-1    5.766599835216310E-2    6.043416347494653E-4   -1.441307810841834E-4    2.882869479251825E-4   -7.770629476178745E-4    9.708428995265518E-1   -4.600584583942081E-2
 4.200000000000000E7    -9.015193831996098E-1    6.617560608968726E-2    1.182642452574953E-4   -1.156023565816362E-4   -4.166460913826758E-4    2.406915534913792E-4    9.712232535839813E-1   -4.469005736701912E-2
 4.300000000000000E7    -9.010863642277442E-1    6.360924066913913E-2   -1.335422709641296E-4   -2.991438197771747E-5   -5.096211291456232E-4    5.857413983336378E-4    9.701073057963266E-1   -4.183313482288822E-2
 4.400000000000000E7    -8.942841904789318E-1    6.603312813073360E-2   -2.825407850974906E-4    1.567829904961502E-5    2.220085858326485E-4   -3.505437113347796E-4    9.668441340830535E-1   -4.912650996851985E-2
 4.500000000000000E7    -8.975430658173955E-1    6.245312036254409E-2    4.754345952789612E-4    1.673344741016838E-4    3.361356685413979E-4    1.333356697828675E-4    9.718003413824845E-1   -4.844469094869790E-2
 4.600000000000000E7    -8.980250218768120E-1    6.809822561985170E-2   -2.536212386946322E-4    3.769917394667546E-5    2.270207001332394E-4    2.473977797788576E-4    9.670105787177040E-1   -5.372993497805317E-2
 4.700000000000000E7    -9.000453535794114E-1    7.203990112120903E-2    1.460014760712507E-4    3.884027342698467E-4   -1.293978905752383E-4    4.696348769700390E-4    9.645458785882900E-1   -5.161127968072369E-2
 4.800000000000000E7    -8.924881419661105E-1    6.540753720866792E-2   -5.085906764424747E-5   -4.487477748506231E-5    4.896075431862187E-4   -7.755135480533387E-5    9.695696131692382E-1   -4.989490530504266E-2
 4.900000000000000E7    -9.020649973779045E-1    7.343957899393846E-2    4.678792627803892E-4    3.246275105251387E-4   -3.892011827207867E-4   -3.352294147942339E-4    9.669527754424448E-1   -5.518789907781265E-2
 5.000000000000000E7    -8.969003868865879E-1    7.507162953373596E-2    4.919686125150501E-4    5.578551921604927E-4    6.950837167584963E-5   -6.836579345786110E-5    9.711427185927265E-1   -5.951239399257101E-2
 5.100000000000000E7    -8.947187257759009E-1    7.019318972227374E-2    7.691038631451046E-4    1.183346688674127E-4   -4.266845822459810E-4   -1.734195494704238E-4    9.681117078545811E-1   -5.816368143066319E-2
 5.200000000000000E7    -8.979266940776519E-1    7.005882940541223E-2    1.019302608521466E-4   -9.554385897401662E-4    3.778190805533478E-4    1.059075307216380E-4    9.718108655034695E-1   -6.727494123198535E-2
 5.300000000000000E7    -8.962914640444393E-1    7.599271870980948E-2    5.011083993071749E-4    8.287709111317721E-4    1.870098756201352E-4    1.170694284311931E-4    9.719862604782316E-1   -6.530155880794858E-2
 5.400000000000000E7    -8.918095566930413E-1    7.598889920095446E-2   -1.888590483914974E-4   -2.375387001872310E-4   -7.999800241345166E-4    2.267988736364304E-4    9.684120962164980E-1   -6.389311904847149E-2
 5.500000000000000E7    -8.935887935584281E-1    8.077558380965599E-2   -2.385474990888436E-4    7.846986266839959E-4   -2.647337133544517E-4    5.069227535969294E-4    9.600197938783553E-1   -7.066096728362521E-2
 5.600000000000000E7    -8.938044493443318E-1    7.918552981142196E-2   -3.789273411557503E-4    5.919524924283303E-5   -4.006992873825959E-4    8.866177156233611E-4    9.641350152684363E-1   -7.586850708026401E-2
 5.700000000000000E7    -8.939523461950365E-1    8.384996484902751E-2    1.055533074544660E-4   -1.701564026666066E-5    3.974135469479070E-4   -8.177258948474764E-5    9.635548429274756E-1   -7.491155901969727E-2
 5.800000000000000E7    -8.894564886354902E-1    8.242231865634632E-2   -1.120529874717245E-4    1.822285957549299E-4    3.727123889294256E-4    1.520566491823283E-4    9.672247258378324E-1   -7.947039108376862E-2
 5.900000000000000E7    -8.878133266979865E-1    8.542317940801226E-2   -3.589485616827834E-5   -2.192791960106670E-5   -5.319062224237295E-4   -1.435577501090540E-4    9.636557536457848E-1   -8.045785669535357E-2
 6.000000000000000E7    -8.913338125572453E-1    8.259624754480521E-2    4.280938185436176E-5    1.845923218047950E-4    5.533897676488645E-5    6.053081878488871E-4    9.599647392128676E-1   -8.647896701307603E-2
 6.100000000000000E7    -8.899474050653363E-1    8.838748077610525E-2    1.455133056020330E-4    2.469038175936475E-4   -5.670456340783727E-4    2.242700548021402E-4    9.659455828797437E-1   -8.287616634428809E-2
 6.200000000000000E7    -8.926423286455679E-1    9.171842965452350E-2   -1.562331409399849E-4   -5.724129505754043E-4    1.897775319584078E-4   -2.486091762744581E-4    9.661734051890293E-1   -8.856473229528360E-2
 6.300000000000000E7    -8.902181763113413E-1    9.243111410721053E-2   -3.921655621788952E-4    1.757630943682688E-4    3.158504703752255E-4    4.938768612869764E-5    9.642424875410147E-1   -9.255239076263756E-2
 6.400000000000000E7    -8.920940556431826E-1    9.212531537716141E-2   -1.329406261714653E-4    6.629819037493702E-4   -3.244110612923194E-4   -2.972268812476417E-4    9.675634217464437E-1   -9.026115031323177E-2
 6.500000000000000E7    -8.933345454399377E-1    1.006790479144860E-1    1.738933144698724E-4   -3.386251388894076E-5    3.827571513217978E-4   -1.447863056614243E-4    9.643644796213892E-1   -9.321762122909437E-2
 6.600000000000000E7    -8.910122329582093E-1    9.733511244032521E-2    3.827432823473871E-4    1.984078483766665E-4    4.615714664116727E-4   -1.317416962531503E-4    9.631909412355140E-1   -1.008670759683617E-1
 6.700000000000000E7    -8.875031238109108E-1    9.389210801842110E-2    6.145578936353434E-6    9.791855979246620E-5    1.391563294751561E-4   -8.332529605320288E-4    9.627933604374819E-1   -1.017564155984292E-1
 6.800000000000000E7    -8.883975441104948E-1    1.002988167836589E-1    4.065078053912786E-4   -5.368800703739314E-4   -1.986858369335574E-4    2.125471500340319E-4    9.617627153026044E-1   -1.043532727549002E-1
 6.900000000000000E7    -8.911835772876446E-1    9.612015768162691E-2    5.172939845282975E-4    5.121687085245947E-5   -7.150977782718824E-4    2.316810647603316E-4    9.666686191308421E-1   -1.003105225935280E-1
 7.000000000000000E7    -8.930811375187071E-1    9.778466435755588E-2    3.668358372225229E-6   -2.708361424602807E-4   -5.271209855416877E-5    1.220861909453753E-4    9.595386842874937E-1   -1.122263978879588E-1
 7.100000000000000E7    -8.946598193816363E-1    1.011495499465929E-1   -2.708582628117001E-4    6.652802345547510E-4   -7.391157644640271E-4    3.807463318091599E-5    9.617548402738673E-1   -1.035943776682531E-1
 7.200000000000000E7    -8.891361284132659E-1    9.880230203827536E-2   -1.028093042129024E-3    9.142382671433562E-4    3.823108411856658E-4    7.042334131714919E-5    9.605888721968904E-1   -1.078534804416874E-1
 7.300000000000000E7    -8.909475532646951E-1    1.023505355935106E-1   -8.560293766032563E-4   -6.150491323499031E-4    2.036255190747791E-4    3.592372057726244E-4    9.626696590557419E-1   -1.152273181346060E-1
 7.400000000000000E7    -8.908092028567529E-1    1.013667523365092E-1    7.599936146218591E-5    7.285465960504775E-4   -3.985339432802623E-4   -1.155012231975766E-4    9.649488089182569E-1   -1.178297522074720E-1
 7.500000000000000E7    -8.962757220028084E-1    1.055096630424638E-1   -2.399134928649954E-4   -2.876896551088182E-4    5.763300686661681E-6    3.034286082631886E-4    9.599865342311239E-1   -1.163722344329157E-1
 7.600000000000000E7    -8.910617425985345E-1    1.088018079218890E-1   -4.078448698197578E-4   -4.108230225167148E-4   -5.627127988946410E-5    7.832643162187942E-4    9.558834217368930E-1   -1.193566687939885E-1
 7.700000000000000E7    -8.914253994143081E-1    1.090637217182046E-1   -1.970296971715170E-4   -4.665904219088062E-4   -1.977102440893928E-5    2.348077141560778E-4    9.598809384969959E-1   -1.129816618116064E-1
 7.800000000000000E7    -8.922825513800861E-1    1.091317468951526E-1   -2.052860209260553E-4   -2.165985908936737E-4    6.687458288235099E-4    1.643916975181030E-4    9.582602319224334E-1   -1.236286259806262E-1
 7.900000000000000E7    -8.886148467737394E-1    1.086829832882478E-1    6.977440031338591E-4    2.782117844555303E-4   -1.423149360962298E-4    5.516993647624346E-4    9.579204720693532E-1   -1.215583621756475E-1
 8.000000000000000E7    -8.885129814448337E-1    1.105168215076953E-1    1.314591829485150E-4    3.550257409692008E-4    2.993919833999139E-4   -4.362731185759723E-4    9.582874778471968E-1   -1.270457170243609E-1
 8.100000000000000E7    -8.827797920843758E-1    1.099094487360638E-1   -3.664498199345220E-4    1.513951213887526E-4   -5.296871185203641E-4    3.046825181991483E-4    9.577098699846993E-1   -1.267813140737491E-1
 8.200000000000000E7    -8.885547049405917E-1    1.087134508640365E-1    1.941742220554218E-4   -5.499145712146553E-4   -1.296490077420605E-5    4.630536281868272E-5    9.587130710997258E-1   -1.269605155987116E-1
 8.300000000000000E7    -8.894726527673368E-1    1.175468245265238E-1   -9.135798218265887E-4   -2.492593527314032E-4    7.859738367198091E-4    4.179360369025023E-4    9.579961150547837E-1   -1.295402357506952E-1
 8.400000000000000E7    -8.865519776589008E-1    1.128638270737673E-1    2.093575392672917E-4    3.194258845167338E-4    9.205470095501575E-5   -5.702998702795617E-4    9.608878303004283E-1   -1.289057630347732E-1
 8.500000000000000E7    -8.809873621127662E-1    1.092545768413644E-1   -1.241873317557705E-4    3.336677137472282E-4    5.583970392795773E-4    3.090123768602013E-4    9.564227681983732E-1   -1.350296324443118E-1
 8.600000000000000E7    -8.861266552433316E-1    1.209866062912240E-1   -1.240869324608530E-4   -6.241194327981605E-4    4.415262240707744E-5    1.598530288147301E-4    9.578746047036760E-1   -1.334948164983930E-1
 8.700000000000000E7    -8.864877477880873E-1    1.220163382806602E-1   -5.719419371677194E-4   -3.815563488290871E-4    2.976054604349767E-4    6.551467317967332E-4    9.561607934078648E-1   -1.324487146534158E-1
 8.800000000000000E7    -8.835512067158684E-1    1.252390175901643E-1    1.045705764689206E-3   -6.075385354284839E-4   -6.509883116296682E-4   -1.020439710446019E-4    9.530537745164748E-1   -1.334779582790849E-1
 8.900000000000000E7    -8.808387296114812E-1    1.246885193135903E-1    1.276156382057156E-3   -1.114605340070186E-4    1.644769528700213E-4    9.253000055156221E-4    9.563016745731263E-1   -1.362494639655338E-1
 9.000000000000000E7    -8.803715339925661E-1    1.285938012729982E-1    2.496020991011736E-4   -1.817078519534503E-4    9.525099903796010E-5   -3.330455778942860E-4    9.536330715424738E-1   -1.325525367692749E-1
 9.100000000000000E7    -8.873220625441679E-1    1.272689263979844E-1   -1.722283625654060E-4    1.256571410712185E-5   -1.606737903208902E-4   -3.370335325899161E-4    9.600957290699356E-1   -1.440255005633442E-1
