#  HZ   S   RI   R     50.00 
! Rohde & Schwarz Vector Network Analyzer 
! Rohde-Schwarz,ZNBT8-20Port,1318700624101681,3.50
! Created: UTC 7/15/2025, 2:11:06 PM
! freq[Hz]                re:S1010                im:S1010                re:S0310                im:S0310                re:S1003                im:S1003                re:S33                  im:S33
 1.000000000000000E6    -8.982737810373136E-1   -5.845955816904278E-3    8.113471238700508E-7    1.603566296469213E-4   -1.805335834349958E-4    2.237498080544663E-5    5.636764062186909E-1    8.142824281284199E-3
 2.000000000000000E6    -8.988208178617871E-1   -1.413981593588085E-2    2.333586366190803E-4   -2.680497312028727E-4   -3.313158669804808E-4    2.368087244174310E-4    5.687423906255507E-1    5.318832775935240E-3
 3.000000000000000E6    -8.994053049082094E-1    1.330749301334569E-3   -3.174960294652958E-4   -4.415559560870536E-5    1.891732723221935E-4   -2.094515327560736E-4    5.665407353580941E-1    8.328758999472158E-3
 4.000000000000000E6    -9.081393436575826E-1    8.788923719975530E-4    2.303717509121887E-5   -8.437336853875778E-5    1.810557054570231E-6    1.815721923748921E-5    5.711267072020219E-1    3.127189211604760E-3
 5.000000000000000E6    -9.004720965903067E-1   -2.834140215703704E-3    3.047002583648257E-4   -3.379714754904987E-5    2.148145348606895E-4    2.370875241748801E-4    5.591512189674079E-1    2.532309107010100E-3
 6.000000000000000E6    -8.958388111038575E-1   -7.940605189456480E-3   -1.584523532187010E-4   -3.061837450072494E-5   -1.833433620344160E-4   -1.460826644105372E-4    5.590944453905813E-1   -1.372369392821670E-3
 7.000000000000000E6    -9.115281358920230E-1    3.502646765123434E-3    1.811421546877422E-4   -2.362620214739995E-4    9.346604405403244E-5    6.073431363438991E-5    5.647936404784475E-1   -7.092620405636177E-3
 8.000000000000000E6    -9.045168974008574E-1    1.187386098014438E-2    2.216427359234976E-4   -2.569239647291108E-4   -1.306499383085476E-4    4.147367595847629E-4    5.621230530173857E-1    2.676348721618021E-4
 9.000000000000000E6    -9.064470697383077E-1    1.064656486804331E-2    1.899768606957889E-6   -2.314032451321383E-4   -2.125769582488438E-4    1.881973732186324E-4    5.632468941886692E-1   -4.612801699848610E-3
 1.000000000000000E7    -8.975963883363648E-1    1.872337406900556E-2    5.244610036363448E-5   -1.039086210234878E-4   -2.376951199827118E-4   -4.089354878897632E-4    5.667711329447294E-1   -6.896772528847481E-3
 1.100000000000000E7    -9.026554916748054E-1    2.498697364584103E-2   -3.108898544020552E-4   -1.106940007836833E-4   -1.769593728870887E-4   -9.308289240333726E-5    5.608060601813700E-1   -1.010216642270185E-2
 1.200000000000000E7    -8.983741031008760E-1    1.383350806214469E-2   -1.894448551582370E-4   -2.331379799808206E-4    4.298209406695457E-5    3.164712846045802E-4    5.577639959573459E-1   -1.340352569670478E-2
 1.300000000000000E7    -9.012903152562639E-1    2.498143062219232E-2    1.424728457024644E-4   -2.438247073183752E-4   -2.894307081667062E-4   -2.205896986307505E-4    5.656812139682953E-1   -1.232823104572508E-2
 1.400000000000000E7    -9.040232735697679E-1    2.650577164174333E-2   -1.833995052084129E-4   -8.045848306866590E-5    4.168239958620849E-4   -3.757188430217128E-5    5.658022404698193E-1   -1.404700204038405E-2
 1.500000000000000E7    -9.011619461764437E-1    2.953752145477714E-2    3.405983697322572E-4   -2.423788036189904E-7   -1.671786902339800E-4    9.066935602327578E-5    5.580306183479236E-1   -1.026185759565682E-2
 1.600000000000000E7    -9.026528030578319E-1    3.047646573970093E-2    2.260467619282819E-5   -2.002791443743031E-4   -1.259139050890908E-4    1.788747606822992E-4    5.610028773848101E-1   -1.269402356369058E-2
 1.700000000000000E7    -9.033718563719350E-1    2.363263296906750E-2    1.716776370584836E-4   -2.084704893734265E-4   -9.508365303331205E-5    6.206389210410164E-5    5.639348781352808E-1   -1.657420046404328E-2
 1.800000000000000E7    -9.027134273969825E-1    3.324519703854276E-2   -2.080019293875763E-4    1.044387354401302E-4    1.745695648802746E-4    2.778724841625487E-4    5.624675260327684E-1   -1.462529876280929E-2
 1.900000000000000E7    -9.052127613476925E-1    3.265611458126802E-2   -1.429671815303534E-7   -1.167073280644326E-4   -1.788099282209748E-4   -2.803996710830303E-4    5.649417711425249E-1   -1.595072774765837E-2
 2.000000000000000E7    -8.970114313046159E-1    3.421568924869685E-2   -5.160392762819269E-5   -1.703508826492450E-4   -1.370483443436774E-4    1.969008130417647E-4    5.595771308011578E-1   -1.628178372688177E-2
 2.100000000000000E7    -9.002765716816696E-1    3.370404696612872E-2    8.596482597097235E-6    1.417985488408961E-4    1.766885138403073E-4   -7.440131775921908E-6    5.579342712753962E-1   -1.725969151622928E-2
 2.200000000000000E7    -8.964349830429740E-1    2.644904595602942E-2   -6.511884015291430E-5   -2.756046454058424E-4   -2.103681068541586E-4   -2.415143805008301E-5    5.653311208364443E-1   -1.718405583988819E-2
 2.300000000000000E7    -8.976112620654030E-1    3.565989286673958E-2    2.747375259302826E-4    2.216952496023991E-4   -5.501712816766568E-4   -3.428565614910785E-5    5.660998005226935E-1   -2.415160735353647E-2
 2.400000000000000E7    -8.908644965969980E-1    5.051883383397114E-2    3.595953352738505E-5   -2.294836317929455E-4   -1.173818642742761E-4    1.531468101547439E-4    5.625212080732187E-1   -1.650532111524261E-2
 2.500000000000000E7    -8.935710325738632E-1    3.812853715147789E-2    1.395661062352197E-4   -2.343384704020461E-4   -2.079022223778585E-4    4.601828433925498E-4    5.533011847338049E-1   -2.464066902495583E-2
 2.600000000000000E7    -9.002937128880282E-1    3.479764509713969E-2    1.405887161018431E-4   -3.698133766896416E-4   -5.620610932339768E-4    4.687416786051370E-5    5.633818243285424E-1   -2.339533905586648E-2
 2.700000000000000E7    -8.955672271230192E-1    4.707168146359118E-2   -4.590159736089732E-4    1.528431826416481E-5    2.848088987120876E-4   -5.540654067651935E-4    5.638011047544660E-1   -2.321166379662298E-2
 2.800000000000000E7    -9.037771924694025E-1    5.113568051729476E-2   -7.549569796127379E-4    6.388491141162242E-4   -1.980481958203047E-4   -4.849283266816798E-4    5.665098675451392E-1   -2.407092759532801E-2
 2.900000000000000E7    -8.999494777248099E-1    4.455944812396236E-2    8.136539552724165E-4    1.693843456760973E-4   -6.956906328800085E-4    1.343607697851370E-4    5.619310232837192E-1   -2.143153541610376E-2
 3.000000000000000E7    -9.083862540705590E-1    4.742258775699242E-2   -1.101222891701820E-4   -1.816494493381257E-4    2.530629528226836E-4    1.138180830445757E-4    5.607912438162954E-1   -2.766357462924567E-2
 3.100000000000000E7    -8.965381135617176E-1    4.651866426198876E-2    3.219013321261812E-6    6.679447754300637E-5    7.789589246482222E-4    1.821267868623587E-4    5.600322365465091E-1   -2.744964375351330E-2
 3.200000000000000E7    -8.927031999876399E-1    4.101732794204509E-2   -5.244994156078303E-5    3.586739849211728E-4    7.519372181768070E-4    1.360406570426083E-4    5.603024891642882E-1   -2.571444208780600E-2
 3.300000000000000E7    -8.937554783598115E-1    5.479967997055436E-2   -3.650306714632175E-4    5.278647961838082E-5   -8.360711566563278E-5   -1.774625509787212E-5    5.595413218220091E-1   -3.183453956813451E-2
 3.400000000000000E7    -8.972656625309876E-1    4.733540373283834E-2   -4.887402480779022E-4   -2.302907291676595E-4    9.416597483054363E-5    2.994185427002716E-4    5.668845673572355E-1   -3.178786192324916E-2
 3.500000000000000E7    -8.976831233595670E-1    5.722589807982990E-2    2.500702332581956E-4   -5.689508730171796E-5    4.158799873754466E-4   -6.944928521484233E-4    5.534451598231731E-1   -2.971519347538406E-2
 3.600000000000000E7    -9.033338573463484E-1    5.347788262178758E-2    1.504035099857567E-5   -6.304898040931729E-5    2.400524789178290E-4    8.599241666502322E-5    5.629246623660121E-1   -3.091477909207430E-2
 3.700000000000000E7    -8.979081315510876E-1    5.349915592267671E-2   -4.566753125641801E-4    2.314691353753905E-4    3.039176435268542E-4   -3.633571672417363E-4    5.610786911150831E-1   -3.123099795325596E-2
 3.800000000000000E7    -8.983455299456674E-1    5.685320631442958E-2    1.859046481547086E-5   -1.437299620166023E-4   -7.968514362317488E-4   -4.130057920312435E-4    5.600404265733430E-1   -3.335980815353978E-2
 3.900000000000000E7    -8.947576450606757E-1    5.583510094767433E-2    2.646660070042011E-4    9.752838945803226E-5    4.534581460477693E-4    4.601453434079590E-5    5.607611003586029E-1   -3.181129038743492E-2
 4.000000000000000E7    -8.979536851848738E-1    6.115024211820960E-2   -2.539106467927595E-4   -3.104594154663912E-4   -7.895413907483888E-4    1.319946939249275E-4    5.583335733717218E-1   -3.606149245153853E-2
 4.100000000000000E7    -9.005680442490720E-1    6.437935093057762E-2   -6.665490789774558E-4    2.313724843371586E-4    4.250210579143341E-4   -3.191857103381020E-4    5.621339146625701E-1   -3.677426631312902E-2
 4.200000000000000E7    -8.997776073988296E-1    6.297940511580499E-2   -1.346164913789187E-5   -1.619281207102903E-4    5.109504951292610E-4    2.000078281240968E-4    5.603790668296885E-1   -3.174029192050377E-2
 4.300000000000000E7    -8.974028163814711E-1    6.344509693124871E-2    2.020712592726080E-4   -1.659351865583205E-5    6.209493912022578E-5    3.271123803017468E-4    5.622020197925508E-1   -3.206623644506521E-2
 4.400000000000000E7    -8.976972446849268E-1    6.486320654063928E-2   -5.013733540360735E-5   -9.489053313182335E-5   -9.027888520524922E-5   -5.841473951391908E-4    5.608887946279234E-1   -3.787750129874001E-2
 4.500000000000000E7    -8.927094385943201E-1    6.960851179020010E-2   -2.048354189978126E-4    1.389728048473141E-4   -6.997260519923703E-4   -1.942114298671004E-4    5.620259483634246E-1   -3.453018385614932E-2
 4.600000000000000E7    -8.978466314172372E-1    6.635165690339687E-2    1.519101887083110E-4    6.373118235825441E-4   -4.752079480215659E-5    4.218237520139158E-4    5.613366971238982E-1   -3.961128518541497E-2
 4.700000000000000E7    -9.025609000612900E-1    7.125295688796146E-2    4.337217498776627E-5   -4.891448696187074E-5   -3.254476384887102E-4   -8.591927082039167E-5    5.593318616809241E-1   -3.726318649183209E-2
 4.800000000000000E7    -8.994073189299148E-1    6.299069993936302E-2   -5.154364267712908E-4    1.020739418479866E-5   -1.914196200774116E-4    8.900036473061944E-5    5.581501273168811E-1   -3.911973479697525E-2
 4.900000000000000E7    -9.027395300573237E-1    6.805828302390045E-2    5.494121097742616E-5    2.832264535463673E-4   -2.041833365138528E-4    7.255846758001015E-4    5.583734960160326E-1   -4.049034462566320E-2
 5.000000000000000E7    -8.969353230799718E-1    7.603376862088045E-2   -2.010603258085200E-4   -1.867773869593765E-4    2.832398045105336E-4   -1.205891160130737E-4    5.567492586411941E-1   -4.551194998227959E-2
 5.100000000000000E7    -8.930870015940396E-1    7.725702545617120E-2   -3.385267836209610E-4    2.768750118957246E-4   -7.649447196469128E-4   -2.606275910593841E-5    5.563120216435298E-1   -4.211634528909559E-2
 5.200000000000000E7    -8.907736474961494E-1    7.539177219712177E-2    2.656436530530667E-5    1.751323535149131E-4   -4.119988778593382E-4   -3.598720708170068E-4    5.576338953818585E-1   -4.301409739442551E-2
 5.300000000000000E7    -8.947542549341052E-1    7.969262332641157E-2    5.955338549645382E-5    5.695374938580848E-4   -3.672263194097699E-4   -1.225293974957937E-4    5.512067058298674E-1   -4.202307298706637E-2
 5.400000000000000E7    -8.929656117609284E-1    8.292325788700824E-2   -1.556700321839878E-4   -8.468059197202947E-6   -5.219282662828332E-4    4.713147803102601E-4    5.590410619387837E-1   -4.940373182503806E-2
 5.500000000000000E7    -8.967722991754273E-1    8.001069016054685E-2    8.824171358090520E-4    2.065249095719025E-5    7.299260120405345E-4   -2.185396735354583E-4    5.573091110488223E-1   -4.390026301376679E-2
 5.600000000000000E7    -8.933336936043776E-1    7.945531001242803E-2   -5.269193417032727E-5   -3.259613132918765E-4   -2.697102777106964E-4    7.351046329569305E-4    5.574373768591196E-1   -4.785702274308995E-2
 5.700000000000000E7    -8.889713375812467E-1    8.226240322279485E-2   -3.952770022170107E-4    5.087306376707439E-5   -3.052186755714315E-4   -3.955216669452880E-4    5.578965212988317E-1   -4.482840699184508E-2
 5.800000000000000E7    -8.947797039492325E-1    8.420123177608363E-2    3.711945762798928E-4    3.792681929849302E-5    1.615740397473774E-4    3.569104707840743E-4    5.585186350330857E-1   -5.376906571668023E-2
 5.900000000000000E7    -8.936579665129520E-1    8.507827198851099E-2    6.730808799671846E-5    2.199929046672731E-4   -8.765968763936485E-5   -8.317977236746377E-5    5.586798998314443E-1   -4.766603485325017E-2
 6.000000000000000E7    -8.929862604279242E-1    8.536482269984766E-2    5.819331202258285E-4    1.074597834019521E-4   -2.323088441602022E-4   -3.929843392974084E-4    5.565669424025012E-1   -4.924933127489704E-2
 6.100000000000000E7    -8.871047124193219E-1    9.176033476773671E-2    1.173751723180886E-4    3.562839384121664E-4    4.401895238858861E-4    2.277704365911421E-4    5.598309733785682E-1   -5.226550031338818E-2
 6.200000000000000E7    -8.938851408252957E-1    8.909023250531137E-2   -6.244695013091485E-4   -4.404938278153506E-4    1.032891670150012E-4   -2.423599050124320E-4    5.589764134649756E-1   -5.094456725589544E-2
 6.300000000000000E7    -8.921020554042094E-1    9.036578740678559E-2   -7.113591523094637E-5   -1.395619234094236E-4   -1.212146580900262E-4   -2.984763980014860E-4    5.550337284562765E-1   -5.432997241879632E-2
 6.400000000000000E7    -8.970928283203292E-1    8.738563887511751E-2    1.323747449238925E-4    2.730537210407851E-4   -1.810852322161550E-4   -3.501216865759617E-4    5.541253899791612E-1   -5.799809766108319E-2
 6.500000000000000E7    -8.974381143277008E-1    9.743139140305457E-2   -1.278296740623940E-5    3.147773240996952E-4    6.880814999649460E-5   -2.817608031091171E-4    5.588575925994518E-1   -5.254131275662836E-2
 6.600000000000000E7    -8.931278448810932E-1    9.355384338583429E-2   -5.779210208731457E-5    1.547601822599903E-4    1.500115262541781E-4    9.459343853214831E-7    5.541083849968517E-1   -5.593013482575720E-2
 6.700000000000000E7    -8.920854808468883E-1    1.015670383406599E-1    1.408407541209198E-4    4.315871361197273E-4   -2.869106523887213E-4    3.103976289300530E-4    5.598156090516431E-1   -5.531891164381280E-2
 6.800000000000000E7    -8.896993999662733E-1    9.643989957516756E-2   -1.190882536004095E-4   -4.120025806515206E-4    7.655469818031809E-4   -3.750821638166798E-4    5.564452451283508E-1   -5.809899471751642E-2
 6.900000000000000E7    -8.925246393051230E-1    9.271339126042946E-2    7.776993724265628E-6   -1.320805520689310E-4    2.978419079183526E-4   -1.154338638049782E-4    5.624716094563824E-1   -5.892251367542371E-2
 7.000000000000000E7    -8.908340246667281E-1    9.964030979193710E-2    1.536081662982354E-4    9.296179444607765E-6    1.136200916453069E-4   -2.307416456241374E-4    5.520401737363179E-1   -6.008837290342853E-2
 7.100000000000000E7    -8.941671272106251E-1    9.725349041269081E-2   -4.654309572568926E-4   -8.786076137074615E-4   -2.200607419989303E-4   -7.121138899724637E-4    5.547208253243859E-1   -5.719216195682936E-2
 7.200000000000000E7    -8.927390658805572E-1    1.007210610007772E-1   -3.041910223993758E-4   -2.163143244723489E-5   -3.887024561630431E-4    1.822080160493300E-5    5.571639037261178E-1   -5.696974607105836E-2
 7.300000000000000E7    -8.897764049588610E-1    1.056142777642016E-1   -1.078968943782588E-4   -1.835033785129843E-4   -1.228310263556970E-4    1.458883595125946E-5    5.578113754603993E-1   -5.868044030426582E-2
 7.400000000000000E7    -8.932797729091166E-1    9.907879515616347E-2    2.272501670900236E-4   -1.111497769810838E-4   -7.129656436533131E-4   -2.796579213695680E-5    5.567476519605520E-1   -5.945133111652245E-2
 7.500000000000000E7    -8.917491490312646E-1    1.049217360843130E-1   -1.116102907544171E-4    2.592679679772435E-4   -4.545589448823239E-4   -5.631473343569762E-5    5.542479175077164E-1   -6.071441036716736E-2
 7.600000000000000E7    -8.862617804292812E-1    1.073731901449708E-1    2.781985810762874E-4   -6.412443930665197E-4    1.058322131423549E-4    6.727619623781632E-4    5.542359740312413E-1   -6.274369777992493E-2
 7.700000000000000E7    -8.913157540838033E-1    1.083673857666985E-1   -4.061998649987064E-4   -2.369837703025538E-4   -9.290294403907724E-5    6.332754454567891E-4    5.588593950236215E-1   -5.696471266785229E-2
 7.800000000000000E7    -8.915382339879084E-1    1.094174592564761E-1   -1.536225160329183E-4   -5.147539999932943E-5   -4.134591719865713E-4    3.890261786557529E-5    5.536155646279103E-1   -6.521687185654503E-2
 7.900000000000000E7    -8.885392375968425E-1    1.070674363190983E-1   -1.527900659669530E-4   -2.876525791534683E-4   -2.717434777099218E-4   -1.582977282632614E-4    5.573507489617457E-1   -6.373890061368534E-2
 8.000000000000000E7    -8.849985282795995E-1    1.153694351617299E-1   -1.382220179387089E-4   -1.936754768976730E-4   -8.575811511508442E-5   -3.190659279787312E-4    5.568296994051963E-1   -6.260016303146752E-2
 8.100000000000000E7    -8.920719738142493E-1    1.116230381535425E-1    1.544819260171314E-4    4.325586084408691E-4    6.596541684532240E-4    4.315642342098472E-4    5.552643897696704E-1   -6.625493906731933E-2
 8.200000000000000E7    -8.884094476320655E-1    1.127685448992039E-1    1.894858456052961E-4   -2.757244263752239E-4    9.109993694167430E-4   -1.255603376920468E-4    5.587378021307623E-1   -6.665751888855262E-2
 8.300000000000000E7    -8.847691919856631E-1    1.135336357043441E-1   -5.056290033478993E-4   -2.275022453738863E-5    1.427663637796175E-5    1.458935400286489E-4    5.539892882693396E-1   -6.421969856994603E-2
 8.400000000000000E7    -8.878112610306714E-1    1.145604592678210E-1    3.712587319644368E-4   -1.800332149540137E-4   -2.836349106894924E-5    2.725954367911768E-4    5.534685722669056E-1   -6.875723690195337E-2
 8.500000000000000E7    -8.841100165261299E-1    1.160584174887566E-1    2.820716471340445E-4    1.994956720414099E-4    5.876047831958186E-4   -4.816028002952430E-4    5.536384411243408E-1   -6.963063913219825E-2
 8.600000000000000E7    -8.836772739358789E-1    1.181787612109746E-1    2.401703765404805E-4    1.670778159753339E-4    5.669063909206924E-4    2.350830375608196E-4    5.530741270226728E-1   -7.283482846071958E-2
 8.700000000000000E7    -8.909802804355111E-1    1.201788498601686E-1    4.686727026984751E-5    4.962752988872611E-4   -3.061784132349760E-4    7.481128838207777E-4    5.559480533031814E-1   -6.967733870948681E-2
 8.800000000000000E7    -8.814760387152786E-1    1.314895515189243E-1    1.154735712022209E-5    1.530137331698311E-4    6.353120555956771E-5   -5.202190120659957E-4    5.534436061684734E-1   -6.892730135305543E-2
 8.900000000000000E7    -8.857498348164684E-1    1.234876504673114E-1    4.406483676187499E-4   -2.736819763426102E-4    2.549707854944453E-4   -3.451488939798113E-4    5.462474355896566E-1   -7.174277975752323E-2
 9.000000000000000E7    -8.831831977023551E-1    1.251606742004790E-1   -2.565905832002384E-4    1.793745936738192E-4   -1.060480361521583E-4    3.933293373507565E-4    5.490189293282731E-1   -7.492208743022830E-2
 9.100000000000000E7    -8.850928751743152E-1    1.286134332996187E-1   -5.497001220673123E-4   -2.277714343724546E-4   -1.645237980879213E-4   -2.743752270857011E-4    5.503656018996562E-1   -7.547304926008933E-2
