#  HZ   S   RI   R     50.00 
! Rohde & Schwarz Vector Network Analyzer 
! Rohde-Schwarz,ZNBT8-20Port,1318700624101681,3.50
! Created: UTC 7/15/2025, 2:12:09 PM
! freq[Hz]                re:S1010                im:S1010                re:S0610                im:S0610                re:S1006                im:S1006                re:S66                  im:S66
 1.000000000000000E6    -9.035544539091508E-1   -1.106504295971122E-2   -1.281945543058691E-4    2.498780548285509E-4   -2.706321170442475E-4    6.086138370542225E-4    6.869501336826310E-1    8.316455708751586E-3
 2.000000000000000E6    -8.912675174169021E-1   -8.645883246417281E-3    1.025411596421948E-4    1.937400414410219E-4    1.019025240092335E-4    1.609281082854422E-4    6.844050666643864E-1    1.508793466662951E-2
 3.000000000000000E6    -8.981775129320152E-1    1.282046441399491E-3    1.848979551359807E-4   -1.855426557885233E-4   -1.903697249020427E-4   -1.064554992403903E-4    6.850282172654291E-1    8.339607860591632E-3
 4.000000000000000E6    -9.077733909883408E-1   -5.240836506477858E-3   -1.898527012387292E-4    9.387537318500146E-5   -1.768485657824020E-4    1.775805973888626E-4    6.819933675229845E-1    3.982300124340316E-3
 5.000000000000000E6    -8.888928701856063E-1   -6.407370660062093E-3    5.162542433448273E-4   -2.020209551083805E-4    3.907211963286176E-4   -1.091627002862131E-4    6.776178316788467E-1    2.256077367691193E-3
 6.000000000000000E6    -8.969069759304622E-1    7.722662395228350E-4    7.739453245539130E-5   -2.607087051403330E-5    8.393250192858012E-5    2.468114433848672E-4    6.819126987578663E-1    6.485790531353776E-3
 7.000000000000000E6    -9.030660110233816E-1    6.742457440907276E-3    6.445459452522269E-5   -2.526075210294796E-4   -3.618515795314785E-4    3.690923021042099E-6    6.779811560446317E-1   -2.190665928842903E-3
 8.000000000000000E6    -8.962098042469370E-1    1.751880924680994E-2   -6.813124736918052E-7   -2.052540381395558E-4    5.781913500526764E-5    1.357333403924713E-4    6.805888851216911E-1   -7.144587703634104E-3
 9.000000000000000E6    -9.055994559815839E-1    1.817392700180153E-2    5.606504613429954E-5   -7.638380272913394E-5   -1.311575770733001E-5    1.984443476984103E-4    6.766658276975290E-1   -1.405583329889942E-2
 1.000000000000000E7    -8.997637134928463E-1    3.276511482917936E-2    6.559019353816819E-5    2.062190568350620E-4    9.279845457660459E-5    2.505768577648610E-5    6.806613493286612E-1   -8.087606763664126E-3
 1.100000000000000E7    -8.837232561017845E-1    3.213937021716516E-2   -6.762263835641863E-5    1.239604696862029E-4   -1.817247565689404E-4   -1.005757898955207E-4    6.802013004146150E-1   -1.108721109700799E-2
 1.200000000000000E7    -8.893502612294339E-1    1.555996042448178E-2    4.855380128756981E-4    1.194072009944235E-4    1.594186178749278E-5   -2.158115882861309E-4    6.829684810274379E-1   -1.084015290342770E-2
 1.300000000000000E7    -9.077789576612481E-1    2.695102606137578E-2   -1.388166949577623E-4   -8.351201323770940E-5   -1.274530968458820E-4   -1.442841350005000E-4    6.868612629763843E-1   -1.645016861390573E-2
 1.400000000000000E7    -9.029078707045742E-1    2.862890014117306E-2    1.207853143546415E-4   -1.424648495290031E-4   -2.956125093060615E-4    1.943258915678623E-4    6.846635599154915E-1   -1.566452882066958E-2
 1.500000000000000E7    -9.057231347043150E-1    2.363934362429660E-2   -3.193158436209819E-4   -1.849671300703239E-4    2.620862949912106E-5   -7.213533261454596E-5    6.802864265228425E-1   -1.912748806342826E-2
 1.600000000000000E7    -8.985155900328059E-1    2.818351865012484E-2    3.353750023373271E-5    1.668245354649009E-4    4.293621873203494E-4   -8.623606578006413E-6    6.838491932690440E-1   -1.456941092669556E-2
 1.700000000000000E7    -9.028061668267030E-1    2.786253559985924E-2    2.493532214536812E-5    1.315013623028098E-4   -2.083781513249730E-4    1.127998464169410E-4    6.796011414075606E-1   -2.120647913743284E-2
 1.800000000000000E7    -9.028496257443374E-1    2.987411880125623E-2   -9.510112822602546E-5    2.879406111274012E-5    1.117368049972397E-4   -4.929487731494897E-5    6.803467871399445E-1   -1.957527480816094E-2
 1.900000000000000E7    -8.979502384744726E-1    3.005427681846498E-2    1.152684752163947E-4   -1.478566741166825E-5    2.988106499482141E-4    4.934118033017134E-4    6.767632745663315E-1   -2.489462317126867E-2
 2.000000000000000E7    -8.999012321908904E-1    3.422676708939671E-2    1.000774385328658E-5   -2.025937378118609E-4   -2.315346880365576E-4   -5.984846310952759E-5    6.804787682523782E-1   -1.984427624279228E-2
 2.100000000000000E7    -9.016556337173518E-1    3.382881791296517E-2    1.949694522771798E-4    9.060451243609203E-5    7.172942925582017E-4   -1.530186469272197E-4    6.710478380014893E-1   -2.496912042277493E-2
 2.200000000000000E7    -9.029553389879414E-1    3.472302319188243E-2   -4.808937001757822E-5    3.196922937184990E-4   -1.389106340999074E-4    7.187281452491046E-6    6.722952148108888E-1   -3.372831597384489E-2
 2.300000000000000E7    -8.957236348728075E-1    3.539743566057474E-2   -4.425029053658292E-5    8.959133331085991E-5   -1.780699783324091E-4    5.240531766720550E-5    6.778885876125401E-1   -2.931790273226424E-2
 2.400000000000000E7    -8.900057100531363E-1    4.164664277864440E-2   -7.189330323761519E-5   -8.285967873270085E-5    9.959991452249120E-5    3.558528802569259E-4    6.855385032058741E-1   -3.752931821107308E-2
 2.500000000000000E7    -8.862522315013697E-1    6.210872647292178E-2    2.148380732807767E-4   -1.195665569771509E-4    7.767628053929442E-5    1.645430109527346E-4    6.841889576686914E-1   -3.770557162335583E-2
 2.600000000000000E7    -8.960103586101638E-1    4.367029335381142E-2    4.780263725755242E-4   -2.657231304175970E-4    8.889719359404832E-4   -1.279707265561879E-4    6.814982915712511E-1   -2.831960996897520E-2
 2.700000000000000E7    -9.014512946594494E-1    4.579306452913885E-2    4.406569756852299E-4   -1.395814673677460E-4    6.886285891117740E-4    9.529597705917029E-5    6.815144484618814E-1   -3.556360523445296E-2
 2.800000000000000E7    -8.916991294318477E-1    4.217177741714844E-2    4.053594465434626E-4    3.863754927035336E-4    1.042826944166580E-4   -3.663334447732132E-4    6.871357914031885E-1   -3.460280042264820E-2
 2.900000000000000E7    -9.049582820931187E-1    4.704189580301107E-2    7.251713759072562E-5    2.398919407403140E-4    7.042538462137734E-4    2.839542544802671E-4    6.809806247331960E-1   -3.520287686256807E-2
 3.000000000000000E7    -8.986239172151638E-1    5.140190537300132E-2    2.420147889408947E-4    2.250109820210051E-4   -2.299126706218813E-4   -2.500977284146467E-4    6.775200520870911E-1   -3.173005112798523E-2
 3.100000000000000E7    -8.947349164282735E-1    4.730954523689337E-2   -2.560747138579805E-5    3.453049977928541E-4    6.368290978533678E-4    3.600645770850631E-4    6.788484998299157E-1   -3.090327490686470E-2
 3.200000000000000E7    -8.960278014909351E-1    5.208389125859064E-2   -5.375905837614547E-4   -4.129509157612640E-4    7.603315468546143E-4    1.236563509348648E-4    6.782519308438143E-1   -3.608808768586191E-2
 3.300000000000000E7    -8.964835091425944E-1    5.479321311317061E-2    2.811302458699183E-4   -7.978215512479391E-5    2.630155235968897E-4   -8.443958337913509E-5    6.783192534097238E-1   -4.027126495754446E-2
 3.400000000000000E7    -9.018858180203665E-1    5.012793589256026E-2    5.252359079171470E-4   -2.344859644970617E-4    1.362515457266768E-4    1.109108919527356E-3    6.801712941498105E-1   -3.595608073037104E-2
 3.500000000000000E7    -8.967444120508632E-1    6.034232401098123E-2    7.615637477656497E-4   -2.988831928004569E-4   -2.571338471250666E-4    8.517709511958409E-5    6.782008009585838E-1   -4.154523882690146E-2
 3.600000000000000E7    -9.000164911688083E-1    5.791674873719835E-2    6.732066688161753E-5   -2.041723530113662E-4    1.970068393416452E-4   -1.461477783844074E-4    6.792942897225083E-1   -4.087094626531805E-2
 3.700000000000000E7    -8.960864567845706E-1    5.411547253914857E-2   -3.782568461229516E-4    3.711574893290774E-4    3.898026856433087E-5    1.348357338358971E-4    6.789529382336855E-1   -3.847199885739799E-2
 3.800000000000000E7    -8.915143304973413E-1    5.885071821729794E-2   -1.161348271196020E-4   -4.423455330627312E-4   -4.198938006561333E-4   -4.169924368158052E-4    6.762475784373694E-1   -4.685871489593537E-2
 3.900000000000000E7    -8.977087010236799E-1    6.016177545717306E-2    3.492362346680191E-4   -7.748766267179565E-5    1.323085088236892E-4    1.490236201366227E-5    6.771304285885938E-1   -4.792522197751994E-2
 4.000000000000000E7    -8.930777442630474E-1    6.153348985060870E-2   -2.953619439232524E-4   -1.545185882681863E-4    2.759074504211127E-4   -2.267918789191131E-4    6.764159119664301E-1   -4.154518418217971E-2
 4.100000000000000E7    -8.978650027821848E-1    6.613615078453743E-2    4.907628477055187E-4   -1.085370915626536E-3   -2.460761964083618E-4   -1.140335057645147E-4    6.755653565493509E-1   -4.574028451842152E-2
 4.200000000000000E7    -8.951416890653290E-1    6.644351734775980E-2   -5.753867054289352E-4    1.066589233720736E-4   -6.554551809114466E-5   -3.923848495661736E-4    6.745681706066420E-1   -4.525538873988416E-2
 4.300000000000000E7    -8.990417767686673E-1    7.427129450304996E-2   -2.368613877094311E-4    6.634865336102305E-5   -3.793197583016078E-4    7.331992089457373E-5    6.729098399426245E-1   -4.861696228226396E-2
 4.400000000000000E7    -8.926207750532644E-1    6.320844283127765E-2    9.356229943524977E-6   -5.887228649849298E-4   -2.591433875374109E-4    5.106366029748906E-5    6.748471083282102E-1   -4.779677204471078E-2
 4.500000000000000E7    -8.963669601958852E-1    6.059059427372515E-2   -1.266695058145781E-4   -2.802290984856710E-4    3.733890347600973E-4   -2.820452611120493E-4    6.795133758351276E-1   -4.972215172796244E-2
 4.600000000000000E7    -8.915345764122076E-1    7.278208187918808E-2   -8.616426402970737E-4    9.555208403373819E-5   -1.273033340284102E-4    6.254041427683634E-5    6.757107788511990E-1   -5.006694068071932E-2
 4.700000000000000E7    -8.970268239321709E-1    6.795355426128434E-2    4.457670089933215E-4   -2.358740258592679E-4    6.788523254640197E-5   -3.591053962579211E-4    6.727279291234507E-1   -5.423283258913122E-2
 4.800000000000000E7    -8.953966107591399E-1    7.193168690066926E-2    2.748528934362546E-4    3.253908039977222E-4    6.916349245483342E-4   -6.472998456179670E-4    6.708933172549660E-1   -4.713516253526746E-2
 4.900000000000000E7    -9.000955541566752E-1    7.306227167260590E-2   -6.901367384452570E-4    2.126592934833293E-4    8.199720735966597E-4    1.390564509769870E-4    6.755986832841698E-1   -5.114431881900984E-2
 5.000000000000000E7    -8.919130743312577E-1    7.801354243416314E-2   -2.819478203970372E-4   -7.161653086649363E-4    5.329024992377048E-4   -4.065388610212448E-4    6.720431862290520E-1   -5.661998884364974E-2
 5.100000000000000E7    -8.915597063968937E-1    7.387500652395672E-2    1.208917534520025E-4   -1.170471141313832E-4    8.018082288908389E-4   -1.936096414770927E-4    6.725867283710338E-1   -6.113824736723342E-2
 5.200000000000000E7    -8.878713408907402E-1    8.270354680115323E-2   -9.452329778092224E-4   -2.741556434712624E-4   -1.482703529200980E-4   -2.240541784359281E-4    6.684575345737940E-1   -5.937042983051397E-2
 5.300000000000000E7    -8.937544648272868E-1    8.343939790831539E-2    1.757206572162808E-4    2.334877372784026E-4   -1.531841814002451E-4   -3.081017488626784E-4    6.686862372324284E-1   -6.250249132317048E-2
 5.400000000000000E7    -8.909515642856231E-1    8.237862723911546E-2    7.371636337885675E-4   -2.695029758629575E-4    7.977827012485741E-5   -4.307493483914118E-4    6.696608452988511E-1   -5.455379076467554E-2
 5.500000000000000E7    -8.935848921529304E-1    8.081528279641516E-2   -2.311715186992767E-4   -2.821908111160496E-6    2.026934914147873E-4    2.003050073202302E-4    6.721328058947251E-1   -6.357365730043260E-2
 5.600000000000000E7    -8.946890958826951E-1    9.056778992975680E-2    9.353760324548095E-5   -1.028174575190468E-3   -6.220088378125465E-4    3.169164877589616E-4    6.719260403508603E-1   -5.639822050924560E-2
 5.700000000000000E7    -8.965624589382990E-1    8.682965832039553E-2   -1.481510586847333E-4   -3.522531471054657E-4    4.607198520180771E-4    1.127316199960184E-4    6.679202622163275E-1   -6.494866214925599E-2
 5.800000000000000E7    -8.900515241773075E-1    9.075079814334150E-2    4.379691194233022E-5    4.840210712543689E-4    2.960673158009523E-4   -2.175706577334762E-4    6.724206933314275E-1   -5.973260468896358E-2
 5.900000000000000E7    -8.884708224320139E-1    8.747976604422637E-2   -2.747146725281629E-4    2.440653932138059E-4   -2.153950657903975E-4   -5.827617968008150E-4    6.720789079833361E-1   -6.651813156074664E-2
 6.000000000000000E7    -8.904065834085891E-1    9.086681974625377E-2   -1.340290221738892E-4   -6.791106278197594E-4   -2.194537631331533E-4   -4.622563182443367E-4    6.688582091542369E-1   -6.238510915604330E-2
 6.100000000000000E7    -8.860179424114701E-1    9.326310136120632E-2   -7.373709290912376E-4   -1.344819031916920E-4   -2.726097951882043E-4    2.270891891000234E-4    6.703967202488874E-1   -6.798136894412350E-2
 6.200000000000000E7    -8.900177510456108E-1    9.881906515427305E-2    4.654425598538428E-4    4.277104119980296E-4   -4.028520958823706E-5    2.511805600670132E-4    6.677427343124408E-1   -6.392280101155007E-2
 6.300000000000000E7    -8.905507687445813E-1    9.777310175385232E-2   -1.968413538252196E-4   -5.040915560322267E-4   -2.480484996012128E-4   -4.771408253144047E-4    6.701991309659597E-1   -7.028197692101096E-2
 6.400000000000000E7    -8.916491371210685E-1    1.014845945048906E-1   -6.212606973730097E-5    2.938567352214207E-4   -3.783443623967924E-6   -3.381996738394823E-4    6.692841643342692E-1   -7.280869008970096E-2
 6.500000000000000E7    -8.879148458047680E-1    1.008902415412090E-1    1.579754105256138E-4   -4.074759909322881E-4    8.588946054136082E-5   -5.179567089150231E-4    6.694987693019453E-1   -6.812362486059884E-2
 6.600000000000000E7    -8.890836485511578E-1    9.945358541402202E-2    7.555621255048098E-5    1.844511419187325E-4   -2.129402831856883E-4    2.575132630965696E-4    6.694857688820914E-1   -7.815513562310199E-2
 6.700000000000000E7    -8.902501196514518E-1    9.872537829956435E-2   -3.437805817050980E-4   -7.841303935926128E-4    1.307112037893493E-4    1.447526723858614E-5    6.721072588499742E-1   -7.279502374491477E-2
 6.800000000000000E7    -8.912808401405315E-1    1.038855816155851E-1    6.788939513857120E-5   -1.895379541477300E-4   -3.927233241448728E-4    6.486227868044356E-4    6.700964688557862E-1   -7.506672864608221E-2
 6.900000000000000E7    -8.915335427870438E-1    1.004660837503186E-1    2.642225399968177E-4    4.285172942941749E-4    6.869057843167125E-4   -9.027309282864149E-4    6.723423417479489E-1   -7.981091820333287E-2
 7.000000000000000E7    -8.903652779974549E-1    1.057510180929834E-1   -1.831361976109681E-4   -8.143269320610119E-4   -5.711779041677246E-4    6.373489995846936E-4    6.699359186340892E-1   -7.881432882784252E-2
 7.100000000000000E7    -8.903620650038963E-1    1.058957105721305E-1    4.291821860253953E-4   -1.395385242044832E-4   -7.602673799481753E-5    1.702304492367105E-4    6.684049612097868E-1   -8.306543698534541E-2
 7.200000000000000E7    -8.896549087274704E-1    1.067722762391588E-1   -2.348145160694571E-4    3.813712112751132E-5   -5.282659217799275E-4    2.716050273995876E-5    6.703417401356967E-1   -7.781362543752708E-2
 7.300000000000000E7    -8.886167203231229E-1    1.122950733796748E-1   -1.072748616707014E-5   -3.346620303523620E-4   -9.574380220350185E-5    1.111281945453401E-4    6.709643881232538E-1   -8.327754407709621E-2
 7.400000000000000E7    -8.916811550986469E-1    1.123334781965603E-1   -8.854929513941770E-5   -1.203953046591594E-5    1.004530455376751E-3   -4.056008071771398E-4    6.688592664341729E-1   -7.902780932963287E-2
 7.500000000000000E7    -8.901226407913433E-1    1.040942728021668E-1    3.288701953368881E-4    4.880038035861015E-4    5.491280510880246E-4   -2.946250996719167E-4    6.678046693067596E-1   -8.291439299370139E-2
 7.600000000000000E7    -8.810553094997322E-1    1.172823582328976E-1   -4.442195419656494E-4    2.974449770182673E-4   -2.115256866380375E-4    1.812287229373759E-4    6.727589463689491E-1   -8.115538841202211E-2
 7.700000000000000E7    -8.855526509267242E-1    1.122812982094630E-1    3.499968062780835E-4    2.956057877298311E-4    1.758103989397173E-4   -2.967371173659631E-4    6.693426340282208E-1   -8.628115039446681E-2
 7.800000000000000E7    -8.875599489005649E-1    1.130760706108885E-1    3.860529624823038E-4   -1.359844928235140E-4    2.819460910563340E-4    4.876154253278274E-5    6.680614075038664E-1   -8.240909958228895E-2
 7.900000000000000E7    -8.818715964210421E-1    1.154386973212425E-1   -3.786949787122511E-4   -3.615134788281816E-4    3.071251185470774E-4    2.553037740136512E-4    6.703685925661701E-1   -8.585619648234351E-2
 8.000000000000000E7    -8.867179923705798E-1    1.257399184356908E-1   -2.056817103948235E-4   -5.121893397998874E-5    7.118090653720070E-5   -3.963354670263463E-4    6.687951005115853E-1   -8.365365555308762E-2
 8.100000000000000E7    -8.815078124900346E-1    1.194628427322139E-1   -1.480385577836962E-5    5.053786209256549E-5   -2.969682092596016E-4    5.685268779674732E-4    6.645783760440791E-1   -8.840384036386208E-2
 8.200000000000000E7    -8.823239467328892E-1    1.192055733439223E-1   -3.489643443787313E-4    2.023882304938844E-4   -2.943701900209227E-4    7.047707183464220E-4    6.690218397654530E-1   -9.192678908381752E-2
 8.300000000000000E7    -8.843929001909187E-1    1.213301696299556E-1    2.830718720670850E-5   -1.222569877612442E-4   -4.649456185098771E-4    6.102202805305298E-4    6.647364612788815E-1   -8.760091586640641E-2
 8.400000000000000E7    -8.852658663162892E-1    1.212366883747273E-1   -3.820188920248629E-4    1.108420134184379E-4   -1.388593308197109E-4    6.693548853718453E-4    6.635820976592963E-1   -9.154769996307478E-2
 8.500000000000000E7    -8.875537053133722E-1    1.265040901331754E-1    5.672441896036199E-4    5.681937297492426E-4   -4.850820209899864E-5    5.605581533620041E-4    6.688947685512302E-1   -9.462830890484397E-2
 8.600000000000000E7    -8.859167526635464E-1    1.236969473279670E-1    2.362947910754772E-5   -5.777411248994738E-4   -3.753751120180187E-5   -5.951132084010874E-4    6.665253174228505E-1   -9.524107228849829E-2
 8.700000000000000E7    -8.886340581159490E-1    1.267852499153178E-1    4.310516948880272E-4    2.549703884903762E-5    3.683802170561164E-4    4.910657011086761E-4    6.705227942291411E-1   -9.097353454938861E-2
 8.800000000000000E7    -8.866660363788240E-1    1.367046690654605E-1    4.011491324872284E-4    3.118090334570707E-4   -1.805404179078879E-4   -7.726777245155148E-5    6.597823337527934E-1   -9.370797451381527E-2
 8.900000000000000E7    -8.789390962581128E-1    1.326843612415922E-1   -5.310670802656586E-4   -5.750953338553664E-5    9.004253399345006E-4    7.959532412717700E-4    6.649915953269335E-1   -9.503962465639114E-2
 9.000000000000000E7    -8.844122958503841E-1    1.288485947704346E-1   -3.213775461000267E-4    4.978642944240776E-4   -5.006506101250905E-5   -2.023950374959061E-4    6.613595327170941E-1   -9.717993523086629E-2
 9.100000000000000E7    -8.798712989459334E-1    1.332845410252976E-1   -9.831956473158782E-5   -6.907911991274357E-5    2.242561464375301E-4    2.213054363821780E-4    6.727202609266082E-1   -1.028735072315046E-1
