#  HZ   S   RI   R     50.00 
! Rohde & Schwarz Vector Network Analyzer 
! Rohde-Schwarz,ZNBT8-20Port,1318700624101681,3.50
! Created: UTC 7/15/2025, 2:10:43 PM
! freq[Hz]                re:S1010                im:S1010                re:S0310                im:S0310                re:S1003                im:S1003                re:S33                  im:S33
 1.000000000000000E6    -9.080683507195484E-1   -7.488055871130225E-3   -3.247056241870083E-4   -2.505886431206997E-4   -3.272593950160279E-4   -1.615169447533927E-4    9.721360626204426E-1    1.124685161354858E-2
 2.000000000000000E6    -8.977208569145531E-1   -1.296274834540886E-2   -6.645516962952940E-4   -4.289620270075293E-4    1.752599526598903E-4    1.651171227558277E-4    9.587299724828772E-1    6.505831244152793E-3
 3.000000000000000E6    -9.026879310887382E-1   -7.058371768988822E-3    3.341684311098888E-4    1.329599913796056E-4   -1.497107421144808E-4    4.701835266623185E-5    9.733991586717269E-1    1.828043809682907E-2
 4.000000000000000E6    -9.092278389128221E-1   -6.037566394700352E-3   -9.857878801069930E-5    1.790231333828816E-4    3.719026113370960E-6   -4.044802718379825E-5    9.738541933062113E-1    1.018304177957174E-2
 5.000000000000000E6    -8.944894675109410E-1   -1.321212334320889E-3   -3.085203124853222E-4    2.443713874031206E-4   -4.362219553800793E-4   -1.078547347639530E-4    9.770771060401126E-1   -7.779151127975430E-3
 6.000000000000000E6    -8.977490760813921E-1   -2.970529424287590E-4   -1.279297808438300E-4   -3.027055302550350E-4   -5.140052033639298E-5   -3.133728534618110E-4    9.780087151891134E-1    9.556207239584268E-3
 7.000000000000000E6    -9.109833044575658E-1    2.994547869987779E-3   -1.785492443831047E-4   -2.286249209406322E-4    1.083829517912301E-4   -1.228897264917309E-4    9.806139039924077E-1   -8.959339374512452E-3
 8.000000000000000E6    -9.071941150017415E-1    1.576396450149165E-2    3.623248556040651E-4   -1.756744792235513E-4    4.479526009544602E-7    7.951959726178140E-5    9.844804273724912E-1   -1.649894937104338E-3
 9.000000000000000E6    -9.036942067451976E-1    1.603859540678913E-2    5.432240504701063E-5    2.794893372875668E-4   -1.072438253711873E-4    1.673457056013650E-4    9.846431781188747E-1   -6.984348428889529E-3
 1.000000000000000E7    -8.915814298324685E-1    1.792729508531855E-2   -2.961292006134671E-4   -2.908888910167740E-4   -4.889861270450073E-4    8.116104363511435E-5    9.889968269557284E-1   -1.555791045095842E-2
 1.100000000000000E7    -9.018796206647929E-1    2.699505739448316E-2    3.606438882141819E-5    3.627031728369736E-4   -5.674140958991830E-4    3.318394411446300E-5    9.696337468115994E-1   -2.188992716111897E-2
 1.200000000000000E7    -8.976618052884668E-1    5.400375044473480E-3    6.673516664265609E-5    2.071474741303813E-4   -5.891940817357432E-5    3.358404140105366E-4    9.740798907116753E-1   -1.813545492129122E-2
 1.300000000000000E7    -9.028001068752365E-1    2.325630079806314E-2   -5.090172033962040E-5    1.622686084669853E-4   -3.499423294852674E-4    1.248022256073292E-6    9.754759761008966E-1   -1.815235370626547E-2
 1.400000000000000E7    -9.023091917856020E-1    2.160969495844197E-2   -2.341726399766109E-4   -1.308987283274369E-5   -3.611663901494924E-4   -2.315758187170018E-4    9.786837863624187E-1   -2.470169413291259E-2
 1.500000000000000E7    -9.094389981109524E-1    2.101878381901539E-2   -2.655151607809806E-4   -5.542242090792325E-5   -1.220125812032857E-4   -7.264654252193487E-6    9.753645309729412E-1   -1.722826520818119E-2
 1.600000000000000E7    -9.077652858491446E-1    2.686642513536651E-2   -3.759297572171532E-4   -1.466383730890870E-4   -2.305034742893700E-4    1.777396681782989E-4    9.769265749607409E-1   -2.492675211517555E-2
 1.700000000000000E7    -9.044365542717437E-1    3.256561489742601E-2    1.925577231290939E-4    4.728269425437644E-4    9.233125371460749E-5    6.716945237498938E-5    9.780662538394080E-1   -2.216293649503833E-2
 1.800000000000000E7    -9.086855637282989E-1    2.544923034267728E-2    8.367792642054895E-5   -1.824918130749761E-4    2.040155595255503E-4    1.690325007648551E-4    9.885410673663489E-1   -2.007608355864419E-2
 1.900000000000000E7    -8.988677950256286E-1    2.889085804023634E-2   -2.166422818341960E-5    3.440597545514241E-4    3.929761701539757E-4    4.783836117430951E-5    9.783962062936866E-1   -3.180564485854481E-2
 2.000000000000000E7    -9.030638565750139E-1    3.374637920501759E-2    3.585151723546764E-5    3.544132146452959E-4   -2.096259747388726E-4    1.469900859150470E-4    9.745513320798820E-1   -2.541275220692492E-2
 2.100000000000000E7    -8.985116341327049E-1    4.330533357789678E-2   -2.877788289227037E-4    3.240662471756199E-4    1.786491181849483E-4    3.647749188155614E-5    9.779598143036242E-1   -2.896405029964666E-2
 2.200000000000000E7    -9.015343124016274E-1    4.207006656395414E-2    8.802488693565483E-5    1.661334381384544E-4   -4.097886583408717E-4   -1.127254620468666E-4    9.893477364973182E-1   -2.708972705232025E-2
 2.300000000000000E7    -8.955190185243581E-1    3.205842539917631E-2    1.829776163324370E-6   -7.672456422346842E-5   -1.636215443892600E-5    2.370271450004154E-4    9.743556990713053E-1   -3.419459454862746E-2
 2.400000000000000E7    -8.914829300309148E-1    3.263578485757612E-2   -5.471468789560204E-5    1.121104088049566E-4   -1.042708961905083E-5    1.866615414824274E-4    9.761574573279435E-1   -2.096414009014412E-2
 2.500000000000000E7    -8.839901421103020E-1    4.626751889979810E-2   -5.654182073478680E-5   -4.550472574765983E-4   -1.301944874456098E-4   -1.053734892215251E-4    9.586773657830827E-1   -3.903480352951402E-2
 2.600000000000000E7    -8.999059654927231E-1    4.323768619080876E-2   -1.031900985438639E-3    6.603189251174857E-4   -8.510908892532997E-4    3.105771810560159E-4    9.718828948386711E-1   -3.661360199105433E-2
 2.700000000000000E7    -9.051314144358426E-1    4.178121433723925E-2    1.600623998639261E-4   -1.399756107105436E-4   -4.293380390393451E-4   -5.639724288109154E-4    9.820158881316785E-1   -3.597188011402000E-2
 2.800000000000000E7    -9.012110258880810E-1    4.568987839779240E-2    1.952289590610695E-4   -2.054436353776776E-4    5.545547889843022E-6   -2.676721590828445E-4    9.758776746112134E-1   -2.760408662021532E-2
 2.900000000000000E7    -8.969227876981336E-1    4.527699016502997E-2   -1.621075655728947E-4    4.534166289666286E-4   -3.036537906442430E-5   -2.596263768759187E-4    9.797875991983612E-1   -3.975352566619831E-2
 3.000000000000000E7    -8.989000598491855E-1    4.451418381732250E-2    3.236730522509298E-4    6.984144514187133E-6    1.022329792013387E-3    1.337802943723122E-4    9.768515882974673E-1   -4.304200258859827E-2
 3.100000000000000E7    -9.017162947176252E-1    4.486203691639148E-2   -2.047193935394858E-4    6.918366581308492E-4   -4.143979167334134E-4    1.943029803670630E-4    9.702009481300807E-1   -4.838923164898867E-2
 3.200000000000000E7    -8.944642352779377E-1    4.433179687808970E-2    7.780771721710369E-4    4.078850387137831E-4    6.716260772714948E-5   -3.287985572062180E-4    9.719304349849207E-1   -4.702627164647265E-2
 3.300000000000000E7    -8.992867623575136E-1    4.756383023365273E-2    1.865371621954821E-4   -2.630927008670224E-4   -4.577183314383118E-4   -3.534709076891771E-4    9.722037093950898E-1   -4.935331963230880E-2
 3.400000000000000E7    -8.978243348937885E-1    5.425875463440021E-2    6.435235198067454E-4   -4.107464346835242E-5    4.322997412469885E-4   -1.338823439383698E-4    9.844453933915422E-1   -4.599143766379480E-2
 3.500000000000000E7    -8.953670823718204E-1    5.267767399101918E-2   -8.941853302133725E-5    1.429722378393694E-3   -1.699629506582406E-4   -2.029696770656446E-4    9.714308353905609E-1   -4.841373418656036E-2
 3.600000000000000E7    -9.055050497580549E-1    5.902614849235964E-2   -3.156142158299641E-5    7.643914623097778E-4    1.066477970512550E-4   -2.632381243473397E-4    9.742687174784797E-1   -5.286733995389443E-2
 3.700000000000000E7    -8.964144290489637E-1    5.336778656580859E-2   -9.896035989397516E-5    2.786118241277890E-4    2.250960282038366E-4    3.617715401553821E-4    9.749269037537375E-1   -4.786982960781253E-2
 3.800000000000000E7    -8.977295457188058E-1    5.564632675643021E-2    5.716481229852542E-5   -9.781325750575265E-5    1.201644644947137E-4   -4.215154300883346E-5    9.777472266868179E-1   -4.648040381045414E-2
 3.900000000000000E7    -9.041063303822819E-1    5.348307729657186E-2    2.418514161070053E-4   -5.562996687425008E-4    1.841970873768835E-4    1.248524919854548E-4    9.724014206732308E-1   -5.114262538939689E-2
 4.000000000000000E7    -8.969321215780395E-1    6.289106383592513E-2    6.085465572263669E-4   -1.257431969476361E-4    1.355154705618842E-4    2.888134860071352E-4    9.674268355789986E-1   -5.336290161135841E-2
 4.100000000000000E7    -9.044948455322684E-1    6.319762876601223E-2    6.239346610324020E-4    2.340259907047560E-4   -1.681813763850213E-4   -4.995027670175112E-4    9.755188222244355E-1   -4.782808142276829E-2
 4.200000000000000E7    -9.018736794869265E-1    6.084120064416448E-2   -5.337308542595142E-4    2.790531957177238E-4   -5.960237222386659E-4   -1.531158375482751E-4    9.684573708038219E-1   -5.084435286925193E-2
 4.300000000000000E7    -8.919801968135872E-1    6.633877833753431E-2    5.088814520730692E-4   -1.480446257005676E-4   -4.546386702561833E-4   -2.089572309859122E-4    9.668455457881300E-1   -5.191588340113210E-2
 4.400000000000000E7    -8.922673251330592E-1    6.547204666696699E-2    2.678960370679624E-4    4.515949357040934E-4    2.714364509214151E-4   -3.112474158984627E-4    9.730750272037695E-1   -5.483195184387675E-2
 4.500000000000000E7    -8.963432364199783E-1    6.646116028441260E-2    7.565141069026836E-4    5.072916068225511E-4    5.024686105676256E-4   -5.373663893437571E-4    9.698781781178830E-1   -5.154330280111521E-2
 4.600000000000000E7    -8.894802894660618E-1    6.654132808874522E-2    2.651333428491788E-4    1.743679721991536E-4    4.398393564194674E-5    1.628790977185217E-4    9.778816823100616E-1   -6.946155207515660E-2
 4.700000000000000E7    -8.982007480636673E-1    6.863476181462286E-2   -3.740030866722723E-4    6.272130174903880E-4    3.904144729655988E-4    6.074794348439742E-4    9.716009885791127E-1   -6.004246060445969E-2
 4.800000000000000E7    -9.011525154909981E-1    6.563543180372669E-2   -8.371980560565758E-6   -7.510801932440084E-5   -2.628344822835890E-4   -2.498336614899744E-5    9.723484832443420E-1   -5.941736918893059E-2
 4.900000000000000E7    -8.996936565801978E-1    6.466509965816644E-2   -5.509512999549733E-4    9.155311201156339E-5    9.461895488088849E-5   -2.025353481312325E-4    9.730768171755204E-1   -5.892766315067032E-2
 5.000000000000000E7    -8.970220646281474E-1    6.969574107455480E-2    5.809818356389457E-4    9.213643477436672E-5    6.694253633582366E-4   -1.928507604843658E-4    9.694460675940423E-1   -6.672208324720608E-2
 5.100000000000000E7    -8.946326606000873E-1    6.958093747060409E-2   -3.443840003548936E-4    1.826466789004502E-4   -4.098074543777389E-4    5.517728214322220E-4    9.660985750921979E-1   -6.779849761262641E-2
 5.200000000000000E7    -8.943473322850046E-1    7.054564454036320E-2    4.827139473624194E-4    1.038272573361681E-3   -1.996532574814897E-4    3.204315042529243E-4    9.690649447994596E-1   -6.860353078193944E-2
 5.300000000000000E7    -8.955479905387616E-1    7.620548289394750E-2   -5.109713677950878E-4   -1.891958681574598E-4    5.171788161991313E-4   -4.133015663536002E-4    9.622542956228154E-1   -7.127193113848913E-2
 5.400000000000000E7    -8.973269226528352E-1    7.434779975350157E-2   -5.530056943426416E-5   -3.971784875975480E-4   -7.299958351455572E-4   -4.814508091732235E-4    9.748228008874378E-1   -7.714815304745024E-2
 5.500000000000000E7    -8.930380989500085E-1    7.668094404229209E-2   -7.390535525362272E-4    5.185499720832723E-4    3.185374613597293E-4    3.216781488644004E-4    9.676030380441700E-1   -7.260427035597930E-2
 5.600000000000000E7    -8.995895869667279E-1    8.430278520537279E-2   -3.023685486206080E-4    2.266995128977951E-4    3.627983740097937E-4   -1.863065232577235E-4    9.659916115827210E-1   -7.544758016899078E-2
 5.700000000000000E7    -8.922696760008770E-1    8.620829248265112E-2    1.758384571961464E-4    5.421742161706774E-4    3.450471804096445E-4   -2.525212332970703E-4    9.719034727787973E-1   -6.751586334807072E-2
 5.800000000000000E7    -8.897341124492938E-1    8.272465834819577E-2    2.308818068119768E-5    6.351301472600601E-4   -1.418169143665720E-4   -6.007361336829590E-4    9.726427090455116E-1   -7.992907534331797E-2
 5.900000000000000E7    -8.869999520556653E-1    8.140814936246861E-2    5.051162959968749E-4    8.298307738542497E-4    4.200437773201943E-4   -2.276636981726376E-4    9.681330634281513E-1   -7.442497649626911E-2
 6.000000000000000E7    -8.966649981731124E-1    8.429763669168717E-2   -7.530778469516584E-4   -3.760449795845550E-5   -3.905182272332928E-4   -1.519907504746951E-3    9.706671876328091E-1   -8.077009203109707E-2
 6.100000000000000E7    -8.869989099363378E-1    9.144793142611485E-2   -2.341649158432743E-4   -7.106720111041544E-4   -4.521505715420244E-4    1.476596851682349E-4    9.721707951668752E-1   -8.055933004600377E-2
 6.200000000000000E7    -8.914358079779291E-1    8.695847071607778E-2   -3.863266676143669E-4   -5.366942853183948E-5   -8.356527691891752E-5    1.912240870404439E-4    9.660826602845781E-1   -8.240564805892198E-2
 6.300000000000000E7    -8.930190264533514E-1    9.158695255575820E-2   -2.438238845863989E-4    1.265114436735183E-5    1.260825640476905E-4    5.332587645224247E-5    9.634011286141405E-1   -8.154533683022466E-2
 6.400000000000000E7    -8.922728187467904E-1    8.925774619971197E-2    5.073110913220038E-4    2.319596320361053E-4    1.585237184804075E-4    1.597100367488127E-4    9.695206189050850E-1   -8.966173364842604E-2
 6.500000000000000E7    -8.885861019655901E-1    9.344698233931700E-2   -4.327615156717135E-4   -7.662154289965630E-4   -1.615405360933715E-4    4.068074682530538E-5    9.607624688014681E-1   -8.542951929765308E-2
 6.600000000000000E7    -8.912654111602696E-1    9.798054305214245E-2    4.744740061256735E-4   -1.077345359964134E-4   -2.457000274592943E-4    6.733238814048715E-4    9.626144409053378E-1   -8.750869285766986E-2
 6.700000000000000E7    -8.920594342238937E-1    9.882528071877834E-2    3.277535564481579E-4    2.373338444407423E-4    1.740783421130571E-4    9.508905328460016E-5    9.759082454393195E-1   -8.495444908369019E-2
 6.800000000000000E7    -8.883686784888462E-1    9.546912008004721E-2    4.677851801024878E-4   -5.365524087592032E-4    5.706995338232896E-4   -3.559295944312944E-4    9.595869275286816E-1   -9.094438855932505E-2
 6.900000000000000E7    -8.924179163821497E-1    9.380765037655781E-2    1.923040184980367E-4   -5.939915995937899E-4    3.415005178370194E-4   -9.210985340986899E-7    9.594819468785033E-1   -8.773194075143530E-2
 7.000000000000000E7    -8.928556754078283E-1    9.018263541731047E-2    1.051598853079234E-4   -4.542483112005206E-5   -4.031186101520713E-4    4.589959619556073E-4    9.657676677471628E-1   -9.060830094645798E-2
 7.100000000000000E7    -8.931617635502733E-1    1.017235384649651E-1   -5.037956074870641E-4    8.725590054513959E-4   -2.567644866729069E-4   -1.241720431168552E-4    9.608577179517785E-1   -9.346891485623565E-2
 7.200000000000000E7    -8.901438455375120E-1    1.014596161411668E-1    5.204414519312568E-4   -4.357693728899580E-4   -2.429278372810888E-4   -3.147600620790801E-4    9.677434055289853E-1   -8.870520360376863E-2
 7.300000000000000E7    -8.916063493579680E-1    1.061628504461122E-1    6.148841838667379E-4    4.078314220685548E-4    1.792748601946133E-4    1.325668413793574E-3    9.662419903972810E-1   -9.094075335684404E-2
 7.400000000000000E7    -8.932249123224389E-1    1.020840605038908E-1    5.078542224010389E-5   -1.479922848472451E-4    1.396387881788733E-4    7.974047307016993E-5    9.622818961389105E-1   -9.901371845350602E-2
 7.500000000000000E7    -8.898715579667410E-1    1.045777099556802E-1   -2.026533750035898E-4   -6.632915424048905E-5   -4.705601512497781E-4   -7.996083251780281E-5    9.654715601024679E-1   -1.017496525993705E-1
 7.600000000000000E7    -8.931765561811666E-1    1.087666448382644E-1    6.619806051659817E-4    1.108176788413514E-4    3.007119990748143E-4   -1.165505281413409E-3    9.641285697184919E-1   -1.012592497262821E-1
 7.700000000000000E7    -8.918353360821675E-1    1.112389701918882E-1    2.468890330381812E-4   -1.329962277659446E-4    4.487609174514986E-4   -5.544706371014986E-4    9.636745856653579E-1   -9.734827615308529E-2
 7.800000000000000E7    -8.907472421652289E-1    1.078177175876099E-1   -5.088018525663289E-4    5.337972502914582E-4   -1.004575243502453E-3   -2.297819780823044E-4    9.598286960601126E-1   -9.723911556945274E-2
 7.900000000000000E7    -8.880227058893104E-1    1.060867408475737E-1   -1.118937375372532E-4    2.160829924971491E-4    5.742678596091392E-4   -3.728267561509586E-4    9.596470795808684E-1   -1.021992556837744E-1
 8.000000000000000E7    -8.868106228330175E-1    1.138189758147837E-1    4.050639055510117E-4   -6.608446243344533E-4   -9.093908673142513E-5   -2.118658026247096E-4    9.631282976748752E-1   -1.001382285441403E-1
 8.100000000000000E7    -8.891203839615863E-1    1.104736211456251E-1    4.053282263866871E-5    5.653703996520899E-5   -2.352395805247282E-4    6.250857664262228E-4    9.593385270877085E-1   -1.058155696120157E-1
 8.200000000000000E7    -8.873463431516767E-1    1.139598456436906E-1    1.328737666085368E-4    4.701978996546338E-4   -1.653756008131865E-4    6.568908236130917E-4    9.571107315676155E-1   -1.012593180232255E-1
 8.300000000000000E7    -8.859127006329940E-1    1.157618319548760E-1    1.323579575171748E-4   -6.271515891555225E-4    2.637703388075169E-4    3.172874707637365E-4    9.613417725575173E-1   -1.090726200556742E-1
 8.400000000000000E7    -8.853558295979395E-1    1.156301027417578E-1    6.454057432101847E-4   -2.268908821513045E-4   -3.727983020549518E-5    1.142785523850603E-4    9.646960808344299E-1   -1.102293186637335E-1
 8.500000000000000E7    -8.833583695702331E-1    1.166476225258907E-1    5.222257794988270E-5   -6.010750893039954E-4   -1.789207817524548E-4   -4.724830264999969E-4    9.597720760961576E-1   -1.076209249281843E-1
 8.600000000000000E7    -8.875781076282778E-1    1.180538234920155E-1    4.871157055974910E-4   -6.417505365288123E-4    7.158950554418123E-5    3.184260133566896E-4    9.636281474803161E-1   -1.058045184271800E-1
 8.700000000000000E7    -8.842625914103688E-1    1.214021337023978E-1    4.203540088152165E-4    9.475375234449559E-4    4.513779138886539E-4    2.531318626608818E-4    9.620435844551528E-1   -1.050549596843131E-1
 8.800000000000000E7    -8.798019346197116E-1    1.238835611197043E-1   -3.548051664299120E-6    3.440400717295805E-4    5.661688064767731E-4    8.851745435865068E-4    9.609092926674334E-1   -1.084207311205505E-1
 8.900000000000000E7    -8.844486503190374E-1    1.231722574453069E-1   -3.217689961513567E-4   -5.290572058586792E-4   -1.047448803432227E-4   -6.809101678112511E-5    9.562286816257081E-1   -1.135768269599483E-1
 9.000000000000000E7    -8.814395925405516E-1    1.245743123213489E-1    6.827643482884766E-4   -4.029358958416606E-4   -3.250078307363139E-4    1.427042119693361E-4    9.610385629821177E-1   -1.174625480265890E-1
 9.100000000000000E7    -8.884204330753099E-1    1.260814327224296E-1    3.419393602779713E-4    7.208005992844790E-4    3.281301384545309E-5    3.302181208460252E-4    9.576304915757428E-1   -1.179118735447810E-1
