#  HZ   S   RI   R     50.00 
! Rohde & Schwarz Vector Network Analyzer 
! Rohde-Schwarz,ZNBT8-20Port,1318700624101681,3.50
! Created: UTC 7/15/2025, 2:08:38 PM
! freq[Hz]                re:S1010                im:S1010                re:S0310                im:S0310                re:S1003                im:S1003                re:S33                  im:S33
 1.000000000000000E6    -8.163975500296213E-1   -1.110696853304210E-2    2.306911291196027E-4    4.927636955039672E-5    1.457618081256957E-4    7.203991895761043E-5    5.625985708606654E-1    3.234199624647681E-3
 2.000000000000000E6    -8.173601043741446E-1   -5.509546542081868E-3   -3.533314952930166E-4    8.747449201911727E-6   -1.082068980626911E-4    1.287990888146299E-4    5.571332132145899E-1    7.587760463274209E-3
 3.000000000000000E6    -8.252852112897177E-1   -2.785247616402212E-3   -1.933274073845995E-5   -1.237780653945802E-4   -1.227098293364644E-4    5.405207855857917E-5    5.630417366282682E-1    2.865235405628118E-3
 4.000000000000000E6    -8.342136048969843E-1   -1.201088571105902E-3    2.201386786843543E-4   -3.550831074632636E-5    1.875553766382915E-4   -2.677539784583125E-5    5.595140736222114E-1    4.394275040703867E-3
 5.000000000000000E6    -8.228775498399531E-1    9.383247895347571E-3   -1.522432024911596E-4   -4.989208076370981E-5   -2.467731835132581E-4   -6.596944171676327E-5    5.612970025667681E-1    3.954091767005018E-3
 6.000000000000000E6    -8.155119533581530E-1    2.275493660451802E-2    2.102880276499163E-4   -1.848504208192415E-4    2.361561852478224E-4    1.505842791481741E-4    5.593651555571900E-1    2.896897813848158E-3
 7.000000000000000E6    -8.316978042765452E-1    2.014133568294589E-2    7.382267776709451E-6   -2.196455258800585E-4    5.312065036752569E-5   -1.395317422379631E-4    5.668135449520569E-1   -3.892368996319815E-3
 8.000000000000000E6    -8.247031422366359E-1    3.066549610765592E-2   -1.576860664957505E-4   -2.431425869080842E-4    8.101313679175131E-6    2.243400942008258E-4    5.618802942898432E-1   -2.209779228330297E-3
 9.000000000000000E6    -8.319826631635927E-1    3.551239924194328E-2    2.631190886999095E-4    2.301826331206463E-4   -3.341698310479145E-4   -1.406909308524467E-4    5.606618432285623E-1   -5.573998495969913E-3
 1.000000000000000E7    -8.188410382247822E-1    4.160807798649283E-2    1.261832989156672E-6   -3.886426318725278E-5    4.290781217475473E-4    2.199576489458948E-4    5.655679919304942E-1   -1.250051283222408E-2
 1.100000000000000E7    -8.309123436748085E-1    4.574048396964587E-2   -1.022628891826537E-4    1.568961481166379E-4    1.024840369460454E-4    3.927294756428509E-5    5.586053225347177E-1   -1.082217125318148E-2
 1.200000000000000E7    -8.247265524145786E-1    4.828477179277435E-2   -9.547818360232933E-5   -2.085161465295683E-4    2.687585560290800E-4    1.344373429428014E-4    5.650086983589206E-1   -1.186378227526468E-2
 1.300000000000000E7    -8.159160195038001E-1    6.028985324633027E-2   -1.046150267941831E-4   -4.654334233895011E-4    3.485324646760916E-5    7.353476996075247E-5    5.648182910907381E-1   -9.080225075483398E-3
 1.400000000000000E7    -8.257472894673585E-1    5.491972596397429E-2   -3.882744467521425E-5   -1.159804879030748E-5    2.501179453755307E-5   -2.649309082981866E-4    5.698294063342763E-1   -8.328769594159392E-3
 1.500000000000000E7    -8.228266337289215E-1    6.618814853502904E-2    7.481441817477025E-5   -4.229160142523011E-5   -1.495357008490367E-4   -1.640850115455289E-4    5.588131304170794E-1   -1.739383597669410E-2
 1.600000000000000E7    -8.347185054636687E-1    6.555586925864165E-2   -2.613646253627612E-4   -1.097025867614820E-7   -7.651346148992607E-5    1.166623937977479E-4    5.594110414759312E-1   -8.800504334105718E-3
 1.700000000000000E7    -8.262836696868600E-1    7.393099314700959E-2   -2.186938498552540E-4   -1.622756869724690E-5   -8.956840592334568E-5   -1.476951943242806E-4    5.637102373068809E-1   -1.911729160375880E-2
 1.800000000000000E7    -8.252682141829866E-1    7.163678382455718E-2    6.354436946344943E-5    1.763879496668831E-4    1.902328781296515E-4    7.131704670602514E-5    5.648832826703994E-1   -1.502696375731227E-2
 1.900000000000000E7    -8.200113732538469E-1    7.597074457131681E-2   -2.391321375234027E-4    3.548840880900298E-4    2.083489987882591E-4   -5.983638149780005E-5    5.645844834940175E-1   -1.368742433231387E-2
 2.000000000000000E7    -8.221134690940737E-1    8.824709880666125E-2   -1.723888091294089E-5   -1.104335435305325E-4    1.380291993250484E-4    1.676305992742137E-4    5.648396296342476E-1   -1.349732253404020E-2
 2.100000000000000E7    -8.127083673072040E-1    8.640496405350617E-2    2.347649584760689E-5   -6.630775517943204E-5   -1.419481707670618E-4    7.994124507352950E-5    5.649847153114963E-1   -1.718974417594097E-2
 2.200000000000000E7    -8.225513005823237E-1    8.804581919229811E-2    3.613905377961365E-4   -4.693194733422391E-5    1.930567142393041E-5    1.383609575492712E-4    5.657067000774455E-1   -1.634522416141375E-2
 2.300000000000000E7    -8.117258777440934E-1    9.762520851380400E-2    1.467348532693582E-5   -6.429288866942421E-5    1.734079416740176E-4    3.567508397747961E-5    5.618121889965708E-1   -1.876491924367249E-2
 2.400000000000000E7    -8.126064865356283E-1    1.028322897435794E-1   -3.394568602931777E-5    7.012509689651940E-5    3.579219460370615E-4    1.291819980539935E-4    5.563162166098484E-1   -2.353637315809828E-2
 2.500000000000000E7    -8.054530923844669E-1    1.053634759142231E-1    3.049544772217087E-4    3.262257530028136E-4    1.041757188847163E-5    3.519492654531784E-4    5.628220725069883E-1   -3.112395116646829E-2
 2.600000000000000E7    -8.170943497608564E-1    1.124316055337817E-1   -5.985740046897304E-5    3.100163686831335E-5   -3.997973230610051E-4    8.215100086189618E-4    5.658129922774066E-1   -2.107291548990494E-2
 2.700000000000000E7    -8.219740152092619E-1    1.121421324268236E-1    1.599398794501308E-5    2.383573414160333E-4   -6.729374463762440E-7    2.234018742267882E-4    5.625021845600874E-1   -2.186333188736965E-2
 2.800000000000000E7    -8.179576178489237E-1    1.110492362675457E-1   -3.096861123378990E-4    1.763573814405425E-4    9.798237482410109E-5    1.036360985256042E-4    5.582292518372483E-1   -1.621567515350508E-2
 2.900000000000000E7    -8.098414584845739E-1    1.211269399352213E-1   -1.366873132439235E-5    3.415064991996050E-4   -6.488333054512874E-4    4.607130105986653E-5    5.622583810632895E-1   -2.418092714244601E-2
 3.000000000000000E7    -8.170009267661634E-1    1.249244033617948E-1   -4.958925187994256E-4   -2.829153025341978E-4    3.792717432419140E-4    3.157431927156089E-4    5.597181248859044E-1   -2.644750684408558E-2
 3.100000000000000E7    -8.128544634323495E-1    1.251448019495145E-1    5.503307405362869E-5    1.564491595403569E-5   -4.173022661746763E-5    3.030615909161277E-4    5.571940602497519E-1   -2.744115867908648E-2
 3.200000000000000E7    -8.163204603745755E-1    1.227420629034725E-1    3.131408448460249E-4    4.651883460521942E-4   -1.809880883154878E-5    2.652353516167811E-4    5.574820458197208E-1   -2.742744458517152E-2
 3.300000000000000E7    -8.104905047981787E-1    1.353463216800022E-1   -5.848112846325878E-4    1.105878340901650E-4   -5.051085882503461E-4   -3.777708279915904E-4    5.648632205583496E-1   -3.435345717492875E-2
 3.400000000000000E7    -8.116820882538933E-1    1.352978118149381E-1    4.405306117371725E-4   -2.739177465684098E-4   -4.282845503549705E-5   -3.652743270937157E-4    5.679003475623143E-1   -2.768558807157518E-2
 3.500000000000000E7    -8.084601325543226E-1    1.404032247054374E-1    1.623298650164395E-4    6.180741778071286E-5   -7.119776133790310E-5   -2.403191701719988E-4    5.617246504983157E-1   -2.705962418828445E-2
 3.600000000000000E7    -8.088304855181689E-1    1.507532829962392E-1   -8.032326211766917E-5    7.925575699677933E-4    2.173420576984018E-4   -2.749645050122275E-4    5.631383575547149E-1   -2.971222580142380E-2
 3.700000000000000E7    -8.101512915684295E-1    1.460569397517326E-1   -4.907353502628483E-4   -2.361733356803685E-4    7.187163800625005E-5    4.023159266621286E-4    5.596119997202781E-1   -3.481490290860543E-2
 3.800000000000000E7    -8.090415756249139E-1    1.550955009977766E-1   -1.142817961460737E-6    5.171463343094466E-4   -4.538272165865848E-4   -4.147641725338907E-4    5.584115013071519E-1   -3.358855232027512E-2
 3.900000000000000E7    -8.124003526800747E-1    1.599305040943080E-1   -3.626356606083308E-4   -1.214424385123155E-4   -3.401401295956235E-4    1.267436694875613E-4    5.610322804119795E-1   -3.187245619134776E-2
 4.000000000000000E7    -8.045508213906416E-1    1.621960025078136E-1    7.080000202238747E-5   -3.689136116217525E-4    6.515745375223628E-5    9.357328214153430E-5    5.563484818742304E-1   -3.294542432205571E-2
 4.100000000000000E7    -8.116014018773516E-1    1.626986189004209E-1   -2.068095670833066E-4    1.904889955706875E-4    2.130907860250449E-4   -2.591268025533184E-4    5.630159116072961E-1   -3.656079863867791E-2
 4.200000000000000E7    -8.013908428723926E-1    1.703555387507231E-1   -1.867618425311048E-4    2.452252136735003E-4    3.798789637103493E-5    3.099949274358304E-4    5.584153535056631E-1   -3.219847473759058E-2
 4.300000000000000E7    -8.009200187506449E-1    1.740076670245128E-1    1.454543021329701E-4    3.167610560355872E-4   -1.242940760620018E-4    4.450772089068258E-4    5.599556379800277E-1   -3.298344904124043E-2
 4.400000000000000E7    -7.985871383222226E-1    1.783261849037998E-1   -1.781608047640552E-4    1.709558067812198E-4    4.952924137890029E-4    1.781346902736541E-4    5.607658782685145E-1   -3.367418863723686E-2
 4.500000000000000E7    -8.029257846383373E-1    1.809448139845694E-1    7.246481309765967E-5   -7.500830596916314E-4    3.243082130298208E-4   -9.052832091520135E-5    5.577480660611693E-1   -3.390229060506217E-2
 4.600000000000000E7    -7.918031998001338E-1    1.842251140761428E-1   -1.596473460205210E-4    4.155540193709020E-4    1.372426118878006E-4   -2.943355090829182E-4    5.613450873224674E-1   -4.009490612035375E-2
 4.700000000000000E7    -8.071944726626871E-1    1.932479965857986E-1   -3.505843606422586E-4   -1.372414431121743E-4   -2.783971077092917E-4   -3.521691216990088E-4    5.576008857989145E-1   -3.761484515693093E-2
 4.800000000000000E7    -7.980844619469376E-1    1.916030125353780E-1    2.776201327533352E-5   -3.741694750775542E-5    4.343125739728471E-4    3.752435760995950E-4    5.592077088811549E-1   -4.020968181273393E-2
 4.900000000000000E7    -8.041612664811163E-1    1.968906799664498E-1    8.262290598443374E-5   -5.584815476565441E-5   -1.382095969635189E-4   -8.674150574080787E-4    5.619369271846952E-1   -3.996204156289882E-2
 5.000000000000000E7    -7.976839616995955E-1    2.020051454623375E-1    3.155742047130442E-6   -9.716194214362283E-5    1.219341525807854E-5   -1.099717757911410E-3    5.603490997521291E-1   -4.090225474686649E-2
 5.100000000000000E7    -7.922788986541638E-1    2.061105830968836E-1   -8.168481578172727E-5   -3.102644832175175E-4   -4.692728189365788E-4   -3.904262070987876E-4    5.568318682677591E-1   -4.189505851994871E-2
 5.200000000000000E7    -7.944703924681465E-1    2.072598573686202E-1   -9.963532028891867E-5   -2.203523713843087E-4    3.565487092007133E-4   -1.291499241994538E-4    5.591227811000536E-1   -3.910850432917290E-2
 5.300000000000000E7    -7.952515363244734E-1    2.115787314398022E-1   -3.347936183103244E-4    6.478052793512165E-6    2.738146030426862E-4   -1.208296722860297E-4    5.530172177638492E-1   -4.644020905116998E-2
 5.400000000000000E7    -7.910051011710931E-1    2.168414958080514E-1    1.482197709330426E-5   -1.996485304365731E-4   -2.940389342309193E-4    3.544249317879374E-4    5.564437064929079E-1   -4.717918461161089E-2
 5.500000000000000E7    -7.883062436924863E-1    2.226056797859746E-1    4.057317658227205E-5   -4.735385885194328E-4    9.650918650339124E-4   -6.625801638478899E-5    5.569517925301920E-1   -4.271964753520614E-2
 5.600000000000000E7    -7.910344767229762E-1    2.291127102023434E-1   -6.213706347183399E-4   -3.022563329185835E-4    6.958673840443531E-5   -1.342901809510723E-4    5.606943255719343E-1   -4.345271011730277E-2
 5.700000000000000E7    -7.867703005108784E-1    2.275518870608862E-1    9.017207288533894E-5    2.370023888961504E-4    2.297551536988111E-4    9.030600365589545E-5    5.568402161487340E-1   -4.303377701554921E-2
 5.800000000000000E7    -7.857777387839602E-1    2.305261950798075E-1   -1.324172057716662E-4    3.973711836180973E-4    3.251635286320158E-4    7.171639089313723E-6    5.581085320589257E-1   -4.999213664617227E-2
 5.900000000000000E7    -7.767973386322338E-1    2.348666142936642E-1   -3.113224345674954E-4    4.111973299671784E-6    2.797652320811070E-4   -5.053751803151902E-6    5.552274177737624E-1   -5.014900745905321E-2
 6.000000000000000E7    -7.829843962924580E-1    2.430316743205892E-1    7.644956995808854E-5   -2.705489518411647E-4    2.182560210526296E-5   -1.356873422695504E-4    5.561715045845763E-1   -5.181167398202222E-2
 6.100000000000000E7    -7.789155023745590E-1    2.401646374112561E-1   -2.532463473917241E-4    3.785703555588631E-4    6.340038592470294E-5   -4.867016177982689E-4    5.614229549847338E-1   -5.786555987618233E-2
 6.200000000000000E7    -7.792366598973900E-1    2.451371366967331E-1   -5.704803735276057E-4   -1.572108678695872E-4   -4.210537006866445E-4   -2.484921556552575E-5    5.561514281584561E-1   -5.145954276421069E-2
 6.300000000000000E7    -7.804280790672400E-1    2.495280074176087E-1   -7.887180857309758E-4    2.334885840891582E-4   -5.563274658871225E-5    1.325785764467182E-4    5.540290855429471E-1   -4.898413715605659E-2
 6.400000000000000E7    -7.768349040677053E-1    2.512904663138693E-1   -3.174336118973400E-5    5.979145178567046E-4   -3.281224941754845E-4   -8.732412682481644E-5    5.534179368412555E-1   -5.717921519931800E-2
 6.500000000000000E7    -7.721644793802747E-1    2.616171398696082E-1    1.842297990453004E-4   -7.344126307129164E-5   -2.190017845844650E-4   -4.428362167240850E-4    5.569097523168486E-1   -5.091195366797587E-2
 6.600000000000000E7    -7.780609472967976E-1    2.603413315562859E-1    4.321337703342905E-4    1.344785606513908E-4   -1.768171938931770E-4    2.602491859004905E-4    5.577866135831081E-1   -5.385283777712706E-2
 6.700000000000000E7    -7.752847747428248E-1    2.697185726109400E-1    3.682045003122788E-4    1.283336763699297E-4   -1.751507492945646E-4    3.120204383608694E-4    5.564652764713698E-1   -5.827610697836934E-2
 6.800000000000000E7    -7.694769435542534E-1    2.718859847602245E-1   -1.604050892895287E-4    2.595566731108893E-4   -7.112707862087176E-5    1.973718121618774E-4    5.572222850760304E-1   -5.352078307654305E-2
 6.900000000000000E7    -7.736779877441681E-1    2.667156433837938E-1   -8.118228054764199E-4    2.091528636935288E-4    1.279275542514052E-4    1.693226104608293E-4    5.609207851720759E-1   -5.834433745045355E-2
 7.000000000000000E7    -7.669852269256620E-1    2.728746748151027E-1    2.670418664261254E-4   -2.584925598740970E-4    3.983988871344956E-4    3.589648191520911E-4    5.503428450036697E-1   -5.982148855036289E-2
 7.100000000000000E7    -7.695329016992329E-1    2.816479649894283E-1    4.580546396158134E-4    2.007372072232303E-4    2.246805137247357E-4   -1.771535062395645E-4    5.508992065389332E-1   -6.067523524774671E-2
 7.200000000000000E7    -7.629402993924074E-1    2.852990064931633E-1   -1.389174844912836E-4   -1.230544670864483E-4    1.751801785155277E-4   -3.905708453282000E-4    5.588842712319462E-1   -5.980241468929895E-2
 7.300000000000000E7    -7.648430716434825E-1    2.902147213711057E-1   -9.904064683548090E-5    8.853440367526066E-5   -1.175461537984842E-4   -1.544041082765101E-4    5.506478943844338E-1   -6.090440896040775E-2
 7.400000000000000E7    -7.619034902289966E-1    2.897258957983478E-1    1.842929397946940E-4   -3.133152543164347E-4   -5.786217665428575E-5    1.713119199424446E-4    5.546816261756260E-1   -5.832631282245472E-2
 7.500000000000000E7    -7.604250216876299E-1    2.968465510376631E-1    7.581358033729027E-4    9.235608548873396E-6   -9.453348938274957E-5    5.090921276852186E-4    5.549002192779016E-1   -6.010084011962051E-2
 7.600000000000000E7    -7.592332743350910E-1    2.981429441959253E-1   -7.418737758107120E-4    1.369896727459378E-4   -4.654816028075609E-4    2.834851492523118E-5    5.570235956811695E-1   -5.955990945413710E-2
 7.700000000000000E7    -7.562670626641548E-1    3.023663233377191E-1    7.759628626636244E-5   -3.407936309636935E-4    7.400837998158316E-6   -9.792538709549756E-6    5.566054101890898E-1   -6.406459022966313E-2
 7.800000000000000E7    -7.560758526835669E-1    3.076852279930074E-1    1.465800905271663E-4   -6.212426426493058E-4   -3.397202382062083E-4   -2.971802256407063E-4    5.537835694170956E-1   -6.339345052509844E-2
 7.900000000000000E7    -7.547325643990855E-1    3.079891070825271E-1   -2.488308326227023E-4   -1.956144656522347E-4    2.162809731473641E-4    3.816180477607290E-5    5.538134838904097E-1   -6.439737509602890E-2
 8.000000000000000E7    -7.477034499445259E-1    3.121345474006415E-1   -3.075192051224257E-4    1.153223608135774E-4   -3.891045893800264E-4    5.236416471048616E-4    5.551817369871701E-1   -6.564399819786275E-2
 8.100000000000000E7    -7.463152426886955E-1    3.133469617647429E-1   -7.506338944227938E-4   -1.554508022477638E-4   -3.416645663537743E-5   -6.741464939443898E-4    5.539150687204911E-1   -6.704057362689020E-2
 8.200000000000000E7    -7.467254964190139E-1    3.198863117895937E-1   -3.039905651377912E-4   -3.412817742754285E-5    5.211320467448428E-5   -5.045853798013319E-4    5.542008833586677E-1   -6.761614289792933E-2
 8.300000000000000E7    -7.479902449008653E-1    3.229065431716175E-1    1.122142316506975E-4   -4.659243029940879E-4    1.387965298067550E-4   -1.125539785393963E-4    5.511487509837297E-1   -6.506756957625433E-2
 8.400000000000000E7    -7.429630160255561E-1    3.246748753028392E-1    1.868910354636711E-4    1.941383427449363E-6   -1.639624335138767E-4   -2.901439228882031E-4    5.543617258525974E-1   -6.642422143716060E-2
 8.500000000000000E7    -7.445693870789892E-1    3.247394138076127E-1    2.333035514187604E-4    1.801036242336993E-5    3.309106830130241E-4   -4.394433453193087E-5    5.562546014737740E-1   -6.896526816394463E-2
 8.600000000000000E7    -7.402498048727788E-1    3.356021953412687E-1    3.788274186890914E-4   -7.313369413165918E-5    5.411852533973659E-4    3.324696309488695E-4    5.572315870844197E-1   -7.076706551979885E-2
 8.700000000000000E7    -7.372772003814901E-1    3.374670809434976E-1   -2.278375416479829E-4    2.938031657661271E-4   -9.024030188048405E-4   -7.843179443018145E-5    5.573467004055868E-1   -7.063956541857956E-2
 8.800000000000000E7    -7.302988325420925E-1    3.430927938299074E-1    1.019352613848957E-4    8.986042098206131E-5   -3.611391179898519E-4    1.833663174572866E-4    5.549333668786299E-1   -6.787334763002252E-2
 8.900000000000000E7    -7.385273167585199E-1    3.474230395205592E-1   -4.443422866625794E-4   -5.714635679805513E-4   -3.802817908240375E-4    5.214996558809249E-5    5.548907353754927E-1   -7.395772875286910E-2
 9.000000000000000E7    -7.326007555182903E-1    3.521506639585043E-1   -7.654930961361154E-5   -2.299431953973518E-4   -3.061555793069791E-4   -9.233827343891913E-4    5.537645713419753E-1   -7.853391700864547E-2
 9.100000000000000E7    -7.299878959509251E-1    3.556454332693024E-1   -1.021915637293365E-4    1.701184809439333E-4    3.483076613265072E-4   -3.548420032129419E-4    5.531715184791123E-1   -7.381689969831406E-2
