#  HZ   S   RI   R     50.00 
! Rohde & Schwarz Vector Network Analyzer 
! Rohde-Schwarz,ZNBT8-20Port,1318700624101681,3.50
! Created: UTC 7/15/2025, 2:08:55 PM
! freq[Hz]                re:S1010                im:S1010                re:S0410                im:S0410                re:S1004                im:S1004                re:S44                  im:S44
 1.000000000000000E6    -8.252868969534936E-1    3.702878687001655E-3   -1.399624713215808E-4   -3.471691800302431E-4   -2.610793437509276E-4   -9.251584854349573E-6    9.730349470362070E-1    1.024406801491554E-2
 2.000000000000000E6    -8.219500079745656E-1   -5.501015005878873E-3   -7.960794034154608E-5    1.890783722900223E-4   -5.068489664702146E-4   -1.876090048467371E-4    9.852706849197732E-1    1.775448312100877E-2
 3.000000000000000E6    -8.313593909410155E-1    1.116637441259070E-2   -2.348256698635943E-4    3.456622099474414E-4    7.582284333889575E-5   -1.413611463566246E-4    9.976649780885219E-1    9.257963196086674E-4
 4.000000000000000E6    -8.347421154272923E-1   -2.214644826187278E-3    1.710390752451531E-4   -8.553608805831724E-6   -8.878898925632270E-5    8.510701185175142E-5    9.721729969415173E-1    1.549163988260211E-2
 5.000000000000000E6    -8.247175376165984E-1    1.077227005396918E-2   -7.091904190028092E-5    8.707359090768926E-5   -1.305665714122968E-4    2.456055107652600E-4    9.798951229543806E-1    4.024832339086535E-3
 6.000000000000000E6    -8.249864218229195E-1    1.470643334535147E-2   -2.238013274202392E-4    2.126435681544620E-5    1.506929579276673E-4    1.317565479974286E-4    9.777304889328210E-1    1.607989883209898E-3
 7.000000000000000E6    -8.344630666840718E-1    1.900025605800600E-2    1.514847944790596E-4   -1.066955553831943E-4    8.273113359597036E-5   -1.397152737325127E-4    9.847775298642449E-1   -7.613813815547150E-5
 8.000000000000000E6    -8.206456203094945E-1    3.262334220099446E-2    1.813531446126252E-4    9.685054223837120E-5    1.665583225541160E-4   -1.255179168871752E-5    9.715933361425000E-1   -4.556669112321087E-3
 9.000000000000000E6    -8.230883484826488E-1    3.667189450077307E-2    2.339317070668513E-4   -1.051881574026714E-4   -6.337764611938575E-5   -2.800511737086423E-4    9.768958705623247E-1    1.823989985977122E-3
 1.000000000000000E7    -8.201295026444427E-1    4.172863300528321E-2   -1.825022752810041E-4    6.270338853301262E-5   -1.547954043638085E-4    3.322084547249760E-4    9.698467820365071E-1   -1.085583276306566E-2
 1.100000000000000E7    -8.254353088772879E-1    3.760422365107689E-2   -2.083229323199055E-4    1.559283965565490E-4    9.169187227608549E-6   -4.369999937614101E-4    9.681041770328142E-1   -1.307537290052012E-2
 1.200000000000000E7    -8.255751942769826E-1    4.163755095715234E-2    1.217710739105266E-4    3.763874539572299E-5    4.301882020520920E-4   -3.697819815526901E-4    9.812912210043894E-1   -1.694733674455139E-2
 1.300000000000000E7    -8.192144907159140E-1    5.539708917117592E-2   -2.174427364418533E-4   -1.635328967731281E-4    8.248921864689031E-5    5.508820533676515E-5    9.815629275158116E-1   -1.853672213901785E-2
 1.400000000000000E7    -8.193877295620621E-1    6.278508731818128E-2    1.322787425441637E-5    9.680459181986322E-5   -2.896009669463974E-4    1.803665637238354E-4    9.809029930228931E-1   -2.278546283261560E-2
 1.500000000000000E7    -8.263154666637849E-1    6.193859367150553E-2    1.304138835108276E-4    1.812273859626490E-4   -2.227702003728410E-4   -3.320555430623443E-4    9.770403154296373E-1   -2.616395521558963E-2
 1.600000000000000E7    -8.322183522319304E-1    7.382043181954842E-2    2.410616459988703E-5    8.961134346018799E-5   -2.231672334035485E-4    4.816502909624607E-5    9.736741712165344E-1   -2.045177700061935E-2
 1.700000000000000E7    -8.277445034409830E-1    6.645545190373213E-2   -1.393852866409185E-4   -1.210971565688796E-4    3.136307686143439E-4   -2.954368877698157E-4    9.764888126110634E-1   -3.125521192590947E-2
 1.800000000000000E7    -8.224478281567824E-1    7.262975401258980E-2   -1.599940927635826E-4   -1.039067893762559E-5    5.299485013411252E-5   -1.206069916860233E-4    9.833173866415372E-1   -2.353084535431989E-2
 1.900000000000000E7    -8.187296965316405E-1    7.674592784073860E-2    1.918001200699673E-4   -2.105197737791400E-4    2.407184990512399E-4   -4.793721284280346E-4    9.757456123431060E-1   -2.390537055848986E-2
 2.000000000000000E7    -8.255760816177660E-1    7.779852086961299E-2    3.976136679600445E-4   -2.741125284471076E-4    4.584882197845459E-5   -3.393582150522827E-6    9.783244732167270E-1   -2.926068885957823E-2
 2.100000000000000E7    -8.210070160539857E-1    8.360311288829583E-2    3.347920390646776E-4   -1.258680751614698E-4    1.331352096761772E-5    4.572168591584795E-4    9.746781169786761E-1   -2.553941279398946E-2
 2.200000000000000E7    -8.121640248624444E-1    8.441042375645604E-2    5.226038256527489E-5   -1.198150066727602E-5    2.611614993133769E-4    1.602173538210203E-4    9.758810264949036E-1   -3.407907860566717E-2
 2.300000000000000E7    -8.231911816852319E-1    9.694174495162328E-2    7.312035759767378E-5    3.408363438405093E-5    1.946258351258363E-5   -3.536785656509185E-4    9.702944682045931E-1   -3.314130384900004E-2
 2.400000000000000E7    -8.125822818838523E-1    9.297165491981546E-2   -3.279650059323192E-4   -1.219603570976697E-4    1.960795122340744E-4   -2.823447495959466E-4    9.670719049536206E-1   -2.660820928507600E-2
 2.500000000000000E7    -7.972156432887934E-1    9.877629016082561E-2    2.150993947946867E-4    6.456308684910434E-4   -1.473743643350062E-4   -2.491484669530786E-4    9.756835562424739E-1   -3.181312060278267E-2
 2.600000000000000E7    -8.157496187217887E-1    1.109107335041558E-1   -3.104863524084388E-4   -2.760719729914272E-4    1.006403817957236E-4    4.250288333793827E-4    9.727120845506514E-1   -4.176965449117058E-2
 2.700000000000000E7    -8.201776763305735E-1    1.124518617439933E-1   -1.358927693290460E-4   -1.521993217081717E-4   -4.085360254042128E-4   -1.218248790546806E-3    9.801420258945065E-1   -3.734551361122528E-2
 2.800000000000000E7    -8.183175478004331E-1    1.140805535469132E-1    1.539527991161387E-4    7.400354145073225E-4    3.488777788599078E-4    4.439748895218791E-4    9.697803925152289E-1   -4.109287097097333E-2
 2.900000000000000E7    -8.156254505753929E-1    1.252283851760361E-1   -5.406251379912865E-4    3.284991757512928E-4   -1.779312827394328E-4   -8.417730074346602E-5    9.727994033421881E-1   -4.417548457685053E-2
 3.000000000000000E7    -8.150599762827540E-1    1.250171854767103E-1    9.428860897218727E-5   -2.190817191830499E-4    3.669455282328358E-4    4.830565471855900E-4    9.770929384377013E-1   -4.335145931140176E-2
 3.100000000000000E7    -8.048471268786900E-1    1.242216931808460E-1    3.284310016017438E-4   -5.948049736095706E-4    3.014359321787090E-4    2.293117174829900E-4    9.710448839092730E-1   -3.797623590549013E-2
 3.200000000000000E7    -8.102398953074517E-1    1.266750072318652E-1    1.620587138735905E-4    1.315328447503804E-5   -6.232450082693413E-4    8.139117813803054E-4    9.812055409170342E-1   -4.830920252729946E-2
 3.300000000000000E7    -8.080970819674305E-1    1.333404328647683E-1   -2.016219985354037E-4   -5.515674306195317E-4   -1.148621183470311E-3    2.019185055710947E-4    9.700079038369059E-1   -4.710156777934529E-2
 3.400000000000000E7    -8.148442369857081E-1    1.372442322513836E-1    8.103684875383069E-4    1.966520095833220E-4   -3.420348040903769E-4    6.377426782335980E-4    9.755476334584706E-1   -5.213260843982928E-2
 3.500000000000000E7    -8.116737291228995E-1    1.431380168817233E-1    4.239124045310631E-5   -3.965728070933807E-4    5.622229592102818E-5   -7.441852749248074E-4    9.712137601672123E-1   -4.931604990207053E-2
 3.600000000000000E7    -8.105082193652686E-1    1.496946288622614E-1    1.175460095691700E-4   -4.083156855186793E-5    6.928941432016483E-5   -2.846471272510072E-5    9.764451954103627E-1   -5.511026142509225E-2
 3.700000000000000E7    -8.110453333491505E-1    1.522543449119380E-1    6.949205826746896E-4    7.520867016344227E-5   -1.488156728894849E-4   -5.447681954786261E-4    9.728895790598939E-1   -5.865035517625707E-2
 3.800000000000000E7    -8.105879652720048E-1    1.527405801237997E-1    2.324360148868243E-4   -2.322677988549057E-4    8.599224108313982E-4   -1.146858364537117E-4    9.744075986630312E-1   -4.887795999366634E-2
 3.900000000000000E7    -8.070584324359634E-1    1.582973063699922E-1   -5.867649210911103E-5   -6.423213542907058E-4   -7.365204430696971E-4    3.173903862069125E-4    9.768807202031594E-1   -4.836119633197473E-2
 4.000000000000000E7    -8.049332790529554E-1    1.669391148858483E-1    3.290230884797796E-4    2.086454479525389E-4    1.442741551494769E-4   -4.313250740674029E-4    9.763215659503536E-1   -5.678401920645464E-2
 4.100000000000000E7    -8.061956736554590E-1    1.625929892365462E-1    7.852876023040185E-4   -1.771490991196735E-4    1.454891730920543E-4   -4.271243345862651E-4    9.685526755139977E-1   -5.733525806993399E-2
 4.200000000000000E7    -8.011988002941639E-1    1.703907930660290E-1    3.419979574488862E-4    4.105757013602489E-5    2.950096540006747E-4    2.972602247254380E-4    9.732217798229732E-1   -5.033948424014249E-2
 4.300000000000000E7    -7.997530042718156E-1    1.771429378884952E-1   -1.204672533201992E-4   -2.153730317930147E-5    1.335825620945757E-4   -2.734966898141259E-4    9.738499175709295E-1   -5.385288676803476E-2
 4.400000000000000E7    -8.005260194416461E-1    1.794436424697102E-1    2.894200214759608E-5   -2.142687999977605E-4    4.614667233832514E-6   -1.274931501926536E-5    9.757962597863676E-1   -5.686363313229200E-2
 4.500000000000000E7    -8.042325536649123E-1    1.854518741433989E-1   -3.097725016576482E-4    2.811011528974371E-4    1.516017804548955E-4    4.523886373847019E-4    9.709272530131475E-1   -5.928321742525054E-2
 4.600000000000000E7    -7.964869173718531E-1    1.868623594433452E-1   -9.808128511817915E-4    4.228127979254079E-4   -2.745311672251017E-4    3.322401186319027E-6    9.712712994233025E-1   -5.966605337023832E-2
 4.700000000000000E7    -7.979244868150338E-1    1.915020993592582E-1   -5.922196635044624E-4   -1.555894720567196E-4    2.841767368615742E-4   -3.799200427791088E-4    9.699670571076736E-1   -6.157412590459203E-2
 4.800000000000000E7    -7.974618740483411E-1    1.867781417420817E-1    3.886722044324848E-4    2.031278672974955E-4    3.874545012472895E-4   -3.526177115070591E-4    9.699137056176037E-1   -6.631942339979138E-2
 4.900000000000000E7    -7.980973379886368E-1    1.947768767616845E-1   -4.071584505744990E-4   -3.809326672687781E-4   -3.618406357886249E-6    7.450457163907148E-6    9.671105380575067E-1   -6.439355137508966E-2
 5.000000000000000E7    -7.997612637243765E-1    2.013477931226755E-1    1.418362461581254E-4   -1.848535370445186E-4   -6.113992647742831E-4    4.502647194745262E-4    9.722806251495576E-1   -7.109033539135366E-2
 5.100000000000000E7    -7.908762510735116E-1    2.039989985198655E-1   -1.617237160640076E-5   -4.305786658060378E-4   -2.726507531599726E-4   -3.649780813620949E-4    9.711099468007853E-1   -7.173616975613718E-2
 5.200000000000000E7    -7.953371988333100E-1    2.044392180981266E-1    9.150755830488671E-5   -3.344731095922089E-4    6.419112618009154E-4   -3.696219449272130E-4    9.660499629557771E-1   -7.528791320983746E-2
 5.300000000000000E7    -7.912102261563682E-1    2.163263606187971E-1   -8.238169794040777E-4    2.052458364896397E-4   -7.306119722760777E-4    1.570911408240173E-4    9.699356307558332E-1   -7.580439789304080E-2
 5.400000000000000E7    -7.871922724936767E-1    2.132446589233821E-1    4.276818883796058E-5   -8.331448365342749E-4    4.191061313510659E-4    4.307601540896539E-4    9.684539615438319E-1   -7.623813646453781E-2
 5.500000000000000E7    -7.880867027722741E-1    2.222731937879141E-1   -3.114867930612832E-4   -2.669651606500392E-4    6.714171228021341E-4    1.502531693949962E-5    9.725780891340919E-1   -7.488666396085623E-2
 5.600000000000000E7    -7.898110530859176E-1    2.252161072061362E-1   -2.982635866477921E-4    5.912900235211440E-5   -6.782160603214900E-5   -2.884283150196276E-5    9.650856145265718E-1   -7.922836149747067E-2
 5.700000000000000E7    -7.863350891189220E-1    2.308485383617866E-1    3.176251268736032E-4   -7.538380226093324E-5   -5.201608995059198E-4    2.658536310509558E-4    9.705558570830556E-1   -8.028054186299985E-2
 5.800000000000000E7    -7.873640771703371E-1    2.266523298678965E-1   -5.766360878685520E-4    4.639057442504057E-4    6.368557755506893E-4   -3.031939036081004E-4    9.668036698224854E-1   -7.265654514721412E-2
 5.900000000000000E7    -7.840642520828695E-1    2.321762680108523E-1    5.741059803333817E-4    6.413385924721980E-4   -8.574858329051532E-4   -2.242830267159573E-4    9.653543704841666E-1   -8.125661754903216E-2
 6.000000000000000E7    -7.823334899978619E-1    2.365607771232790E-1   -1.089074630712910E-4    1.273019178817340E-4   -2.487471012988767E-4   -4.600678318587458E-4    9.640737399008329E-1   -7.544614371657167E-2
 6.100000000000000E7    -7.789853618100367E-1    2.461653829366592E-1   -1.316253310245065E-4   -3.441274236244398E-4    3.622536062495490E-4    2.306190528667763E-5    9.722711571755723E-1   -8.034725111764728E-2
 6.200000000000000E7    -7.769739912724460E-1    2.509822034418817E-1   -4.543972683043079E-6   -7.196830490298712E-4   -5.844101619117009E-5   -1.229207503715668E-4    9.640211819792143E-1   -8.805480341217643E-2
 6.300000000000000E7    -7.848491706367006E-1    2.518134986189702E-1   -2.504719076056003E-4    2.463273219276030E-4    2.905443057853047E-4    4.522761475562959E-5    9.727801976691797E-1   -8.898504070417040E-2
 6.400000000000000E7    -7.770686856853469E-1    2.552832539488312E-1   -1.423539562206988E-4    1.237215207299773E-4    4.637168717280035E-4   -1.179653031021625E-4    9.642003810593924E-1   -8.764001653510446E-2
 6.500000000000000E7    -7.730389881711294E-1    2.595266774911065E-1   -7.125143010279952E-4    1.947160016772039E-4   -4.072928096069074E-4    9.708879807592349E-5    9.633070014801404E-1   -8.517836923591245E-2
 6.600000000000000E7    -7.742387293132655E-1    2.602561005084135E-1   -4.060912966413829E-4    1.218817255378539E-5    3.752099768841080E-4    4.664721343445945E-4    9.681594394962348E-1   -8.545415433561085E-2
 6.700000000000000E7    -7.741667541815070E-1    2.624195680286800E-1    1.595595510421381E-4    1.842692861934435E-5   -2.869368821293310E-4    3.287393275048933E-5    9.630911591923593E-1   -8.831195171638358E-2
 6.800000000000000E7    -7.692142083170193E-1    2.689064789288728E-1   -9.374663047817342E-5    4.795522982183596E-5   -8.070528824642706E-5    4.784215713432600E-4    9.673801542337730E-1   -9.824434537004370E-2
 6.900000000000000E7    -7.699278650444777E-1    2.734358292973482E-1   -6.565512301663870E-5   -1.829832917832819E-4    3.113854082263575E-4    2.226767713076148E-5    9.651634141443475E-1   -8.790099735593367E-2
 7.000000000000000E7    -7.696022204610296E-1    2.755305950584158E-1    4.314209059702941E-4   -3.264457006092092E-4    7.806007622725093E-4   -4.231450432676028E-4    9.577044371106666E-1   -9.488047183902147E-2
 7.100000000000000E7    -7.657960999211109E-1    2.828581983827932E-1   -2.071088568669668E-4    3.872440638527249E-4    6.030958989904923E-4    3.421767156036392E-4    9.635094837717182E-1   -8.918204362405012E-2
 7.200000000000000E7    -7.658668954986723E-1    2.884125512184733E-1   -6.877035848145231E-4   -6.422893405878393E-4   -3.462509686539861E-4   -1.994914684197628E-4    9.655794163016971E-1   -9.770046000853168E-2
 7.300000000000000E7    -7.623237163684998E-1    2.863273329371970E-1    1.160688231778203E-4   -6.798640819431288E-4   -5.150852814277685E-5    1.423921875482718E-4    9.579318623114365E-1   -9.810280834121886E-2
 7.400000000000000E7    -7.603264372647076E-1    2.915625655130255E-1    2.370327832516705E-4    3.834528168613403E-4   -2.935320486027731E-4   -3.843408066503499E-4    9.667318147866625E-1   -9.487778098538273E-2
 7.500000000000000E7    -7.641119530226120E-1    2.956540471781539E-1   -3.176378033895245E-4    2.335928055487820E-4    6.023786133916105E-4    2.905543207769815E-4    9.579082368462251E-1   -9.928466252061839E-2
 7.600000000000000E7    -7.586773091252875E-1    3.036918290349946E-1   -1.203238051417931E-4    6.598854664118291E-4   -4.194644849292210E-6   -1.102531195431337E-3    9.633502901682429E-1   -9.821524374011407E-2
 7.700000000000000E7    -7.556904214811754E-1    2.996370773662270E-1   -2.441316732534723E-4   -4.425152412102215E-5   -2.565984411915391E-5    3.340137842087425E-4    9.590196439273584E-1   -9.782304150977272E-2
 7.800000000000000E7    -7.561353655982650E-1    3.036603019050858E-1   -3.655234064245408E-4    6.636453409639789E-4    2.413040178852307E-4   -2.054039702517962E-4    9.565919320194839E-1   -1.008891833948790E-1
 7.900000000000000E7    -7.546661203687413E-1    3.095465857805202E-1   -3.808961006419759E-4   -3.469286496780916E-4    5.343977832676520E-4    3.020397538333419E-4    9.566683961694488E-1   -1.070064700726442E-1
 8.000000000000000E7    -7.504167246015128E-1    3.153778089754597E-1    3.613619803735495E-4   -1.119793537762529E-4   -3.068098268784145E-4   -3.486147745161157E-4    9.604869327281732E-1   -1.028288701379467E-1
 8.100000000000000E7    -7.509217363379382E-1    3.164472803017995E-1    6.945009929831613E-4    2.221630276823745E-4    1.688839353865755E-4   -4.612944350120677E-4    9.615531373901309E-1   -1.051655043060797E-1
 8.200000000000000E7    -7.443531917473423E-1    3.183380571811346E-1   -4.519557763729287E-5    6.254571414931006E-4   -9.002208310862801E-4    3.465785348795935E-5    9.632108838209426E-1   -1.115369822686855E-1
 8.300000000000000E7    -7.497452027475034E-1    3.255946780072250E-1    1.370083767879523E-4   -3.168454934283845E-4   -4.265469189225629E-6    4.257675728194938E-4    9.647610204387675E-1   -1.132916470030677E-1
 8.400000000000000E7    -7.462314835502730E-1    3.247529171001688E-1   -2.030970190346050E-4    4.967801481767570E-4    7.811900832707433E-5    4.262293397243965E-4    9.620903945548901E-1   -1.074985143139749E-1
 8.500000000000000E7    -7.398018114502799E-1    3.290713628768831E-1   -3.400725431416097E-5    1.439261783775480E-4    3.161574766711480E-4   -7.070106634788935E-4    9.565546074108144E-1   -1.075849808418302E-1
 8.600000000000000E7    -7.399852417208002E-1    3.337939697334578E-1   -7.003255741209526E-4   -2.015255490424583E-4   -4.377603957635169E-4   -5.345540997590634E-4    9.612181819279021E-1   -1.132108699860893E-1
 8.700000000000000E7    -7.371949237990918E-1    3.449736720073706E-1    6.016315118830527E-4    2.936808190399470E-4    1.951700290123538E-4   -4.230481157816414E-5    9.580552134964339E-1   -1.113410841718638E-1
 8.800000000000000E7    -7.328201496959652E-1    3.426057493443557E-1    2.148391297017438E-4   -1.536927401401242E-4    5.708929574722521E-4    3.761917037748555E-4    9.574893556598382E-1   -1.132731472123544E-1
 8.900000000000000E7    -7.377601956443250E-1    3.438164525858734E-1   -1.872165130652884E-4    5.035602653281510E-5    3.721413665782638E-4    2.157187638221485E-4    9.609420082101345E-1   -1.140427786287460E-1
 9.000000000000000E7    -7.354862886657918E-1    3.522382219855425E-1    1.185412786856438E-5   -1.011072184537807E-3   -2.700433446783241E-4   -4.953137485030469E-5    9.623346937671052E-1   -1.182392452449091E-1
 9.100000000000000E7    -7.283600285247591E-1    3.559002924257110E-1    4.214906401698817E-4   -4.307920259905542E-4    2.771956799052497E-4    1.016840642923393E-4    9.548195176807024E-1   -1.199701044426325E-1
