#  HZ   S   RI   R     50.00 
! Rohde & Schwarz Vector Network Analyzer 
! Rohde-Schwarz,ZNBT8-20Port,1318700624101681,3.50
! Created: UTC 7/15/2025, 2:08:28 PM
! freq[Hz]                re:S1010                im:S1010                re:S0310                im:S0310                re:S1003                im:S1003                re:S33                  im:S33
 1.000000000000000E6    -8.283250868541249E-1    3.335877423328210E-3    3.202353031961863E-4   -1.278716209754065E-5    1.796662828000545E-4   -2.048628382094872E-4    9.756871799854481E-1    1.387082325081680E-2
 2.000000000000000E6    -8.171098880906090E-1   -8.284080101995338E-3   -2.602056794273766E-4   -2.288583092811294E-5    3.077259566957692E-4    3.924045589925789E-5    9.624466727697097E-1    7.077179148428778E-3
 3.000000000000000E6    -8.271073071218662E-1   -3.027524580277263E-3    2.223058181194136E-5    1.294283314646758E-4    9.376741073022393E-5    5.723598002096028E-4    9.734179670332520E-1    1.778904465587730E-2
 4.000000000000000E6    -8.390423348882865E-1    9.568136986831479E-3    3.688188709438033E-4    1.030798572667593E-4    4.656393095501375E-4   -9.094057740327010E-5    9.839374820258330E-1    1.087551402258121E-2
 5.000000000000000E6    -8.206870958029927E-1    1.417839787485712E-2    3.680081683914419E-4    1.178704075039780E-4    1.611779258553514E-4    1.046149457763823E-4    9.785841822319366E-1   -6.057603257790066E-3
 6.000000000000000E6    -8.247025632754341E-1    1.840988586271567E-2   -4.025875686625526E-4   -3.129769177402970E-4    2.488966333852018E-4   -1.500556994410045E-4    9.794720897507937E-1    1.741014130685507E-4
 7.000000000000000E6    -8.299847875827330E-1    2.779844323668281E-2    1.685009994139269E-4    1.960761516100147E-4   -7.896178334446014E-5   -4.337024497895875E-4    9.817185512412384E-1   -9.794408339621174E-3
 8.000000000000000E6    -8.255635120086328E-1    3.243897292199162E-2   -1.482527878081930E-4    2.730755724364208E-6   -7.872410740052104E-5   -1.871175554436897E-4    9.786201000075808E-1   -6.130440113755777E-3
 9.000000000000000E6    -8.225904853903651E-1    3.464635015303352E-2   -3.695121535548292E-5    2.562059954539461E-4   -2.737786982182799E-4   -2.227297505062842E-5    9.840684977662062E-1   -7.045393329372088E-3
 1.000000000000000E7    -8.178243849179468E-1    4.599843790595408E-2   -4.823023707312829E-6   -4.478049032066289E-5    1.989769714595221E-4    5.826084359794898E-5    9.849732532503812E-1   -1.171276145611418E-2
 1.100000000000000E7    -8.281391918531972E-1    4.926574734214664E-2   -3.001350586247784E-6    5.297006801958244E-4   -1.912141548313114E-4    3.151099858113912E-4    9.688589855704060E-1   -2.471093477274075E-2
 1.200000000000000E7    -8.232946568390158E-1    4.806337270624133E-2    1.846101838679895E-4   -1.721880246652915E-4   -8.912600826685260E-5   -2.074206659097455E-4    9.745729932757481E-1   -1.637749526602371E-2
 1.300000000000000E7    -8.214128123330894E-1    5.945451326823794E-2   -1.815141173626387E-4   -2.593166553159972E-4    9.177746181556277E-5    4.324256893172880E-5    9.743066943996870E-1   -1.517630761313817E-2
 1.400000000000000E7    -8.262812720315884E-1    5.444576618715253E-2   -2.036050070166714E-4    1.033841916183506E-4    2.923729134565826E-4    1.658698633494075E-4    9.813057241899360E-1   -2.625607763929786E-2
 1.500000000000000E7    -8.251579777917364E-1    6.564685811519831E-2   -1.464905776175643E-4   -2.153315760314410E-4   -3.273630269692648E-4   -1.957907095092637E-5    9.797758343164563E-1   -1.784393166641306E-2
 1.600000000000000E7    -8.253701132509488E-1    6.533917979817624E-2    1.162441738871882E-4    1.692436572067237E-4   -1.929548029088330E-5   -1.257368993119448E-4    9.772571427852962E-1   -2.015773589580205E-2
 1.700000000000000E7    -8.237401209292732E-1    7.147689627869250E-2   -1.896914886632710E-5   -2.677290161190980E-4    5.197634587208698E-5    4.167425533250164E-5    9.852842830151908E-1   -2.169598873271961E-2
 1.800000000000000E7    -8.246682170963464E-1    6.912614986054555E-2    1.305049041642278E-4   -3.492750712577941E-4   -1.561012356905578E-4   -1.866020702201411E-4    9.837686344272442E-1   -2.889080414078003E-2
 1.900000000000000E7    -8.225477290931709E-1    7.527366855031110E-2   -1.586546710675535E-4   -2.267889457892782E-4    3.864497646044427E-4    8.242776066985980E-5    9.721727513480755E-1   -3.093538391392624E-2
 2.000000000000000E7    -8.136247906938641E-1    7.936844891730997E-2    1.926502797850934E-4   -2.481138445674959E-4    2.354642530931259E-4   -1.480906866710747E-4    9.778344630780846E-1   -2.700162982387874E-2
 2.100000000000000E7    -8.233432766168560E-1    9.484513713979152E-2    1.786196127126703E-4   -1.209611792943862E-4    1.996011935471236E-4    1.631441543602182E-4    9.849301194034751E-1   -3.549583989016322E-2
 2.200000000000000E7    -8.181061994001047E-1    8.395334856642150E-2    2.741222058351153E-5    5.970868721292890E-4    2.899315158558312E-4   -9.849083232118871E-5    9.811490408062585E-1   -2.209889266834904E-2
 2.300000000000000E7    -8.139814073764459E-1    8.892661205310218E-2    3.147796198586687E-4    2.062496259494178E-4    5.197099111623508E-5    2.547243601031519E-4    9.650548844659875E-1   -4.269094598360593E-2
 2.400000000000000E7    -8.165090495966383E-1    9.338844812653274E-2    4.471665436044502E-4    2.520302092939696E-4   -2.391004423693314E-4    3.060785537693323E-4    9.593664912879672E-1   -2.554779101889681E-2
 2.500000000000000E7    -8.072983869116582E-1    1.089212025106890E-1   -3.597849854437657E-4    6.197902596105717E-5   -1.032933442640805E-4    2.578042037891628E-5    9.689408434015091E-1   -4.615317369445104E-2
 2.600000000000000E7    -8.239672995513437E-1    1.100337684356498E-1    8.403566359575084E-4   -4.042584359891317E-5    3.261484639896309E-4   -1.402307839267364E-4    9.719003702325489E-1   -3.269162379060885E-2
 2.700000000000000E7    -8.175064895888607E-1    1.076892135004401E-1   -8.021347059905443E-5   -2.596275307540474E-4    1.199698689099499E-4    9.914386511855819E-5    9.815005980379740E-1   -3.635265894671531E-2
 2.800000000000000E7    -8.156693459735970E-1    1.189232003527438E-1    8.645583164043628E-4   -1.087629594054370E-5   -2.835443264221847E-5   -6.706453781855143E-6    9.702660246631247E-1   -2.779295293090597E-2
 2.900000000000000E7    -8.143194829856427E-1    1.175927702854608E-1   -2.838628188445104E-4   -8.871558966113428E-4    2.904220369865427E-4   -5.433080184762239E-4    9.796394566201321E-1   -3.918162130892877E-2
 3.000000000000000E7    -8.159904403507384E-1    1.213191293187976E-1    1.734111521156742E-4   -4.192377619926686E-5    1.558058217081079E-5    2.615091394491611E-4    9.699647739767521E-1   -4.579403175557917E-2
 3.100000000000000E7    -8.114640773803901E-1    1.313354765713213E-1   -1.170265394697596E-4    5.200607935284893E-4    3.999949032000369E-4   -3.689956695490551E-4    9.718217225813288E-1   -5.180190388447679E-2
 3.200000000000000E7    -8.087217107702147E-1    1.254499956378258E-1    4.650724340461153E-4    2.638727857923673E-4   -3.702687857651374E-4   -5.065670027083143E-4    9.692349880748122E-1   -4.910013851731534E-2
 3.300000000000000E7    -8.097355237745076E-1    1.333455727501534E-1    2.266743118740390E-4   -6.929023741994662E-4   -9.731198248953209E-5   -2.056705676455415E-4    9.713391802275535E-1   -4.488660471219421E-2
 3.400000000000000E7    -8.061130552359920E-1    1.330781119351580E-1    1.445488992997627E-4   -1.352089254947361E-5    7.279256212360963E-5    3.077752396598433E-4    9.850773880814162E-1   -4.387862387791482E-2
 3.500000000000000E7    -8.162787233400606E-1    1.466076812510730E-1   -1.845557063208203E-4   -6.025537636021138E-4    2.410536012614894E-5    1.315949595151200E-4    9.754959489663274E-1   -4.672571531728330E-2
 3.600000000000000E7    -8.120388288710958E-1    1.461691441955482E-1    1.310066158255284E-4   -9.549776616049303E-4    7.966512781405412E-5   -6.093493878930676E-4    9.727800981216307E-1   -5.274611541734404E-2
 3.700000000000000E7    -8.122352768179696E-1    1.485613445806419E-1    8.257669563271718E-5    4.833584415145657E-4    3.781197042355693E-4    5.674613810515136E-4    9.713337152139638E-1   -5.430881869777884E-2
 3.800000000000000E7    -8.075913606173813E-1    1.545095861860033E-1   -3.331785799470221E-4    2.612499536306706E-4    5.147337101472999E-4   -2.824091178998862E-4    9.754980046280385E-1   -5.579398679296729E-2
 3.900000000000000E7    -8.076151647325228E-1    1.577851727518057E-1   -2.982415772354574E-5   -7.306225255945360E-4    2.775449989953059E-4   -8.089571942249981E-4    9.727263451090549E-1   -5.327963390217972E-2
 4.000000000000000E7    -8.083130241907992E-1    1.656338791772205E-1    3.740013189916265E-4    2.929730064733391E-4   -4.497322070801734E-4   -1.427344959045502E-4    9.679841415405173E-1   -5.620927369185440E-2
 4.100000000000000E7    -8.080243369160639E-1    1.659488416575712E-1    2.249427076462581E-4    1.959096204738558E-4    5.228245937394950E-5    1.954382029253071E-4    9.749341960577070E-1   -5.311314514791894E-2
 4.200000000000000E7    -8.068918393175976E-1    1.707176837434551E-1   -3.029774111140609E-4    1.966787816102745E-4    6.076878679726948E-4   -2.406668070346726E-5    9.721839700227153E-1   -5.300613803038086E-2
 4.300000000000000E7    -8.062155362201090E-1    1.750913284011172E-1   -3.035652919556302E-4   -6.996363379359755E-4   -2.206705084577367E-4   -1.461910393864428E-5    9.706672112836875E-1   -5.383151442321604E-2
 4.400000000000000E7    -8.003135763106769E-1    1.760630010485943E-1   -7.247518312295711E-4   -2.889757839279342E-4   -8.231685851342299E-4   -6.700746604513242E-5    9.725957301291287E-1   -5.705824098888676E-2
 4.500000000000000E7    -7.993233080671804E-1    1.823782266365977E-1   -1.846024933037381E-5   -1.218436240960064E-3   -9.936612399614846E-5    3.120439717936233E-4    9.683687610990728E-1   -5.154342043689641E-2
 4.600000000000000E7    -7.990203667480179E-1    1.838019907339677E-1   -2.282428932323806E-4    4.604976562435095E-4   -3.796049745740154E-4    1.218795889478079E-5    9.768110115650104E-1   -7.107572036627781E-2
 4.700000000000000E7    -8.021087103249039E-1    1.882934104181307E-1    1.997818176860836E-4   -5.279650869963230E-4   -3.783994407097844E-4   -2.947406367839078E-4    9.615058030089514E-1   -6.187594188193935E-2
 4.800000000000000E7    -8.003489482676781E-1    1.909321649865297E-1    5.499068130982130E-4   -4.800335143923148E-4   -3.153382400069106E-4    1.347719291973079E-4    9.700678752939452E-1   -6.918191970466406E-2
 4.900000000000000E7    -7.997012555990375E-1    1.945933668543826E-1   -8.357311276089391E-5    1.611928512753520E-4   -4.955984749441486E-5   -5.916026266789325E-4    9.689036993799455E-1   -6.167239054860994E-2
 5.000000000000000E7    -7.958842204241210E-1    1.984082338354098E-1    2.146791629948377E-4   -2.246636904424473E-4   -5.761071907113677E-4   -3.722199267007789E-4    9.724065948320577E-1   -6.659449374853842E-2
 5.100000000000000E7    -7.948922731597348E-1    2.069304008702605E-1   -1.151666563368669E-3   -6.895041661485432E-4    2.778088189757795E-4    5.946704894503695E-4    9.671063872248055E-1   -7.337161813829661E-2
 5.200000000000000E7    -8.005039702401494E-1    2.074834244831543E-1   -1.307226077766607E-4    2.370892814713803E-4    9.287164695208103E-4   -2.054473719861043E-4    9.700397423560222E-1   -6.758228932996617E-2
 5.300000000000000E7    -7.945316860218616E-1    2.085133088417851E-1   -1.638761558085740E-4   -1.575027485575289E-4   -1.647726019134334E-4   -2.174697898612199E-4    9.678054678818923E-1   -7.276472475660857E-2
 5.400000000000000E7    -7.841536553913614E-1    2.161843989374571E-1   -4.849426848955297E-4   -2.445954908206588E-4    4.238139967305550E-4   -6.916422724599502E-4    9.734143913800879E-1   -8.218223498966259E-2
 5.500000000000000E7    -7.878076550772742E-1    2.198240151590958E-1    4.476738972453766E-4   -5.618555881854329E-4   -1.560182319829522E-4   -6.720164338010150E-5    9.617981738163650E-1   -6.941816679978531E-2
 5.600000000000000E7    -7.935631268868962E-1    2.244733814415980E-1   -1.820365381529844E-4   -5.071333528161472E-4   -7.957216978650034E-4    3.894497717739384E-4    9.674463678730381E-1   -8.107814458618007E-2
 5.700000000000000E7    -7.816293364749134E-1    2.279863420523173E-1   -8.754040730928594E-5   -4.243249904682282E-4    5.138306805686452E-4    5.537068295955400E-4    9.686691935952874E-1   -6.622754365541002E-2
 5.800000000000000E7    -7.870554666393760E-1    2.356069257062802E-1   -9.222258869561489E-4   -9.007291295822514E-4   -8.060027054725466E-5    4.656911431111250E-4    9.700858873942405E-1   -7.597009599826897E-2
 5.900000000000000E7    -7.844092983351315E-1    2.382646001148077E-1    1.879865240601774E-4   -1.818433965271445E-4   -2.560490446168950E-4   -7.244539600316574E-4    9.729529954061735E-1   -7.883854021467736E-2
 6.000000000000000E7    -7.834632400114310E-1    2.383072626049856E-1   -3.938660882419573E-4   -4.469391758674996E-4   -3.904503331671361E-4    1.381338845699559E-4    9.676270872338781E-1   -8.399881236318052E-2
 6.100000000000000E7    -7.796411966466665E-1    2.455560367281356E-1   -4.257978328860067E-4    4.195446520026413E-4    2.889682333617687E-4    3.125184940235082E-5    9.735857501347147E-1   -8.920694041592847E-2
 6.200000000000000E7    -7.774711058601548E-1    2.473119977744151E-1    2.172154663952570E-4    4.217976947399041E-4    4.271222791224132E-4    3.893987737680471E-4    9.627381539777741E-1   -9.081980876483037E-2
 6.300000000000000E7    -7.794002153563249E-1    2.518013812631898E-1   -3.070646689033387E-4   -1.122600187937185E-3    2.770410183241599E-4    1.118266032856885E-4    9.653792382627715E-1   -8.516220268400986E-2
 6.400000000000000E7    -7.761031977903873E-1    2.520965125310370E-1   -3.939289576004374E-4    3.862958434322455E-4   -1.423444010218979E-4   -5.606789516036902E-4    9.672033107454540E-1   -8.485712719976747E-2
 6.500000000000000E7    -7.690430764253713E-1    2.634472664053031E-1    7.779887381532518E-5   -2.485675470698018E-4   -2.351074834727917E-5   -2.598444323386326E-4    9.624457425081374E-1   -8.084897398620974E-2
 6.600000000000000E7    -7.764470817717601E-1    2.636213571633579E-1   -2.029984510020539E-4   -7.585792588148357E-5   -2.645422227338911E-4    2.085591670707850E-4    9.586305329745979E-1   -9.145422693501112E-2
 6.700000000000000E7    -7.735606205613059E-1    2.630658806583543E-1    2.181961868616210E-4   -6.568421311412311E-4    4.667412515628749E-4    6.900799871633696E-4    9.673668067963679E-1   -9.089565430263087E-2
 6.800000000000000E7    -7.708198907606730E-1    2.680342608104592E-1   -3.195139338875309E-4   -3.440544302224471E-4   -3.429702388812986E-4   -3.800266639114629E-4    9.633565424551601E-1   -9.089643376280515E-2
 6.900000000000000E7    -7.668140046059556E-1    2.694976483937255E-1    7.602905419116909E-5   -4.102580500697718E-4   -6.592056236629556E-5    7.743715216576059E-5    9.646054793307540E-1   -8.995647534278904E-2
 7.000000000000000E7    -7.680935221592494E-1    2.755111507631359E-1   -2.431864404890323E-4   -5.109533233949121E-4   -5.434781149022492E-4   -8.391944325612893E-6    9.674011912057191E-1   -9.951425562845016E-2
 7.100000000000000E7    -7.677116165771765E-1    2.815288208820348E-1    4.134618248965946E-4    4.137641071005900E-4    2.932366292549551E-4    1.334470655756107E-4    9.636428821899420E-1   -9.500158633869055E-2
 7.200000000000000E7    -7.688438927918807E-1    2.880540112100626E-1   -2.312737684894094E-4    2.275072797434960E-4   -4.498271265735315E-6   -2.387162172606719E-4    9.654104945889612E-1   -8.737920104125994E-2
 7.300000000000000E7    -7.642007507850017E-1    2.911920526992320E-1    2.654840458751599E-4    1.303189546762449E-4    4.905839978476497E-4    2.094066358774053E-4    9.528334508030124E-1   -9.734961818195934E-2
 7.400000000000000E7    -7.636659208388478E-1    2.887092109820686E-1    9.033475937510947E-4    1.915401864893776E-4    4.491960511644735E-5   -6.281845893305241E-4    9.643569607842721E-1   -9.790184598424521E-2
 7.500000000000000E7    -7.606639775981752E-1    2.918396625250006E-1    2.532726553009448E-4   -4.090799628942776E-4    3.521755681218967E-4    5.573441206469300E-4    9.613924046010919E-1   -9.626028065957105E-2
 7.600000000000000E7    -7.570718873859300E-1    2.992094549503891E-1    1.367804993609816E-4    9.728540059302554E-5   -2.571646610698929E-4   -5.377710386876361E-4    9.617568107317153E-1   -1.026297890236655E-1
 7.700000000000000E7    -7.577768955638097E-1    3.020077551555441E-1    3.975197368562639E-4   -7.305479619602235E-4    2.409296361021940E-4   -8.330825591052713E-4    9.693564906100594E-1   -9.633857018399068E-2
 7.800000000000000E7    -7.526705396906672E-1    3.023819787659731E-1   -5.206606337688881E-4    1.065750665002866E-4    6.326655703845768E-5   -2.079276656149804E-4    9.618125163032573E-1   -1.048361820876221E-1
 7.900000000000000E7    -7.549231841527959E-1    3.069957862128010E-1   -5.780240375334506E-4   -7.291318084564742E-5   -1.119546092080508E-4   -4.060319071489284E-4    9.612131483108554E-1   -1.041947707855387E-1
 8.000000000000000E7    -7.489274794841382E-1    3.136784504058802E-1    5.083112055652159E-4   -5.233907129944796E-4    3.322584956290443E-4   -1.090328658057439E-3    9.636509778271634E-1   -1.041619292008399E-1
 8.100000000000000E7    -7.496943429691990E-1    3.115411691198789E-1    1.252642455190289E-5    1.939020474331728E-4   -7.811324827988223E-4   -8.046456221178575E-5    9.614280839226160E-1   -1.022358896734088E-1
 8.200000000000000E7    -7.475047155554772E-1    3.178319669095866E-1   -1.320878809862853E-4    1.670060743293699E-4    1.107654243520271E-5   -3.235557823516490E-4    9.593464210450136E-1   -1.034042636780113E-1
 8.300000000000000E7    -7.449483474994094E-1    3.232260926478832E-1    3.399314717034035E-4    3.199980930853698E-4   -1.816054014421834E-4   -1.041765944644018E-4    9.628386882188196E-1   -1.086874575948212E-1
 8.400000000000000E7    -7.461577542615488E-1    3.290338046760660E-1   -2.303293422333907E-4   -2.250389129593471E-4    1.912131448847048E-4    2.966290532280797E-4    9.595956526950864E-1   -1.150179150114574E-1
 8.500000000000000E7    -7.409978133131124E-1    3.284924327808061E-1   -1.508325731696008E-4   -4.772821812970102E-4   -4.248274889200084E-4   -5.960191014063569E-4    9.583552756572515E-1   -1.145563286942161E-1
 8.600000000000000E7    -7.411674368471145E-1    3.347674755815406E-1   -2.017740047519825E-4   -4.434955437730543E-4   -1.643314718483138E-4   -3.215949655309826E-4    9.628997872719954E-1   -1.154163332730034E-1
 8.700000000000000E7    -7.377021755195897E-1    3.381427955959814E-1   -7.225279458635727E-4   -6.670130516620539E-5    3.816859476644640E-4   -6.654876140511966E-4    9.589989215691485E-1   -1.091525594912037E-1
 8.800000000000000E7    -7.333970705387848E-1    3.409578472799887E-1   -9.537485213181277E-4    7.029200128176043E-5    5.133300209415280E-5    2.032494142352496E-4    9.578951064411343E-1   -1.137900338248879E-1
 8.900000000000000E7    -7.373989161706310E-1    3.447618901869744E-1   -1.027803910888296E-4   -4.389213308647810E-4   -1.559018732885696E-4    2.339353400782291E-4    9.580056533470144E-1   -1.221911812819667E-1
 9.000000000000000E7    -7.382072559208255E-1    3.459737877392406E-1    1.910016343285848E-5   -4.185873524901406E-4   -2.370012676830989E-4    2.369853840400297E-4    9.551767187289841E-1   -1.174818147897105E-1
 9.100000000000000E7    -7.285812610513130E-1    3.542927932557894E-1   -5.650002037978791E-4   -2.940962203770228E-4    4.642005224860406E-4    7.018551304675428E-5    9.582786692152467E-1   -1.218627455892357E-1
