#  HZ   S   RI   R     50.00 
! Rohde & Schwarz Vector Network Analyzer 
! Rohde-Schwarz,ZNBT8-20Port,1318700624101681,3.50
! Created: UTC 7/15/2025, 2:13:52 PM
! freq[Hz]                re:S1010                im:S1010                re:S0410                im:S0410                re:S1004                im:S1004                re:S44                  im:S44
 1.000000000000000E6    -9.063259780813971E-1   -1.370739748526522E-2   -1.433688392997238E-4    4.222388431931661E-5   -9.264082989629980E-5    3.550635849579317E-4    9.719497115293750E-1    1.574693190716319E-2
 2.000000000000000E6    -8.903160183331613E-1   -3.124630595767340E-3    2.790523353831455E-4    2.581411313548762E-4   -6.149126820399077E-5    5.472232008081366E-5    9.885771873960759E-1    1.755683394831062E-2
 3.000000000000000E6    -9.063968545090676E-1    5.167400876239985E-3   -2.201133753950769E-4    7.241730295169162E-6    9.331242617505960E-5   -3.721088916341119E-5    9.708317845604318E-1   -4.179408897603452E-3
 4.000000000000000E6    -9.062129438398807E-1   -9.260312494673295E-3   -8.114677455017515E-5    1.313770676838374E-4   -1.758627907771049E-4   -5.816585320901812E-5    9.750658277645751E-1    4.783531516707701E-3
 5.000000000000000E6    -9.046761588929250E-1   -6.896522004605140E-3    4.753984440783021E-5    2.036766787025570E-4   -2.106188711853248E-4    1.365916428820834E-4    9.770263748945212E-1    3.145398001262565E-3
 6.000000000000000E6    -9.036717426941718E-1    4.933364090370362E-3    1.484401598809572E-4    2.651032516084482E-5    2.901375052571288E-4   -1.856627843378805E-6    9.775166716962617E-1    8.890311267636404E-4
 7.000000000000000E6    -9.037653607238781E-1    5.216120908305135E-3    1.564152532224532E-4   -4.507243832881868E-4   -7.602305412759007E-5   -2.971286072005219E-4    9.830580304128311E-1   -3.520736969705349E-3
 8.000000000000000E6    -9.064283587755259E-1    1.246582232247885E-2    4.968667121981111E-5    9.999608697146555E-5    9.137980688056266E-5   -2.670153159826395E-4    9.700605553429450E-1   -6.101502963481888E-3
 9.000000000000000E6    -8.949151543838996E-1    1.168932961859214E-2   -5.033689836416303E-5    2.413084401157576E-5   -4.574950049998438E-5   -3.895282982220898E-5    9.696738997828029E-1    2.567759294767600E-3
 1.000000000000000E7    -8.950192757839578E-1    2.144638296482230E-2   -4.075684749263192E-4    1.940807816945652E-4    3.957907226409208E-5    1.559666854748214E-4    9.768390543231684E-1   -9.783393764131430E-3
 1.100000000000000E7    -8.977301809625671E-1    2.308293326840869E-2   -1.022083058616645E-4    2.329448768389667E-4   -3.026344187263527E-5   -1.274187575907734E-4    9.749670166769645E-1   -2.103097572211943E-2
 1.200000000000000E7    -8.982826145425251E-1    1.648345689246133E-2    1.714347597224188E-4   -1.283030749656018E-4    2.299699292761026E-4    2.197979464697830E-4    9.808600984445350E-1   -2.270623444067944E-2
 1.300000000000000E7    -9.053828197544586E-1    2.833577716091113E-2    6.462321373477967E-5   -1.855594092552429E-4   -1.808368941284587E-5   -2.241805939800752E-4    9.755039242176469E-1   -1.805760312421147E-2
 1.400000000000000E7    -9.100490192018494E-1    2.229651774627240E-2   -2.830040100642722E-4   -3.716769506898618E-4   -2.020477202953933E-5    4.193133975546032E-4    9.794110919626628E-1   -2.154747053071899E-2
 1.500000000000000E7    -9.035071578322722E-1    2.982733707188057E-2    3.471387791804455E-4   -3.374110473111768E-5    2.198190947985366E-4    4.263108950771291E-4    9.763209504679765E-1   -2.980715160777203E-2
 1.600000000000000E7    -9.059811999251218E-1    2.918264924861095E-2    3.279186796891350E-4   -1.544971214470479E-4    1.415115954028438E-4   -1.390662270637825E-4    9.759595362611202E-1   -2.463671393538433E-2
 1.700000000000000E7    -8.993741982482415E-1    2.601243673766104E-2    7.543718074044680E-6    1.771527202886866E-4    2.015136754852016E-4   -3.034134427894730E-4    9.774000459957420E-1   -3.557378557344251E-2
 1.800000000000000E7    -9.040818511046234E-1    2.655200342111080E-2    1.052970134242783E-4   -2.058899225159957E-4    3.846733160204634E-4   -2.395830635658533E-4    9.837739315397586E-1   -2.942802560136232E-2
 1.900000000000000E7    -9.035782335464954E-1    3.102297755259070E-2   -2.288053783614488E-5   -1.580235968458041E-4    2.634611687473038E-4    7.451179790316862E-5    9.703415177890743E-1   -2.209550381779002E-2
 2.000000000000000E7    -9.023899124077950E-1    3.636336617914475E-2   -1.033507167380663E-4   -3.883884368440598E-4    3.936991663159893E-5    2.644957962817248E-4    9.798741464145866E-1   -2.790267460729477E-2
 2.100000000000000E7    -9.045350901466391E-1    3.173686747329550E-2    1.677577584348696E-4   -3.708285054659420E-5    1.381588523431215E-4   -5.365254896730881E-6    9.768377674519964E-1   -2.593782798188570E-2
 2.200000000000000E7    -8.965933137289790E-1    3.275706279169355E-2    3.660196976059524E-4   -1.463114518780035E-4    3.799582038694942E-4    1.167483091094459E-4    9.823089339397006E-1   -3.258236870868082E-2
 2.300000000000000E7    -9.015981893564108E-1    3.240834165658642E-2   -1.450838849597328E-4   -1.739152721827491E-4   -4.021870184157207E-4    1.995448541803485E-4    9.711284623071009E-1   -3.087773250963881E-2
 2.400000000000000E7    -8.809219602515270E-1    4.683614436405259E-2    2.286876981384683E-4    3.251998449936740E-4   -3.066421581481528E-4    3.043188044284499E-4    9.694847677095330E-1   -1.982118006492960E-2
 2.500000000000000E7    -8.857147636673780E-1    5.490413512974450E-2   -5.102670999867665E-4   -2.666759451444477E-4   -4.015755810379360E-4    4.243994265089805E-6    9.820180396670495E-1   -2.987505467761467E-2
 2.600000000000000E7    -8.984199581471682E-1    4.080501254642797E-2   -8.909598304999680E-4   -7.791547914374833E-4   -5.570267657297570E-4    4.179976470743293E-4    9.793640681773788E-1   -4.585070986217175E-2
 2.700000000000000E7    -9.071507031632958E-1    4.295781792430452E-2   -2.215636504447727E-4   -3.284147212874643E-4   -2.401013682413236E-4    7.413474625046005E-4    9.710642767853565E-1   -3.104468719824912E-2
 2.800000000000000E7    -8.941279725780762E-1    4.327277267767078E-2    6.622806896578977E-4    4.224112498225539E-4    1.352274012716001E-4   -7.551285390534501E-5    9.675707284131976E-1   -4.488277034967181E-2
 2.900000000000000E7    -8.926483317120412E-1    5.042107817828151E-2   -8.583418378333812E-4    4.912553804156561E-4    1.519417831848318E-4    6.075724433974807E-4    9.768961672697776E-1   -4.074693575163586E-2
 3.000000000000000E7    -8.940350470545435E-1    4.885892775989248E-2    4.257974473024256E-4    2.200099950550097E-4    3.953956987504686E-6    2.481610009688288E-4    9.668005415242154E-1   -3.673093605793238E-2
 3.100000000000000E7    -9.014897755729083E-1    5.134945623441111E-2    4.235893405222416E-4   -8.509617315424018E-4    3.622414341264490E-4    5.589405543598719E-4    9.763069813841458E-1   -4.161988022085709E-2
 3.200000000000000E7    -9.030511142458264E-1    4.746681678648455E-2    3.279860948701902E-4   -4.995810702712960E-4   -1.334338240645764E-5   -3.438067266423179E-4    9.779741120742523E-1   -4.593559807238142E-2
 3.300000000000000E7    -8.973940048957268E-1    5.105909279258687E-2    6.251636705888357E-4   -5.077130682078753E-5   -5.392980165975438E-4   -8.167453166142297E-4    9.721251253106196E-1   -4.611801372276856E-2
 3.400000000000000E7    -8.993418485673007E-1    4.767054541028578E-2   -2.107037672232227E-4    1.135739918627076E-3    4.021562327268744E-4   -6.352175827676334E-5    9.739778788021078E-1   -5.590563297319671E-2
 3.500000000000000E7    -8.980357694218607E-1    5.883525818937942E-2   -4.008705148397762E-4   -9.652053048402219E-4    2.142783364499432E-4   -2.191298721107126E-4    9.720541606566538E-1   -5.304954631252239E-2
 3.600000000000000E7    -9.024532420709392E-1    6.366948697016593E-2    1.704425979715215E-4    3.101480934009154E-4   -7.965414020841622E-4   -4.305994616352568E-4    9.822378020772585E-1   -5.125570146144250E-2
 3.700000000000000E7    -8.958218993778265E-1    6.056020682103402E-2    3.423162555645157E-4    1.244857910079048E-4   -8.862024408586730E-4   -1.703119330267083E-4    9.753618437290146E-1   -6.107359172716623E-2
 3.800000000000000E7    -8.957335891744717E-1    6.152212933679745E-2    1.058803271514047E-4   -3.126365417716405E-4    7.495433746946791E-4    3.190669526012025E-4    9.743833079083317E-1   -5.455653432712313E-2
 3.900000000000000E7    -8.968402197405513E-1    5.997440477705387E-2   -1.192059575309531E-4   -6.873768177970870E-4   -1.949049247874089E-4   -1.529818812654203E-5    9.742179531381474E-1   -5.027782489144463E-2
 4.000000000000000E7    -8.943932855558104E-1    6.285941525914918E-2    2.229028267215496E-4   -4.220825626932088E-4   -3.815367855126752E-4   -3.549580791541034E-4    9.716219023836009E-1   -5.608488880828405E-2
 4.100000000000000E7    -8.991913941471721E-1    6.413648578315935E-2    4.847515380060922E-4   -3.077017515898007E-4   -2.082859278656500E-4    1.580581923985796E-5    9.715744125658584E-1   -5.715578303403084E-2
 4.200000000000000E7    -8.956783443325202E-1    6.916490147569934E-2   -7.273979648743800E-4    8.928588766304184E-5   -2.282835876572632E-4   -1.133259373472172E-4    9.705828568932854E-1   -5.260314059258386E-2
 4.300000000000000E7    -8.958729472062062E-1    7.313285788456785E-2    3.190602252247074E-4    4.499305171841832E-4   -3.184502088474119E-4   -1.792104406797084E-4    9.742950766598023E-1   -5.721978590205495E-2
 4.400000000000000E7    -8.921980164942845E-1    6.400912321607898E-2    3.973807213724455E-4    2.750256483743805E-4    2.636887050211720E-4    1.174915287304899E-4    9.759909407313537E-1   -6.623296174899150E-2
 4.500000000000000E7    -8.968377330072470E-1    6.694969139423000E-2    2.613868568203513E-4    3.529889796304040E-5   -6.009981105756043E-4   -1.204109332547884E-4    9.676633891828427E-1   -6.564819420391334E-2
 4.600000000000000E7    -8.894584880106439E-1    7.454941781318816E-2   -2.176063409044218E-4   -2.589786212127467E-4    4.979894654595653E-4   -3.446049348273839E-4    9.724928109683573E-1   -5.989857746859437E-2
 4.700000000000000E7    -8.936299940620206E-1    7.664415631980069E-2    2.177691527653506E-4   -2.479252088175957E-4    4.435227943680815E-4    1.136645548360531E-4    9.674287349462399E-1   -6.486493800509591E-2
 4.800000000000000E7    -8.933705454636908E-1    7.030937271829264E-2   -9.158941959223723E-4    2.533872646099065E-4   -2.812465362203283E-5   -7.783173638082481E-4    9.686459539780101E-1   -6.805007041020239E-2
 4.900000000000000E7    -8.955571411597646E-1    7.336874830818156E-2   -1.170248419662826E-4   -8.383395340877065E-4    4.426712702955736E-4    3.350183763211350E-4    9.652141666183470E-1   -6.569627067300943E-2
 5.000000000000000E7    -9.009156903524573E-1    7.279355900738335E-2    1.285382945065399E-4    3.322881316295332E-5   -7.737737149907243E-5   -3.551070101650552E-5    9.634074101047002E-1   -8.065594783223638E-2
 5.100000000000000E7    -8.914414333885574E-1    7.595042887201141E-2   -4.278968060065970E-5    8.847699421096741E-4    2.169090105838949E-4   -2.755526667583244E-4    9.637604432771725E-1   -7.922927390783603E-2
 5.200000000000000E7    -8.924774906960238E-1    7.653844828386611E-2   -2.734677105110670E-5    5.909408578221068E-4    7.163093982969608E-4    2.643761405650066E-4    9.685120252360130E-1   -7.535583027385813E-2
 5.300000000000000E7    -8.955866482328324E-1    7.775938902552661E-2    4.355200185684922E-4   -6.375971854130785E-4    3.739176832473701E-4    4.587975848677291E-4    9.735901047863739E-1   -7.992784898591226E-2
 5.400000000000000E7    -8.950080414412928E-1    8.158125839219704E-2   -3.360013339309448E-4   -8.495119603133902E-5   -4.423303428908818E-4    2.816017095067739E-4    9.636524985184749E-1   -7.975182740862492E-2
 5.500000000000000E7    -8.966366873175106E-1    8.237003851967416E-2    2.060409398499708E-4    2.554760489041657E-4    5.091419546979140E-4    1.199558654992982E-4    9.743977115453208E-1   -7.953652810071042E-2
 5.600000000000000E7    -8.931419757251744E-1    8.768007909394786E-2   -1.458318994100800E-4   -1.455057512235380E-4    4.446444752881113E-5   -4.358038519143840E-4    9.652614657007325E-1   -7.514931904666534E-2
 5.700000000000000E7    -8.865290397946808E-1    8.710269027958277E-2   -3.235407037070424E-4    4.340086153655841E-4    5.099643738709134E-4    1.981698973420477E-4    9.742057515417044E-1   -8.385764636922159E-2
 5.800000000000000E7    -8.880551917136095E-1    8.251031407443447E-2    8.128143430697973E-6    2.434737786101667E-4    8.975651667465069E-5    1.192872860452336E-5    9.676335625767765E-1   -8.370710111190574E-2
 5.900000000000000E7    -8.898322066538515E-1    8.867638339850457E-2   -1.544947817614001E-4    6.260646962687719E-4    3.599724989976802E-4    1.649781400253158E-4    9.625202063520507E-1   -8.574137894668701E-2
 6.000000000000000E7    -8.932863385632831E-1    8.815600193122380E-2   -7.842141395881961E-4   -2.698155557616891E-4    1.731996617118314E-4   -8.448769908362257E-5    9.615627756730347E-1   -8.797714824311929E-2
 6.100000000000000E7    -8.888282269911129E-1    9.711441498030368E-2    2.734162558174259E-4   -1.789300861454116E-5   -1.423823389473373E-4    2.596171843963773E-4    9.679868681585916E-1   -8.785889382232702E-2
 6.200000000000000E7    -8.917556794019977E-1    9.366148910477436E-2   -6.287988702835726E-4   -6.867525577512135E-4    9.008660424791573E-5    7.128367405877456E-5    9.605337978868812E-1   -8.400404433710310E-2
 6.300000000000000E7    -8.937643333475545E-1    9.366614158187475E-2    2.169985112354103E-4    4.827578087704513E-4    2.851719331471508E-7    3.021239753086758E-4    9.731572000646217E-1   -8.824287205849742E-2
 6.400000000000000E7    -8.874107690044022E-1    9.568340514235647E-2   -5.315488580662240E-4   -1.517863571742069E-4   -2.459511424688706E-4   -3.187041936842144E-4    9.599392134554673E-1   -8.634684738706207E-2
 6.500000000000000E7    -8.860603850020405E-1    1.012393092242003E-1   -5.238673508977989E-4    2.634324503540337E-4   -3.591652553553820E-4    5.816313193344224E-4    9.646339094201428E-1   -9.186767910664692E-2
 6.600000000000000E7    -8.903651874708174E-1    9.851464655523803E-2    3.628292562508813E-4   -2.231763441833446E-4    1.890663090841314E-4   -5.684147969173926E-4    9.603796390697339E-1   -9.143981719549490E-2
 6.700000000000000E7    -8.904840025523025E-1    1.000958007290034E-1   -3.736076826215717E-4    5.177034753304464E-4   -1.171630266914156E-3   -3.694892382663133E-4    9.624614034879446E-1   -9.258043970266899E-2
 6.800000000000000E7    -8.903424539697623E-1    1.057548276422499E-1    4.983809944726811E-4   -5.304911400190113E-4    2.939989270897446E-5    3.349848933585266E-4    9.635510901638229E-1   -9.478716225879791E-2
 6.900000000000000E7    -8.883345011163256E-1    1.048277066927378E-1   -4.448695708460574E-4   -3.653506219740322E-4    3.795377977480912E-4   -1.344059877564466E-4    9.633890317050375E-1   -9.226805886441251E-2
 7.000000000000000E7    -8.909590536584313E-1    1.062634659712106E-1    6.490649505906353E-5   -7.915401163838135E-5   -3.123310417151124E-4    5.462638143026136E-4    9.590757934804676E-1   -1.008148670089126E-1
 7.100000000000000E7    -8.860732447436472E-1    1.081978596513673E-1    4.530524165665819E-4    1.386762381302880E-4   -2.069638569938448E-4   -7.981881196580286E-5    9.646945607391789E-1   -9.457393528025543E-2
 7.200000000000000E7    -8.880661713255803E-1    1.075963931356736E-1   -5.760450606548158E-4   -2.814737742256377E-4    4.872521547508890E-4   -2.769121449316805E-5    9.658423123823167E-1   -9.991318935524354E-2
 7.300000000000000E7    -8.885151325344680E-1    1.074344985806270E-1    3.905605292460007E-4    6.666229780091579E-4   -2.315553512507267E-4    7.386821903354355E-4    9.615357207689107E-1   -1.005112452969410E-1
 7.400000000000000E7    -8.880225682535168E-1    1.096771628077965E-1    3.286476934828037E-4    2.678984218153545E-4    3.955135356615995E-5   -9.116996599635408E-4    9.720116240351434E-1   -1.029313018816981E-1
 7.500000000000000E7    -8.896898575378692E-1    1.118533491838009E-1    1.035316568196588E-3   -1.083807746458785E-4    3.371321477055783E-4    6.045182256356898E-5    9.572719360460844E-1   -1.022107133458400E-1
 7.600000000000000E7    -8.875148599620988E-1    1.175221177653654E-1   -9.174641566016191E-4    1.316030028762537E-4   -3.077139332226446E-5    1.796575681925985E-4    9.586524368597250E-1   -1.006947490431965E-1
 7.700000000000000E7    -8.899483886845422E-1    1.141270315796855E-1   -4.000972529880690E-4    1.320739185857589E-4    5.574893913571215E-4    7.240440055745937E-4    9.579868819537146E-1   -1.029096896357181E-1
 7.800000000000000E7    -8.875166710730319E-1    1.166764371761209E-1    5.067239412697703E-4    8.890888015353284E-4   -3.110873070494610E-4    5.679887832695596E-4    9.594947269054982E-1   -1.043349782687308E-1
 7.900000000000000E7    -8.787902008367787E-1    1.179150267194211E-1   -1.731932019018512E-5   -8.956717540650463E-5    3.369575016835080E-4    4.208258537239948E-4    9.589622681559531E-1   -1.127570017413950E-1
 8.000000000000000E7    -8.871737846683506E-1    1.230469750822376E-1    5.745221619689168E-4   -2.020447733076624E-4   -3.720314698001956E-4   -5.954261069776576E-4    9.635783293693247E-1   -1.063034091791155E-1
 8.100000000000000E7    -8.809189754011837E-1    1.261384234048899E-1   -1.740373930918484E-4    7.599614526560339E-5   -3.464139746033158E-4    2.429203488821238E-4    9.610429709470205E-1   -1.116684588307937E-1
 8.200000000000000E7    -8.834874533809647E-1    1.200211861682708E-1   -5.366800793339042E-5    2.931142529185636E-4    5.091552883391812E-4    2.464064396911182E-4    9.590696948663352E-1   -1.100195652333534E-1
 8.300000000000000E7    -8.863442489586421E-1    1.229591140944916E-1    3.523778613665014E-4   -2.644473685509349E-4    1.481185495663121E-4    3.272077954050238E-4    9.591020138594787E-1   -1.136296673983672E-1
 8.400000000000000E7    -8.857591540033286E-1    1.206840703408806E-1    4.763075578790035E-4   -1.010533822750406E-5    4.563779096788065E-6    3.668703276612687E-6    9.600991746304542E-1   -1.146334571567493E-1
 8.500000000000000E7    -8.832251900865175E-1    1.239126248857120E-1   -4.533375229559255E-4   -2.284691920383887E-4    6.806499666829893E-4   -7.527217990798304E-4    9.562505267039585E-1   -1.131608528626730E-1
 8.600000000000000E7    -8.862057757429100E-1    1.343690457776675E-1    4.786635189995136E-4   -2.103430377625199E-4   -1.086914485447164E-4   -2.666382291588399E-4    9.635246306706902E-1   -1.164900711695829E-1
 8.700000000000000E7    -8.864772375081630E-1    1.306445929894322E-1    5.396798910102886E-5    1.903347589579383E-4   -2.802330719516982E-4   -6.640085752137684E-5    9.567666261771427E-1   -1.160132652657254E-1
 8.800000000000000E7    -8.818802493923259E-1    1.308637746044992E-1   -2.089929061469299E-4   -4.386284735278040E-4    3.292981996169931E-4    7.215516599614959E-4    9.513133243674400E-1   -1.279543529195091E-1
 8.900000000000000E7    -8.787495369363919E-1    1.255963697575631E-1    3.275293524839874E-4   -7.025916660620636E-4    5.647359250610887E-4   -9.728785527472989E-4    9.535080788975029E-1   -1.219997942631612E-1
 9.000000000000000E7    -8.839693457489858E-1    1.379078326510671E-1   -7.531076989745697E-4   -7.738579176669827E-4    7.893907199486420E-5    2.525013760283225E-4    9.566540703400294E-1   -1.212296699740650E-1
 9.100000000000000E7    -8.858806619871386E-1    1.345029726515154E-1    2.257491515415737E-4    5.903047715655364E-5    4.327906318955829E-4    2.655491512521831E-4    9.569253661036152E-1   -1.224217706195782E-1
