#  HZ   S   RI   R     50.00 
! Rohde & Schwarz Vector Network Analyzer 
! Rohde-Schwarz,ZNBT8-20Port,1318700624101681,3.50
! Created: UTC 7/15/2025, 2:13:30 PM
! freq[Hz]                re:S1010                im:S1010                re:S0310                im:S0310                re:S1003                im:S1003                re:S33                  im:S33
 1.000000000000000E6    -9.056873333237022E-1   -1.579723236508031E-3   -5.826733708404118E-5   -1.153197277386045E-4   -1.402228402196131E-4   -8.119534148354196E-5    5.613047392107166E-1    9.887166884555985E-3
 2.000000000000000E6    -8.988876473764391E-1   -7.897580235353174E-3   -4.746679498064599E-5    1.412068068710981E-4    3.675893966620157E-4   -1.020618599997237E-4    5.636818823281476E-1    6.166198421509781E-3
 3.000000000000000E6    -9.065684329348935E-1   -1.042940183146490E-2   -2.505854338087328E-4    9.958950474676267E-5   -4.350384475607949E-5   -1.585033645445080E-4    5.602651657004188E-1    9.006334695459075E-3
 4.000000000000000E6    -9.034497869901700E-1   -5.553713682705760E-3   -1.506277264886746E-4   -2.372273066334529E-5   -1.110775410107603E-4   -3.361499798672118E-4    5.682432173902514E-1    6.135131942769539E-3
 5.000000000000000E6    -8.979663201551719E-1   -1.923132703522216E-3    7.510850298789252E-5   -2.868773278477527E-4    4.375117395283104E-4   -6.362447134806342E-5    5.661355339726912E-1    5.862421432517255E-3
 6.000000000000000E6    -8.961934697110611E-1    6.794251114989750E-3   -1.431152729030960E-4    2.964177340328202E-4    3.528919014019149E-4   -1.043167671500408E-4    5.627201737905183E-1    2.237211387570964E-4
 7.000000000000000E6    -9.064051314763484E-1    2.810224758008834E-3   -2.008415623142510E-5   -3.512448678399850E-5   -2.734018198734086E-4   -4.407914400103757E-6    5.599144742881570E-1   -3.850767718481070E-3
 8.000000000000000E6    -9.007509713826750E-1    1.046994939574231E-2    4.692040265202933E-5    6.823520213062371E-6    1.470002475003415E-4   -1.207128707158104E-4    5.665792570357824E-1   -2.057440046477177E-3
 9.000000000000000E6    -9.072398113787066E-1    1.917733174429875E-3    1.217004799898356E-4   -2.873480373298709E-4    1.538211618540810E-5   -9.799662363347299E-5    5.631389185563238E-1   -4.805878569446160E-3
 1.000000000000000E7    -8.912553918243686E-1    2.389368993540357E-2    4.878082874429649E-5   -2.186000902562207E-4    1.086578874315753E-5   -3.498638914089243E-4    5.678798229748868E-1   -1.170510347322452E-2
 1.100000000000000E7    -8.998370124921895E-1    2.337234196079751E-2    5.309131791147644E-5    1.755895197229154E-5   -2.035991831347000E-4   -1.910562807217052E-5    5.587677766848714E-1   -1.417203105037512E-2
 1.200000000000000E7    -8.953866242137689E-1    1.265294836357691E-2   -8.695833998659784E-5    4.066053018168036E-5    1.839311424166268E-4    2.952599679210645E-4    5.666583295689861E-1   -5.558329804195464E-3
 1.300000000000000E7    -8.987313902766516E-1    2.625316739565021E-2   -1.517979481014319E-4    1.257134930764859E-4    3.637242412580338E-4   -1.271945327154669E-4    5.616817696507194E-1   -1.155886184579483E-2
 1.400000000000000E7    -9.092212351152643E-1    3.666432663878119E-2    1.586273018268009E-5   -1.217669332723860E-5   -2.005820465233722E-4   -1.141902998576843E-5    5.687166780394931E-1   -1.118514050137926E-2
 1.500000000000000E7    -8.991844158191601E-1    3.001865714810995E-2    1.412159813789024E-5   -7.990404266753730E-5    4.587992102598471E-5   -1.141953717662487E-4    5.592598571252075E-1   -1.280103934476169E-2
 1.600000000000000E7    -9.046868675858902E-1    3.349686377777217E-2    1.334175380455880E-4    2.172839121272687E-5   -1.589426115012807E-4    1.605759254027119E-4    5.606543070674918E-1   -1.329318080029624E-2
 1.700000000000000E7    -8.977527279894806E-1    3.271414957559551E-2    2.465765677503707E-4   -1.643095839459347E-4    2.469783441959739E-4   -1.529674629274632E-4    5.656441130460983E-1   -1.772233743988540E-2
 1.800000000000000E7    -9.049610387460805E-1    2.979207286055286E-2    7.530544553184164E-5    3.332275206571222E-4    2.437710954945847E-5    6.062211590673238E-5    5.670190039926755E-1   -1.810808505521578E-2
 1.900000000000000E7    -8.978843387785270E-1    2.749002233766562E-2   -1.635113085360639E-4    1.179570874073966E-5    1.509957994641163E-4    3.192409942511692E-4    5.622276742222855E-1   -1.824818072143313E-2
 2.000000000000000E7    -9.028630531361537E-1    3.383565836536354E-2    1.016546580450340E-4   -9.044376010453578E-5    6.491071362206548E-5    3.039794897941610E-4    5.643154133938914E-1   -1.258580086839507E-2
 2.100000000000000E7    -8.921276001454281E-1    3.275241100312209E-2   -1.255882368144073E-4    1.405366727607663E-4   -3.659406430607189E-4   -4.112152186168004E-4    5.642256871428716E-1   -1.529522265414208E-2
 2.200000000000000E7    -8.933930829091263E-1    3.402498563353771E-2    1.571262832074744E-4   -1.570953094514775E-4   -5.700630430657173E-4   -2.576924354107364E-4    5.665179700650618E-1   -1.757156720007472E-2
 2.300000000000000E7    -8.969250657702570E-1    2.595850364778112E-2   -4.191615368032733E-4   -9.343380837201978E-5    1.051774936203149E-4   -2.151335833312520E-4    5.603112568945011E-1   -1.689503983522238E-2
 2.400000000000000E7    -8.898420700384790E-1    4.150892471953156E-2   -5.477741964561404E-5    1.820387653227160E-4   -3.147061188345196E-4   -2.308394141402132E-4    5.558429730927923E-1   -7.926624922340801E-3
 2.500000000000000E7    -8.793628438411547E-1    3.574935383505775E-2   -5.625953403455583E-4    1.065023088251334E-4    2.200489359186348E-4    5.086989023860210E-5    5.583637393290838E-1   -3.206046078817559E-2
 2.600000000000000E7    -9.000976502140192E-1    4.401708478571694E-2   -4.372147786877364E-4    1.771793645105401E-4   -4.213806062449155E-4    3.652682086287203E-4    5.624668974674799E-1   -2.062211174021370E-2
 2.700000000000000E7    -9.021970105678171E-1    4.319166031023498E-2   -5.094993716094356E-4   -4.477418066510110E-4    9.005240367161653E-4    2.868281264037941E-4    5.649449676787552E-1   -1.883347615431980E-2
 2.800000000000000E7    -8.970139251582532E-1    4.554708787710099E-2   -9.373609733302427E-5   -2.660246977866805E-4   -6.433625169665910E-4   -3.549006466932030E-4    5.604484207160020E-1   -1.947507003692715E-2
 2.900000000000000E7    -8.955477853167868E-1    4.975007695165888E-2   -1.844668602564595E-4   -3.351329244792669E-4    5.819165828779892E-4   -1.967671291272661E-5    5.604420698459039E-1   -2.642139430050246E-2
 3.000000000000000E7    -9.038626975312606E-1    5.015134720460094E-2    3.223959092897522E-4    4.059579014253729E-4    1.340859219202572E-4    2.991405180099772E-4    5.603983596459690E-1   -2.514352506182854E-2
 3.100000000000000E7    -8.958437376498973E-1    4.353336744058972E-2    1.538594047306949E-4   -1.894177843978270E-4    3.810930935525254E-4   -1.112042445716654E-4    5.527561340868229E-1   -2.451867992369513E-2
 3.200000000000000E7    -8.984908429347961E-1    4.707734466118075E-2   -5.444244357515578E-4   -6.172758958067031E-5    3.912343598921752E-4   -1.318558190561797E-4    5.538764580724690E-1   -2.272775049384725E-2
 3.300000000000000E7    -8.965885577089775E-1    5.321861932594620E-2    3.271938942487609E-5    1.366165661189131E-4    8.396181539271920E-4   -2.183805375676245E-4    5.595029695837147E-1   -3.016198746781714E-2
 3.400000000000000E7    -8.979592485603410E-1    4.810542344265215E-2   -3.391825548730440E-4    1.981145191219028E-4   -2.337798047229012E-4   -1.594750412955595E-4    5.622068057835689E-1   -2.868167967670963E-2
 3.500000000000000E7    -8.974999165049098E-1    5.780200555687991E-2    1.276596989826609E-4   -3.820512289505271E-4    1.100892366552996E-4   -4.678523895355953E-4    5.618576815858894E-1   -2.546699592271830E-2
 3.600000000000000E7    -9.003405965372870E-1    6.146762657938672E-2   -1.521192099512257E-5    5.637810000125237E-4    1.886665767156106E-5   -7.622036806742177E-5    5.564339594872842E-1   -3.118437612431896E-2
 3.700000000000000E7    -8.982308504477079E-1    5.666703963277262E-2    2.405614779841102E-4   -5.405039599967094E-5    3.284581985440817E-4    2.078030891031649E-4    5.612554486063395E-1   -3.385193832240351E-2
 3.800000000000000E7    -9.012889297700152E-1    5.735783621363464E-2   -7.315973451192481E-6   -7.395490705402819E-4   -2.266089170749159E-4    6.422385620842193E-4    5.609457388191593E-1   -3.444643807267359E-2
 3.900000000000000E7    -8.953800630037020E-1    6.192580061194076E-2    2.937604326878372E-4    2.652432949338588E-4    4.279215359394218E-4   -6.915170496108057E-4    5.590260093256102E-1   -3.621620774427225E-2
 4.000000000000000E7    -8.915444469772116E-1    6.572147011080882E-2   -1.609083047834730E-4    5.217813339633728E-4   -5.069948146124664E-4   -3.561045080737058E-4    5.563526850927838E-1   -3.563896744184729E-2
 4.100000000000000E7    -9.007388937447194E-1    5.959587796912848E-2    4.575002167685193E-4   -7.477276143010551E-5    2.009001140423517E-4    4.524119183496939E-5    5.613246294331067E-1   -3.153285676589096E-2
 4.200000000000000E7    -8.952633018939572E-1    5.817424051833893E-2   -5.731494869681504E-4    2.231523381161048E-4   -3.215733610944401E-4    1.782047868717766E-4    5.594704229599913E-1   -3.030782553778831E-2
 4.300000000000000E7    -8.914975432905120E-1    7.053507973383452E-2    9.970341326400793E-5    4.660881099776225E-4    5.037477627615224E-4   -1.981558741626698E-4    5.622600979504825E-1   -3.350614996041226E-2
 4.400000000000000E7    -8.931368316430643E-1    7.198928487788649E-2   -4.498236018230783E-4    4.804101004838575E-6    1.090596662863400E-3   -3.967522677697888E-4    5.622921023867966E-1   -3.436009501602223E-2
 4.500000000000000E7    -8.932823532386999E-1    6.688272976427406E-2    1.687831494653715E-4   -3.271762630257843E-4   -3.795017838110725E-5    4.582398950166510E-4    5.561768512795878E-1   -3.263990193832809E-2
 4.600000000000000E7    -8.946124856000494E-1    7.462236777746872E-2    9.109918066222001E-5   -3.165666358119516E-5   -3.563685123771404E-4    3.376719538609642E-4    5.643939363153393E-1   -3.987731029436054E-2
 4.700000000000000E7    -8.928023470552752E-1    7.736714917476957E-2    1.373587014513949E-4   -2.504707520817072E-4   -3.459595497561526E-4   -2.651974630603704E-4    5.567504188108692E-1   -3.856509465323409E-2
 4.800000000000000E7    -9.015569148663540E-1    7.570321981357836E-2    1.985342477823826E-4    2.724846845384010E-5    8.848454233357493E-5   -3.926556982344429E-5    5.582508995067167E-1   -3.589529727513993E-2
 4.900000000000000E7    -9.005948465173094E-1    7.781753243164710E-2    7.530752513998179E-4   -2.632850487640573E-4   -4.996706597337196E-5   -6.296747468662796E-5    5.590026730888844E-1   -4.009433101260105E-2
 5.000000000000000E7    -8.960162289784822E-1    7.907576875439307E-2    7.988700273854698E-5    1.634303729062938E-4   -7.614795962351912E-4    7.090250850004941E-5    5.537079153428452E-1   -4.038312600314608E-2
 5.100000000000000E7    -8.934675219458220E-1    8.196492812910278E-2    6.055381702125735E-4    4.021351736856008E-4   -1.802999799256271E-4    2.241020359860037E-4    5.535684468568760E-1   -4.175453411920908E-2
 5.200000000000000E7    -8.915960449833327E-1    8.230443782264912E-2   -7.386972646970912E-5    5.160053010244163E-5   -7.228062101765039E-4   -5.057875060319510E-4    5.633017601130338E-1   -3.910138568819390E-2
 5.300000000000000E7    -8.938421832137832E-1    8.485140697346143E-2   -9.489893686534948E-5   -3.740748864604273E-5   -5.436873216794613E-4   -3.268527767510764E-4    5.564518786018288E-1   -4.279356576360841E-2
 5.400000000000000E7    -8.922076826601373E-1    8.443623632727702E-2    3.909272634997652E-4    4.389482269703533E-4    1.504284091643723E-4    6.603490662310454E-5    5.605856466894390E-1   -5.069903110540255E-2
 5.500000000000000E7    -8.918722911946247E-1    8.706725599721132E-2    2.870865488847116E-5    2.695993805008023E-4   -7.425261595014581E-5   -6.524741071509730E-4    5.603811230064161E-1   -4.669195749148170E-2
 5.600000000000000E7    -8.980908342534932E-1    8.743432047000810E-2   -1.252537535990272E-4   -2.401568350786202E-4    2.107586132742854E-4   -4.566911845426475E-4    5.556825061720838E-1   -4.427416482575525E-2
 5.700000000000000E7    -8.947916533245958E-1    8.923310146787229E-2   -4.912691449667597E-4   -8.013736078438874E-4    1.174794644371385E-5   -1.342426060169769E-4    5.582741174011971E-1   -4.830257661352556E-2
 5.800000000000000E7    -8.913298221533102E-1    9.039805154261278E-2    2.383808270594559E-4   -3.019018822647381E-4    4.040887953382264E-4    4.446655973483965E-4    5.581135417789745E-1   -5.099688850070947E-2
 5.900000000000000E7    -8.874658611420452E-1    9.375084681943985E-2    7.847459518255432E-5    2.760778722874780E-4    3.095478740758448E-4    6.459124648211794E-4    5.541696560163847E-1   -4.732510593477027E-2
 6.000000000000000E7    -8.912687221577437E-1    9.412357567273501E-2    4.499221569380698E-4    2.833820785684953E-4    3.251612024577474E-4    4.511177746456582E-4    5.596540352612489E-1   -4.767521082010004E-2
 6.100000000000000E7    -8.894345625174126E-1    9.058517045194386E-2   -3.870464922789896E-4   -2.718594958580157E-4    7.441042854644890E-4    1.236128627161719E-4    5.565165223804240E-1   -5.317922777432454E-2
 6.200000000000000E7    -8.866109896920221E-1    9.990825541337779E-2   -3.538220091309657E-5   -7.177719902115151E-4   -1.734428277169055E-4   -1.107782511411220E-4    5.565686719949148E-1   -4.678885273578486E-2
 6.300000000000000E7    -8.924368922954169E-1    9.703125227746145E-2    6.195159515107563E-4    4.949389025307565E-4   -2.205615222880218E-4   -1.878426279669684E-4    5.566844360588269E-1   -5.351898335754173E-2
 6.400000000000000E7    -8.886329626328371E-1    9.425352648034656E-2   -3.410063240257209E-4   -5.021518511739920E-4    2.692878028434596E-4   -6.128289949921970E-5    5.576730124970455E-1   -5.441268046709499E-2
 6.500000000000000E7    -8.869263042081954E-1    1.007207943816742E-1   -1.416323178042125E-4    2.343092478615765E-4   -4.420000235138359E-4   -3.356569384974815E-4    5.539033067154641E-1   -5.230810226287701E-2
 6.600000000000000E7    -8.938966756159222E-1    1.001839213798002E-1   -1.857550511226714E-4   -4.520600509082649E-4    5.485476277112952E-4    1.369116537295297E-4    5.569215115531579E-1   -5.851284281451071E-2
 6.700000000000000E7    -8.886699327233030E-1    1.021305632684414E-1   -7.046129730786843E-5   -6.182378033576666E-5    7.555706562948742E-5    1.508531787950601E-4    5.571897499339590E-1   -5.918803806094962E-2
 6.800000000000000E7    -8.882687297872944E-1    1.027373263055208E-1    1.325558091758426E-4    4.161336443497950E-4    3.082742797613852E-4    2.870781470046380E-4    5.575994491039237E-1   -5.405659828402365E-2
 6.900000000000000E7    -8.894352639201376E-1    1.012941976082951E-1   -1.580762214232625E-4    1.836703969297173E-4   -1.224627825003829E-4   -1.008189649443255E-4    5.538819599691789E-1   -5.508659938207110E-2
 7.000000000000000E7    -8.887667017850807E-1    1.023534244547773E-1    2.184590580739687E-5   -5.139996854028933E-5   -4.534312116752041E-4   -2.181235992940358E-4    5.554919260096082E-1   -5.894544252605358E-2
 7.100000000000000E7    -8.897639647662826E-1    1.057589797953747E-1   -6.431515806697687E-4    2.536724795958006E-4    5.952068335345513E-4   -1.619047973331670E-4    5.563566351828314E-1   -5.539018731034234E-2
 7.200000000000000E7    -8.844935948707144E-1    1.053122034177909E-1    2.239384014263025E-4    8.471877204386247E-5    8.237682241677613E-4    3.061931123401167E-4    5.604942045464143E-1   -5.705931877751258E-2
 7.300000000000000E7    -8.891903718897362E-1    1.104432992608004E-1    4.706344487255970E-4   -5.057830941790706E-4   -7.909011607098554E-5    9.681229458309054E-4    5.587374246318969E-1   -5.654324918815741E-2
 7.400000000000000E7    -8.893350341346600E-1    1.129456374360393E-1   -6.697151392101121E-5    5.481587739159271E-4   -7.825706678390559E-4    4.319406752341207E-4    5.566431804451407E-1   -6.302533980296274E-2
 7.500000000000000E7    -8.860201627070516E-1    1.110918752548318E-1   -2.298729642387999E-4    9.381663031322418E-5    8.634362547346803E-5   -2.405900461378857E-4    5.550109034095065E-1   -6.328786197424448E-2
 7.600000000000000E7    -8.903819274263668E-1    1.149816796125054E-1   -4.299697043805382E-4    9.123483949812571E-6   -4.148098660452141E-4   -9.871933886074835E-5    5.550113482144813E-1   -6.055713130528854E-2
 7.700000000000000E7    -8.873928246474694E-1    1.174528062536912E-1   -1.905361731254117E-4   -3.002506238487845E-4   -4.593244711885234E-4   -6.817599341632032E-4    5.570447865516993E-1   -6.243469108503707E-2
 7.800000000000000E7    -8.869540201604227E-1    1.236213347622701E-1   -2.972461353002051E-4    1.632286293965167E-5   -1.691444191804669E-4    3.116126078718180E-4    5.516046936276237E-1   -6.374807537950455E-2
 7.900000000000000E7    -8.833820013742751E-1    1.160011788461146E-1   -4.106705673347655E-4   -2.820989803755009E-4    6.714571732940210E-5    1.056787582033726E-4    5.548172957677846E-1   -6.198583307743786E-2
 8.000000000000000E7    -8.855795626721179E-1    1.203960400889277E-1    4.494927555407924E-5    1.459978993906806E-4    5.297575892889864E-4    4.871217604233737E-4    5.593712972828550E-1   -6.471893140421701E-2
 8.100000000000000E7    -8.791948244624797E-1    1.205713651447848E-1    8.441399566458894E-5    4.056543168295645E-4    2.547660635169894E-4   -1.773641867071961E-4    5.533550168447159E-1   -6.509077058223353E-2
 8.200000000000000E7    -8.827875682108164E-1    1.218949864318097E-1   -7.775379909766902E-4    1.323286595996771E-5    4.690400774586945E-4   -4.443074263864012E-4    5.537357185502736E-1   -6.878081200949825E-2
 8.300000000000000E7    -8.836983728488369E-1    1.204514034834556E-1    3.050314573772482E-5   -1.337076353550245E-4   -6.811555333960150E-4    2.669938751434690E-5    5.522007286524228E-1   -6.644007294856812E-2
 8.400000000000000E7    -8.834022579073599E-1    1.223057033492203E-1   -1.307910186830813E-4    2.800759754188241E-5   -1.808335866839796E-4    2.351686542646582E-4    5.554169030821257E-1   -6.988637315432161E-2
 8.500000000000000E7    -8.837151621331119E-1    1.217961283694197E-1   -3.481060605234948E-4    2.040076028341855E-4    8.625317229807538E-4    3.499299971129591E-4    5.515592011811429E-1   -6.538163183145665E-2
 8.600000000000000E7    -8.819197540168807E-1    1.286972090283775E-1   -9.453674645689711E-5    1.336744330102360E-4   -5.342999560905168E-4   -6.680223055942780E-4    5.546123059936954E-1   -6.923459584674924E-2
 8.700000000000000E7    -8.822367423448216E-1    1.290301025674025E-1    5.755056047134058E-5    4.924355609896765E-4   -6.014553122475853E-5    2.529912487172778E-5    5.511920554740628E-1   -6.745870224242527E-2
 8.800000000000000E7    -8.850970418395463E-1    1.281097343684910E-1   -1.195535636797077E-4   -4.401500458608837E-4   -7.825150868472173E-4    1.423205095291688E-4    5.537589217445480E-1   -7.059896910523203E-2
 8.900000000000000E7    -8.799127096821469E-1    1.340178847848472E-1    2.231339467405812E-5    2.482837954801392E-4    2.274312592629531E-4   -4.303466754551467E-4    5.549986702199756E-1   -6.859244177359183E-2
 9.000000000000000E7    -8.882250834764190E-1    1.319168389982207E-1    5.859053834170088E-4   -5.296210741195746E-4   -4.244247467863073E-4    2.735484826439406E-4    5.507075694467384E-1   -7.507028276973580E-2
 9.100000000000000E7    -8.854701483497674E-1    1.390171371701114E-1   -6.651575831463904E-4    8.766245342234796E-4   -6.595797156255843E-4   -2.523728148040689E-4    5.517507278441613E-1   -7.743887576820355E-2
