#  HZ   S   RI   R     50.00 
! Rohde & Schwarz Vector Network Analyzer 
! Rohde-Schwarz,ZNBT8-20Port,1318700624101681,3.50
! Created: UTC 7/15/2025, 2:07:57 PM
! freq[Hz]                re:S1010                im:S1010                re:S0510                im:S0510                re:S1005                im:S1005                re:S55                  im:S55
 1.000000000000000E6    -8.209416128465356E-1   -6.261482854035789E-3    8.410985290177686E-5    4.662890838077495E-5    5.130756255706261E-6    8.541497432500450E-5    6.748745906458811E-1    1.710653828551351E-2
 2.000000000000000E6    -8.180544787719751E-1   -9.015557573952592E-3   -6.158475428568725E-5   -5.796956865415776E-5    3.746670466433370E-5   -1.677372600597513E-4    6.862274883005056E-1    1.606559278147830E-3
 3.000000000000000E6    -8.246511684038783E-1   -3.615532003732026E-3   -1.095072601160212E-4   -2.164755729476309E-4    1.604783024974111E-4   -2.406681937927728E-5    6.902581595192331E-1    1.630089250847854E-2
 4.000000000000000E6    -8.278543550006139E-1    1.466269491640497E-2   -7.110967126351930E-5   -1.198015758551474E-4   -5.061693233166543E-4    1.627064679937636E-4    6.841774219506018E-1    1.396676391496024E-3
 5.000000000000000E6    -8.245496924951575E-1    1.203702496495368E-2    1.909421726435492E-4    4.693281183273967E-5    1.247174871600124E-4   -2.760877103641231E-4    6.772096992321494E-1    6.353489001884909E-4
 6.000000000000000E6    -8.332157477322748E-1    9.487578773673294E-3    8.611952015951624E-5   -4.012500070193502E-5   -2.021035660018648E-4    7.692210412265780E-5    6.819588983606765E-1   -4.366786332650424E-3
 7.000000000000000E6    -8.265704292328701E-1    2.489460022419282E-2    9.861315634803505E-5    1.621016311205625E-5   -1.649997892548982E-4    2.810170218723655E-5    6.809728172330347E-1   -7.433284528995714E-3
 8.000000000000000E6    -8.196041951176603E-1    2.422866198656600E-2    1.618235389904668E-4    7.434088032898417E-5    5.851381182912392E-5    1.161079670050453E-4    6.838873999167561E-1   -9.554057722692725E-3
 9.000000000000000E6    -8.292370196385399E-1    4.152471916480006E-2   -1.490509603517961E-4    2.504870506670302E-5    1.701152248360842E-4    7.694990994711607E-5    6.804627087793059E-1   -1.466826743135132E-2
 1.000000000000000E7    -8.226738646377356E-1    4.815294077723895E-2    3.040274845845851E-5    1.571924825414095E-4    5.210463675517383E-5    1.846291588159896E-4    6.796779272483726E-1   -1.157393744535492E-2
 1.100000000000000E7    -8.212904878902730E-1    4.145562967565281E-2   -2.110156331465964E-4   -1.736620157743953E-4   -3.916347769224472E-6    1.124517085121826E-4    6.752147010141949E-1   -1.231507315721751E-2
 1.200000000000000E7    -8.224535804992830E-1    4.991375392113178E-2   -5.428391672649051E-4    1.213753777745422E-4    3.713823473498613E-4   -2.393463672207795E-6    6.801522797653119E-1   -1.447207628621832E-2
 1.300000000000000E7    -8.188990494568141E-1    5.012492298236342E-2   -1.499701873003833E-4    1.211472721845888E-4    6.506733961543719E-5   -2.180088211601030E-4    6.842720736842217E-1   -1.943660814673387E-2
 1.400000000000000E7    -8.260867604218365E-1    5.617238947196547E-2   -2.510728187865289E-4   -5.030421003351886E-5    2.255567089590954E-4   -2.318819595184570E-4    6.816735726502301E-1   -1.857422793189769E-2
 1.500000000000000E7    -8.207924606468883E-1    5.551840476582279E-2    1.904017823935286E-4   -2.129928691905025E-4    3.163753077302059E-4    2.485635379446406E-4    6.799564539215359E-1   -8.456816946011133E-3
 1.600000000000000E7    -8.239327289862096E-1    7.362014698517987E-2   -1.326742122057246E-4   -2.308046898774097E-4    2.391282694661411E-4   -1.564936901363346E-4    6.789773946865743E-1   -2.214815821943543E-2
 1.700000000000000E7    -8.219432335924768E-1    7.836408100998817E-2   -2.316760937362132E-5    3.039767836552528E-4   -1.599696340338182E-4    3.253604123100321E-4    6.784206747518248E-1   -1.899543853379929E-2
 1.800000000000000E7    -8.253785813986884E-1    7.646581444213578E-2   -3.200886833270197E-4    5.623357567567307E-5   -2.807502435054310E-4    3.452340571916472E-4    6.780633175676140E-1   -2.390700968778633E-2
 1.900000000000000E7    -8.158227206549685E-1    8.488189592212496E-2    2.150597898873590E-4   -1.846594017455383E-4   -1.104729979860925E-4   -1.872107105604030E-5    6.831695708552971E-1   -1.769201412023967E-2
 2.000000000000000E7    -8.165089590481459E-1    9.132617408709712E-2   -7.982646483914603E-6    2.392391930244013E-4    6.056562055400067E-4    6.695839639072752E-5    6.782484161374970E-1   -2.507153098142809E-2
 2.100000000000000E7    -8.222994177496817E-1    8.879694539051705E-2    2.118762095218918E-4    1.247376507268763E-5   -4.781394102259371E-5    4.299448738755778E-5    6.792585730115323E-1   -3.195827636131390E-2
 2.200000000000000E7    -8.221739525083808E-1    8.668948915338150E-2    4.636371289603230E-4   -3.351479649608392E-4    4.062329105106433E-4   -4.079231330333749E-4    6.776630387623118E-1   -2.851079068760471E-2
 2.300000000000000E7    -8.121904023246173E-1    8.965803452757044E-2   -1.134774276874112E-4   -2.576981999900759E-4   -1.764295468263747E-4    2.933895990996043E-4    6.774905723842211E-1   -2.391340330737938E-2
 2.400000000000000E7    -8.106297542210731E-1    8.849040022240093E-2   -3.167423288694431E-4   -2.135905383768169E-4    5.836912380537463E-5    2.309120321802710E-4    6.825280546154989E-1   -2.423480976700132E-2
 2.500000000000000E7    -8.083146103659434E-1    1.171166688919407E-1    2.190140253035682E-5    3.486363460878065E-5   -7.353150425418852E-5   -2.229637077305063E-4    6.783359337230829E-1   -2.027820142106923E-2
 2.600000000000000E7    -8.147170878804161E-1    1.054161862016842E-1   -2.341266130078407E-5   -1.038056324259346E-4   -4.514075698908363E-4   -1.667586718543885E-4    6.773036316382006E-1   -1.527250788993593E-2
 2.700000000000000E7    -8.209583054594164E-1    1.088108516352245E-1   -8.774378134048926E-5    1.529332556657179E-4    2.240446640126837E-4   -4.255023510628457E-4    6.774233285306126E-1   -1.670883296957586E-2
 2.800000000000000E7    -8.119217067385792E-1    1.153973782939458E-1   -4.028936554547412E-5    2.351446417401789E-4   -2.091000663736754E-4   -4.617060355761203E-4    6.766517654897574E-1   -1.888760745936950E-2
 2.900000000000000E7    -8.132677227695494E-1    1.212326999933729E-1    5.528875086974022E-4   -8.518517163591767E-4    3.411053883927527E-4   -2.057736319587189E-4    6.774902786119864E-1   -2.137459844183435E-2
 3.000000000000000E7    -8.103507608765950E-1    1.255507032289884E-1    4.981949593025518E-4   -4.032700527437644E-4    2.782613058372029E-4    1.867874243387531E-4    6.741559337535735E-1   -2.227168633164224E-2
 3.100000000000000E7    -8.131828813665505E-1    1.286353986981353E-1    2.635136013105630E-4    7.198693953006167E-4   -8.502358760657403E-6    2.463985219128684E-4    6.772900867789943E-1   -2.485253442190566E-2
 3.200000000000000E7    -8.095349041847001E-1    1.278069754986955E-1   -1.376861860779676E-5    4.452215565102638E-4   -3.062424993416255E-4   -3.740285244838272E-4    6.755217336944612E-1   -2.035962093909785E-2
 3.300000000000000E7    -8.077993206697995E-1    1.355651425582951E-1   -5.549880412126916E-4   -2.689180305102095E-4   -5.877746258154081E-4   -4.200255576393594E-4    6.787948497740781E-1   -1.782728603137169E-2
 3.400000000000000E7    -8.101201091346898E-1    1.360418800513579E-1    3.352728012710012E-4    1.321763227997157E-4    4.494597446549479E-4   -1.106992616313886E-5    6.755857530233121E-1   -2.331511617229732E-2
 3.500000000000000E7    -8.123619139011875E-1    1.439394051097000E-1    1.211480273320947E-4    5.697435880573936E-4   -4.860371223061445E-5    2.712232157738000E-4    6.793389385192458E-1   -2.240237556804246E-2
 3.600000000000000E7    -8.077454968256077E-1    1.530827439402709E-1   -4.414902591391620E-4   -4.525192853718648E-4    1.768186210319989E-4    2.535250611870283E-5    6.756719001008413E-1   -2.403225104891917E-2
 3.700000000000000E7    -8.118435020911161E-1    1.476154383557218E-1    3.720720787377281E-4    1.724701593681698E-4    3.388378147971490E-4   -3.041941140730231E-4    6.745719165489786E-1   -2.209943406337104E-2
 3.800000000000000E7    -8.107804883245812E-1    1.570736581800504E-1   -3.049268231520199E-4    1.813413470910970E-4   -1.269966306046586E-4   -9.402279433710403E-5    6.726048163686317E-1   -2.639405435560981E-2
 3.900000000000000E7    -8.047658925045437E-1    1.547792009103245E-1    9.127003007289427E-5   -4.295333285965137E-4   -7.979338033777361E-4    2.691956645911483E-4    6.714700962989102E-1   -3.206689554617366E-2
 4.000000000000000E7    -8.088909543462981E-1    1.611067494460268E-1    1.581612222411759E-4    1.312804572316019E-5   -2.124795344580619E-5    3.494855092492887E-4    6.727973237567791E-1   -2.732127090634410E-2
 4.100000000000000E7    -8.063256922280218E-1    1.670682361916805E-1   -2.660926050650711E-4   -6.344468899747346E-4   -1.250553402221378E-4    1.326093672505644E-4    6.752840334304767E-1   -3.253507392893336E-2
 4.200000000000000E7    -8.035574990265330E-1    1.745018411946545E-1    1.453811694531823E-4    2.327578480249901E-4   -1.714902783578155E-5   -3.041770447264525E-4    6.731357834661992E-1   -3.193612665755917E-2
 4.300000000000000E7    -8.013391871627628E-1    1.759074747101954E-1    1.620739088904076E-4   -2.159513728158251E-4    2.015834844018974E-4    4.511371160506187E-4    6.726624829792519E-1   -2.755224683764705E-2
 4.400000000000000E7    -7.966969626206638E-1    1.768699541364432E-1   -7.130330773598742E-4   -4.192115747502732E-4   -1.276176834862450E-4   -3.001911312218084E-4    6.753414960786308E-1   -3.654993637896600E-2
 4.500000000000000E7    -8.024562484557342E-1    1.852892765450868E-1    1.032350800326623E-3    9.915342003177854E-4    1.028637855167527E-4    3.419059959399676E-4    6.701856407288569E-1   -3.760536050825497E-2
 4.600000000000000E7    -7.935313203019408E-1    1.857181516725602E-1   -1.493689276268342E-5   -5.976407217727347E-4   -8.552958346155397E-5   -8.776782371590850E-5    6.715427381183011E-1   -3.432215985861084E-2
 4.700000000000000E7    -8.002136996168022E-1    1.937793053939150E-1    4.350861576024373E-6    3.359652954149699E-4   -1.087746743637024E-4    4.095165056747465E-4    6.724722626060526E-1   -3.479120332819385E-2
 4.800000000000000E7    -7.970159656369867E-1    1.869534037339863E-1    1.823730072278019E-4    4.534904612591211E-4   -3.560317527239343E-4    1.063335788945695E-4    6.764433854497052E-1   -3.979954058414351E-2
 4.900000000000000E7    -8.026317653317392E-1    1.941556369072738E-1    3.668201101571970E-4    4.991638383594879E-4    5.708753957841304E-5    2.253177475931413E-4    6.726302990230077E-1   -3.911332112135948E-2
 5.000000000000000E7    -7.944520117376264E-1    2.005288487214297E-1   -5.228594512640109E-5   -7.835837878877065E-5   -1.155068126083316E-4    1.020883771714630E-4    6.711796583243933E-1   -4.133555163885494E-2
 5.100000000000000E7    -7.930177945725957E-1    2.023356958318754E-1   -1.293976438600650E-4    4.499206498562284E-4    4.870893729856607E-4   -3.526391619934279E-4    6.688074622397646E-1   -3.731537505262127E-2
 5.200000000000000E7    -7.924083598511519E-1    2.078137706776944E-1    8.677775849025219E-5   -2.017278237510108E-4   -7.595566259441617E-6    3.091852282502797E-4    6.710174619409408E-1   -4.744514469469832E-2
 5.300000000000000E7    -7.924135302170178E-1    2.178661271970655E-1    9.907729898823682E-5   -9.233023250053084E-5   -1.295769730848546E-4   -1.428880068528817E-4    6.736803007165429E-1   -4.674614727000662E-2
 5.400000000000000E7    -7.878029808702361E-1    2.163750428592215E-1    8.405755797555533E-5   -1.602049853624261E-4   -3.254359176678554E-4   -2.004276599757795E-4    6.708844550121482E-1   -4.574801144747893E-2
 5.500000000000000E7    -7.911308630687313E-1    2.201203687369532E-1    2.169162953549181E-4   -6.595155365875544E-4    4.833274426393462E-4    6.882067878467170E-4    6.683974099072435E-1   -4.768318017529734E-2
 5.600000000000000E7    -7.894255475110343E-1    2.305602537627325E-1   -5.602683531665913E-5    3.699958458594286E-4    1.181375434010842E-4    1.128247672058872E-4    6.695922421702591E-1   -5.245487793263740E-2
 5.700000000000000E7    -7.860496792759305E-1    2.281769784599571E-1    5.071874562935918E-4   -3.694330116228023E-4    1.144488718034280E-4   -1.788201358016447E-4    6.728118951949007E-1   -5.470855814438788E-2
 5.800000000000000E7    -7.853437843548169E-1    2.307299365033180E-1   -3.754480889188000E-4   -3.314439522733893E-4    1.570839389363334E-4   -1.229728088755460E-4    6.707385697166158E-1   -5.325434446822727E-2
 5.900000000000000E7    -7.859068483060935E-1    2.354674584336870E-1   -7.007863536840087E-5   -1.909188332907607E-4    7.359348448587574E-4    8.203166821282997E-4    6.708872017914198E-1   -6.004143490412130E-2
 6.000000000000000E7    -7.831934739884148E-1    2.364654290483249E-1    6.740775429614747E-5    4.215181077927260E-4   -3.576270140804939E-4   -1.837654420250985E-4    6.702884335327129E-1   -5.435185265923841E-2
 6.100000000000000E7    -7.788943313815916E-1    2.413982637024143E-1   -5.697331850350232E-4    8.402668770189265E-5   -6.104151213721363E-4    4.184023157529163E-4    6.648229332295386E-1   -5.921498494271692E-2
 6.200000000000000E7    -7.783679671487687E-1    2.451997031840046E-1    3.607739678931155E-4   -7.088286688927460E-4    8.658754283757056E-4    5.382355484618675E-4    6.733319732277977E-1   -5.857267379205914E-2
 6.300000000000000E7    -7.766216256796515E-1    2.528615998313978E-1   -1.727253415200061E-5    4.421334059732321E-4   -2.558145813994965E-4    2.735493400432344E-4    6.710517996080242E-1   -6.550637634068758E-2
 6.400000000000000E7    -7.766597800045515E-1    2.506427818720229E-1   -3.579713090198692E-5   -2.472428440283439E-4    1.461549659826154E-4   -6.881314392992639E-5    6.666963196828316E-1   -6.679576526571497E-2
 6.500000000000000E7    -7.728332418550754E-1    2.605372062669217E-1   -2.716477100239472E-4    7.435306555752609E-4   -6.689821305000958E-5   -2.220977021069740E-4    6.653271407594770E-1   -6.863843194815289E-2
 6.600000000000000E7    -7.753667785480298E-1    2.603858947838198E-1   -1.082476436149515E-4   -6.603202251138016E-4    1.020177207492034E-4    3.186085039587793E-4    6.695550858510811E-1   -6.740184247237660E-2
 6.700000000000000E7    -7.775028419451379E-1    2.681036400026271E-1    4.335476103417638E-4   -2.269114208773593E-4    6.630160699415004E-5   -2.557264838578834E-4    6.658804847673043E-1   -7.012320236773786E-2
 6.800000000000000E7    -7.682498282145069E-1    2.709687746749537E-1   -5.600960707458578E-4   -8.201801039184311E-5    3.480267264249258E-5    6.887603039715577E-4    6.716877440108296E-1   -7.134161108014016E-2
 6.900000000000000E7    -7.700449619443234E-1    2.735434617880315E-1    1.982952701552554E-4   -1.594131680924365E-5    2.815575447880214E-4   -3.643759412793402E-4    6.695214541141760E-1   -7.387483584748755E-2
 7.000000000000000E7    -7.677888568042039E-1    2.715047146932512E-1    7.314057256348287E-4    2.663680352058701E-4   -3.386934457651032E-4    3.795137958564417E-4    6.688268748672237E-1   -7.602564335365300E-2
 7.100000000000000E7    -7.643227708981966E-1    2.857636437173244E-1   -3.868410180122897E-4   -2.968032667207808E-4    4.075082466970016E-5    7.603191377426221E-4    6.676495451997357E-1   -7.180954918335422E-2
 7.200000000000000E7    -7.625990536245613E-1    2.843698173989452E-1    4.399233427829628E-4    3.840954259125452E-4   -1.153867274150411E-5   -1.506608063212832E-4    6.689549707482167E-1   -7.078371035225973E-2
 7.300000000000000E7    -7.595330462601670E-1    2.888274821476599E-1   -1.380324464967729E-4   -5.362771393123753E-4    7.051020661115423E-4    1.300147807629574E-4    6.701030543632585E-1   -8.136191813727235E-2
 7.400000000000000E7    -7.614605961863773E-1    2.886373664281974E-1    3.143621157839371E-4    4.198533508813277E-4   -5.317488389214441E-4    2.179474914600002E-4    6.697490234633332E-1   -8.169114507592272E-2
 7.500000000000000E7    -7.575125413385488E-1    2.920304955354562E-1    4.793025350790900E-5    4.205101538800750E-4    7.060783050817143E-4    1.945063181365940E-4    6.648271190338627E-1   -7.740782400971760E-2
 7.600000000000000E7    -7.592266158526731E-1    3.009079493284091E-1    1.043095575576521E-4    4.347241855043528E-4    6.537302047020809E-4   -1.316874144989644E-4    6.652451861636831E-1   -8.401483639110686E-2
 7.700000000000000E7    -7.571606370560922E-1    3.040251764837323E-1   -1.325406147543025E-4    4.994818304839419E-5   -6.669931581557906E-5    2.437347331876727E-4    6.624900108414711E-1   -8.006956357574109E-2
 7.800000000000000E7    -7.569635968505342E-1    3.035742153487944E-1    2.182184997953191E-4   -3.550345820680079E-4    5.411754447804130E-5    4.271523576546650E-4    6.651374015934812E-1   -8.432454838888190E-2
 7.900000000000000E7    -7.515294640085397E-1    3.110409275683427E-1   -3.650847596248372E-4    3.029140606682935E-4    5.861275127958777E-4    1.675647858393156E-4    6.633109546755050E-1   -8.601594488742077E-2
 8.000000000000000E7    -7.485620704149722E-1    3.186776531189361E-1   -1.370831589640451E-4    6.249252449642206E-4    4.932871118633789E-4    8.322605069197386E-5    6.675575234910148E-1   -9.225163013484169E-2
 8.100000000000000E7    -7.462516260422515E-1    3.091866474878598E-1   -3.574755810499478E-5    2.492871991580282E-5    2.819751911825203E-5    3.317143663194474E-4    6.691217974094533E-1   -8.808750204279515E-2
 8.200000000000000E7    -7.514473438118160E-1    3.167727389281609E-1   -1.427348287776526E-4    4.279713082878099E-5    1.255966174986402E-6    1.091187363575419E-4    6.669414723390537E-1   -8.838860379650396E-2
 8.300000000000000E7    -7.446204718968380E-1    3.274052721300388E-1   -3.077643355512781E-4   -4.362337390208847E-4    2.347625265044091E-4   -7.415195276210028E-5    6.697092499115426E-1   -8.769445412349854E-2
 8.400000000000000E7    -7.438026697959120E-1    3.210141909521225E-1    5.237121188241432E-4   -1.943583739072161E-4    2.687265983755630E-4    5.350969439193827E-4    6.664465674822057E-1   -9.185671550555628E-2
 8.500000000000000E7    -7.417250991491918E-1    3.265180776225147E-1    9.314356347842933E-4   -2.515355366345846E-5    1.964809608149454E-4    1.033541070616548E-5    6.668846902289768E-1   -9.293296695108771E-2
 8.600000000000000E7    -7.448197483917010E-1    3.372541544681917E-1    4.010616428493645E-4    3.015080722905346E-4   -6.146871653431551E-5   -1.499575345206067E-4    6.674942333397285E-1   -9.776075893442022E-2
 8.700000000000000E7    -7.356420038594053E-1    3.376132029214386E-1    2.228582940302341E-4   -1.215542872512146E-4    6.889342890611251E-5    3.812953361254526E-4    6.660553905468002E-1   -9.343424675163610E-2
 8.800000000000000E7    -7.342846732443981E-1    3.449215645333905E-1    3.776726776263753E-4    3.249632987669946E-5   -3.646002782410690E-4   -4.497008086763924E-4    6.687195282684055E-1   -9.356966367751962E-2
 8.900000000000000E7    -7.345729971386774E-1    3.459962661524993E-1    1.391984375994023E-4    5.102351164287416E-4   -1.634541552926721E-4    3.491743905834735E-4    6.684494523076977E-1   -9.570399267903251E-2
 9.000000000000000E7    -7.336093218442045E-1    3.455475072553451E-1    1.907079667904828E-4    2.875009443717448E-4    5.750268146407790E-4    6.463593868123930E-4    6.634105168131915E-1   -9.896457198551668E-2
 9.100000000000000E7    -7.292280342891106E-1    3.560236179704253E-1    9.599357686395329E-5   -9.549900104896344E-5   -1.342442068193366E-4    3.390720024255965E-5    6.619322826641378E-1   -1.030177180852583E-1
