#  HZ   S   RI   R     50.00 
! Rohde & Schwarz Vector Network Analyzer 
! Rohde-Schwarz,ZNBT8-20Port,1318700624101681,3.50
! Created: UTC 7/15/2025, 2:10:26 PM
! freq[Hz]                re:S1010                im:S1010                re:S0510                im:S0510                re:S1005                im:S1005                re:S55                  im:S55
 1.000000000000000E6    -9.027259315864697E-1   -5.059686846833228E-3   -1.475911497149623E-4   -1.986120905670124E-4    5.371587856733427E-4   -6.203973426951325E-4    5.556858361596788E-1    1.385472341653711E-2
 2.000000000000000E6    -8.949501557045373E-1   -1.062979640362058E-2   -5.792573552379173E-6   -9.637576815426480E-5   -2.632404111625267E-4    1.015698167845704E-4    5.570828526721459E-1    1.014316183847607E-2
 3.000000000000000E6    -9.130836090319973E-1   -3.664801555049071E-3   -2.999705803021104E-4    2.116052782302131E-4   -3.669533097453006E-4    2.142370033008717E-4    5.646133743705597E-1    1.152553603056585E-2
 4.000000000000000E6    -9.059316785671138E-1   -6.321175813150887E-3   -1.270009601693647E-4   -2.392207164620846E-4   -1.517248249058619E-4   -2.824557340695861E-5    5.609945531277776E-1    2.652255920885701E-3
 5.000000000000000E6    -8.959237461029864E-1   -1.518376857817695E-2    1.429886314143371E-4   -3.476157315629477E-4   -3.052159976473144E-4   -1.639747939510631E-4    5.580669846855822E-1    2.326229630027063E-4
 6.000000000000000E6    -9.074035657849971E-1   -1.933566627855577E-3   -1.303823278486276E-4   -1.462042794592647E-5    2.304736934144971E-5    4.137008089497981E-5    5.564112281082050E-1   -2.214590279738544E-3
 7.000000000000000E6    -9.113069214790532E-1    4.914153028065689E-3   -3.649155382306480E-5    9.594534748267614E-5    2.074566380079601E-4   -1.105387651412229E-4    5.629767349024243E-1   -1.812556127662975E-3
 8.000000000000000E6    -9.007609367472352E-1    3.910705550674002E-3    2.417288706515990E-4    8.479777662766456E-5   -2.162663861153061E-4   -1.805454244778690E-4    5.605169006423881E-1   -1.357938785109604E-3
 9.000000000000000E6    -9.069122274075627E-1    1.649319352415575E-2    1.065763706041399E-4   -2.130382340915056E-4   -1.539758758244115E-4   -5.169889273231057E-4    5.565828190890112E-1   -8.511194421228409E-3
 1.000000000000000E7    -8.961509249756693E-1    1.802948436731854E-2    3.974034176618100E-4    3.497009081405645E-4    2.377288209991701E-4   -2.830009900115973E-4    5.655459329193022E-1   -1.343776616490231E-2
 1.100000000000000E7    -9.013665474596290E-1    1.401555376937089E-2    1.139703437390004E-4   -8.956210877814047E-5    2.095755931540895E-4   -3.437678897653119E-4    5.600879797349285E-1   -1.029078818190523E-2
 1.200000000000000E7    -9.085992343872782E-1    9.049872157709159E-3   -1.536041381206397E-4   -3.798343251671442E-5    8.898889898762682E-5   -1.038081105311058E-4    5.601657061458239E-1   -6.559783669943553E-3
 1.300000000000000E7    -9.025880085646878E-1    1.924013962804958E-2   -9.359869180490448E-5    2.820012031912827E-4   -7.071354009553541E-6   -7.070962507951208E-5    5.605373432361709E-1   -1.119226849418383E-2
 1.400000000000000E7    -9.103480963428096E-1    2.455584517039849E-2    6.497828664088997E-5    1.724064779882405E-4   -1.097014775162294E-4    6.027125774732543E-5    5.628493830395070E-1   -1.209352938158011E-2
 1.500000000000000E7    -8.950897532468042E-1    2.579052916618185E-2    5.295417895292643E-6    1.143725950856415E-4   -1.212972451479030E-4    3.549643206471745E-4    5.638749807166076E-1   -1.395258766380580E-2
 1.600000000000000E7    -8.968608592910006E-1    3.361581512852149E-2    1.029169282850939E-4   -1.808291045906539E-4    1.501900440774086E-4    1.630462736350360E-4    5.623736027796669E-1   -1.779450689493873E-2
 1.700000000000000E7    -9.022715391479115E-1    3.375530982270755E-2   -1.945627435463989E-4    2.093238718177399E-4   -2.781102915975924E-4    2.419758811360182E-4    5.600597387306597E-1   -2.282498293244403E-2
 1.800000000000000E7    -9.037669911657255E-1    2.664778053833597E-2    1.779087485635235E-4   -1.049978940723612E-4    3.409843200485284E-4   -9.807251416951441E-5    5.577568108370179E-1   -1.834938339001135E-2
 1.900000000000000E7    -8.976203819362419E-1    2.572880595832455E-2    1.591801583674919E-4   -2.164153987776691E-5   -3.123411834976216E-4    2.204126289223704E-4    5.635451711922519E-1   -2.135123852361393E-2
 2.000000000000000E7    -8.968959772215181E-1    3.564658700293270E-2    1.971579568236822E-5    1.718898627313468E-4    1.616548301072388E-4   -1.234377405603330E-4    5.581097371613365E-1   -2.149895755373585E-2
 2.100000000000000E7    -8.995910115644460E-1    3.298334438490721E-2   -1.812133007061570E-5    4.079276003846672E-4    2.068954201545866E-4   -2.480832966665584E-4    5.605416121314886E-1   -2.297027363915103E-2
 2.200000000000000E7    -8.948973081529425E-1    3.046301867929734E-2   -1.015069604429554E-4   -4.194507712064201E-4   -7.527796185963193E-5    6.667846891026188E-5    5.594578994927545E-1   -2.158962731282315E-2
 2.300000000000000E7    -8.919498966569522E-1    3.083910474559496E-2    8.325469260091840E-5   -2.386418248340743E-4    4.174598324796954E-5   -4.040295201591156E-4    5.606393028181492E-1   -2.477127457269993E-2
 2.400000000000000E7    -8.855361434900638E-1    3.437975517213183E-2   -2.702451975058810E-5   -2.713115672722225E-5    3.667357842195581E-4   -3.605229462843574E-4    5.621386345594330E-1   -2.107217728435772E-2
 2.500000000000000E7    -8.972873050514970E-1    3.908361369902930E-2   -1.051927632725058E-4   -2.160611142966729E-5    2.925155275780771E-6   -6.388813166254219E-5    5.640361325557234E-1   -2.030510602091114E-2
 2.600000000000000E7    -9.011035886623102E-1    3.959647949638945E-2    1.166998580184643E-4    2.815442944596462E-4    5.287429526265189E-4    1.887776234817415E-4    5.589838770667880E-1   -1.201118145903909E-2
 2.700000000000000E7    -9.120596985314056E-1    4.449982518780376E-2    8.038928180568519E-4    2.205243563045123E-4    1.069321747628912E-4   -6.345524693007678E-4    5.641363168701091E-1   -1.645207800785926E-2
 2.800000000000000E7    -8.973447891424621E-1    4.271485980716930E-2   -2.882415086326358E-4    4.356664139993994E-4   -2.589851220462271E-4    1.433384795495613E-4    5.584840686342233E-1   -1.355707514743179E-2
 2.900000000000000E7    -8.966764947706974E-1    4.554623952256668E-2   -1.919858564510643E-4    2.425823764809650E-4    3.907476695440461E-5    1.096120026214124E-4    5.625655782029101E-1   -1.658714245613942E-2
 3.000000000000000E7    -9.012207077651146E-1    4.438465433091630E-2    1.624744702083944E-4    2.731025206315001E-4   -1.221736977891219E-4   -5.972274426004518E-4    5.582912163440084E-1   -1.433012301492469E-2
 3.100000000000000E7    -9.008940245314434E-1    5.254904091333606E-2   -7.008818624974075E-5    4.995994902952034E-4    1.907441958472003E-6   -1.118170494117006E-4    5.585728076306339E-1   -1.418455828805939E-2
 3.200000000000000E7    -8.982972424619092E-1    4.927350877857883E-2    2.757506474099753E-4   -5.931514304931245E-4    1.299009050310833E-4    1.479841397247163E-4    5.563831727815934E-1   -1.253452324418999E-2
 3.300000000000000E7    -8.937262018021163E-1    4.801082204490143E-2   -9.161881733331763E-5    1.062144476147812E-3   -9.568768901730383E-5    3.537141600179543E-4    5.617182495856484E-1   -1.237471077844139E-2
 3.400000000000000E7    -8.989470918105326E-1    4.811194963813836E-2    7.171141689624147E-4   -2.444003958866773E-4    3.358551421489266E-4   -5.740734740962724E-4    5.550227688425148E-1   -1.360381895616946E-2
 3.500000000000000E7    -8.990877750305949E-1    5.259851005238092E-2    5.961988479828686E-4   -7.280085035701964E-4    7.609363147631362E-4   -2.060405108203486E-4    5.603846505642982E-1   -1.901059443713215E-2
 3.600000000000000E7    -9.022034600957841E-1    5.622431616548782E-2    9.502603190558587E-5   -1.626093885052289E-4    7.135069395493083E-4   -8.266476766057821E-5    5.570660192646411E-1   -2.051432198168128E-2
 3.700000000000000E7    -8.985441224368355E-1    5.418583229319942E-2   -1.258001248038140E-4    3.128555719597528E-4    5.840423444209852E-5    1.448641214786872E-4    5.560373766942811E-1   -2.129924292720606E-2
 3.800000000000000E7    -8.962645856579732E-1    5.860591108088159E-2   -3.658715703677110E-4   -3.847215125743003E-4    4.004798015583715E-4   -3.417509380948807E-4    5.564429529211198E-1   -2.017113704914627E-2
 3.900000000000000E7    -8.969511005897361E-1    5.449992122406028E-2    2.116978380345133E-4    4.528595273306112E-5   -9.723333787452955E-4   -6.508802160490906E-4    5.570817705398915E-1   -1.991751285142396E-2
 4.000000000000000E7    -8.949068901364811E-1    6.402167699554531E-2    1.114936851185583E-4    3.152812857587793E-4    2.577175517472097E-4   -1.364669518648434E-4    5.598339106258775E-1   -2.015773202280727E-2
 4.100000000000000E7    -8.999353177492864E-1    6.126398004040383E-2    5.334774740872668E-4    5.795692121038777E-4   -8.525217519934943E-4    2.727195132278575E-4    5.553844284165704E-1   -2.143540248383570E-2
 4.200000000000000E7    -8.994882665365805E-1    6.295520725794831E-2   -4.091963050613678E-4   -3.353607812605715E-4    1.083579604500329E-4    1.017843153746472E-4    5.526719284406520E-1   -2.656387887214851E-2
 4.300000000000000E7    -8.968503852252028E-1    6.923598698357766E-2    6.795358021076097E-4    2.781132183085531E-4   -5.069420192740657E-4    2.307226933094066E-4    5.551727727091122E-1   -2.164314638988182E-2
 4.400000000000000E7    -8.932991456546939E-1    6.609938912625139E-2   -5.462731598534954E-4   -4.615442364111565E-4    7.811473575883726E-5    7.038702568297974E-4    5.559433018643630E-1   -2.350785499685922E-2
 4.500000000000000E7    -8.967646157149700E-1    6.724594410025503E-2   -8.836967561285183E-4    1.406093590849926E-4    9.708816028221528E-4   -1.464075543609119E-4    5.535431552044431E-1   -2.779382802811294E-2
 4.600000000000000E7    -8.930338627777942E-1    6.949373653850001E-2   -7.787472541564291E-5   -6.270754952651095E-5    5.068199746077936E-4   -4.656702502617076E-4    5.553873570103360E-1   -2.640365676902378E-2
 4.700000000000000E7    -9.024281260528897E-1    6.980941519500787E-2   -1.119128471837865E-4    4.972359501106861E-4    2.526706484890936E-4   -8.381201108018572E-4    5.569650925512240E-1   -2.890846275621214E-2
 4.800000000000000E7    -8.915100052319511E-1    6.229777289722970E-2    1.907187766584253E-4   -4.730027405147060E-4    1.515661907985390E-4    1.628210392174288E-4    5.577551879711612E-1   -2.552183041023169E-2
 4.900000000000000E7    -9.001759135622338E-1    6.987205904753246E-2    1.417909464980864E-4    2.698407289354462E-4    3.850237334648824E-4   -4.880900979235859E-4    5.561224731802936E-1   -2.995320061639220E-2
 5.000000000000000E7    -8.902929849186950E-1    6.924452066208905E-2    4.844694127641691E-4    1.178712748028551E-4    4.521120390714793E-4   -6.328907555745182E-4    5.535158481927210E-1   -3.010202966432085E-2
 5.100000000000000E7    -8.903002200459901E-1    7.216629107267253E-2   -9.898161496413141E-5   -3.000819953180349E-4    4.664967269241169E-4    3.897359734852514E-4    5.509967119993345E-1   -3.204731325392818E-2
 5.200000000000000E7    -8.944281346581971E-1    7.913695643067280E-2   -2.714532450518545E-4   -9.076448626714423E-5   -3.078747640416057E-5   -2.583329867643173E-4    5.539193793221225E-1   -3.932117638978925E-2
 5.300000000000000E7    -8.942430241926465E-1    8.020886570573375E-2    5.293061043870984E-4    4.289894604452628E-4   -3.911595822104938E-4   -5.733916572442148E-4    5.566850684777480E-1   -3.567124946804370E-2
 5.400000000000000E7    -8.908152321181748E-1    8.074952255965641E-2    5.126681405603986E-5    3.027294260588351E-4   -4.034773925507626E-4    1.251150442398423E-4    5.540020968364127E-1   -3.694931929198741E-2
 5.500000000000000E7    -8.999253514444845E-1    8.136055249059324E-2    5.908598260524259E-4   -3.958621232699908E-4   -6.746190559241419E-4    3.921835863046077E-4    5.516508996056728E-1   -3.877078653983040E-2
 5.600000000000000E7    -8.985413308750494E-1    8.462798527910455E-2    2.393810601009391E-4    2.108833341223673E-4   -2.702257105409640E-4    5.999461790419955E-5    5.564520803425010E-1   -4.060335301280994E-2
 5.700000000000000E7    -8.908805415912906E-1    8.452223728408538E-2   -4.380005594326185E-4   -3.032515554266129E-5    2.070658916577237E-4    7.293028844678576E-4    5.540035889408205E-1   -4.364898614567012E-2
 5.800000000000000E7    -8.946878480461368E-1    8.076753950647149E-2    2.368673132189923E-4    8.068906916882746E-4   -1.663368223509871E-4   -3.613396587169708E-4    5.542889032499144E-1   -4.107811972908374E-2
 5.900000000000000E7    -8.889620756294211E-1    8.710900746988377E-2   -5.150487595694483E-4   -4.117517119576538E-4   -3.693102223534202E-4   -3.002951978708059E-4    5.540283300861731E-1   -4.335217756939019E-2
 6.000000000000000E7    -8.975283907587964E-1    8.184079834825636E-2   -7.983158133254710E-5    1.043607825055249E-4    1.041488487981982E-3   -4.349805394838565E-4    5.510198355375185E-1   -4.626710399294456E-2
 6.100000000000000E7    -8.892031621058076E-1    8.954221554528825E-2    7.305340482157177E-4   -7.985786608086577E-4   -3.179569655038530E-4    3.165296537403030E-4    5.496245865762025E-1   -5.044688413053483E-2
 6.200000000000000E7    -8.930763844339502E-1    8.861771992081714E-2   -8.804920648090889E-5    4.868675279520467E-4   -7.770151894804820E-4    2.385455226222797E-4    5.523412237829658E-1   -4.601028345366470E-2
 6.300000000000000E7    -8.947058509197868E-1    9.419292841801725E-2   -1.635989277725241E-4   -1.085458347838848E-4    9.975337100791082E-4   -3.289580181622906E-5    5.540241479234943E-1   -5.026587579537078E-2
 6.400000000000000E7    -8.909162694703583E-1    9.217241224201674E-2   -2.411574707197035E-4   -6.571431130808380E-5   -2.733532876246314E-4    6.274467948106802E-5    5.565447370983233E-1   -4.934190877488954E-2
 6.500000000000000E7    -8.943534625529328E-1    9.601266569073390E-2    3.540335600805889E-4   -1.801793357899975E-5   -1.635446149918104E-4    2.820461423460843E-4    5.541407173098977E-1   -5.332005890554996E-2
 6.600000000000000E7    -8.922587599775236E-1    9.421774750289487E-2    2.218668631574333E-4   -3.264790874400441E-4   -1.930303872155709E-4   -7.627747578256737E-5    5.523656483074695E-1   -5.335705768804982E-2
 6.700000000000000E7    -8.931289936337942E-1    1.004094690338177E-1    2.218754357111507E-4   -1.222935634239578E-4   -8.419364657531389E-5   -6.462552874853237E-4    5.520066354598111E-1   -5.704789509355758E-2
 6.800000000000000E7    -8.890567731147280E-1    9.696176662453661E-2   -6.161228628718532E-5   -3.910742882287886E-5   -4.054398505064017E-4   -1.972510192711453E-4    5.507597260261603E-1   -5.759920380903023E-2
 6.900000000000000E7    -8.906420518024241E-1    9.441234211438447E-2    1.054319766645103E-4    1.072397997469435E-4    1.775060910610501E-4   -1.036870926301826E-4    5.505600239953768E-1   -5.825745721972082E-2
 7.000000000000000E7    -8.923978780470531E-1    9.612442766866112E-2   -9.987459284389056E-5   -2.660262891796420E-4   -2.199063129978997E-4    8.854934630788297E-5    5.553269715196274E-1   -5.812735273059509E-2
 7.100000000000000E7    -8.944082326096644E-1    1.003449165146050E-1    2.512991723746688E-5   -6.064027805773341E-4    2.935667170294959E-5    5.944344875035994E-4    5.533574224659191E-1   -6.009054521166449E-2
 7.200000000000000E7    -8.902077896414280E-1    1.024732361435751E-1   -2.585370748729658E-4   -2.859101433099732E-4    2.928691176099037E-4    3.796259300595276E-5    5.562831415344970E-1   -6.112466541207482E-2
 7.300000000000000E7    -8.854290106624531E-1    9.926381909722405E-2   -3.923476969802691E-4    3.314435125663846E-5    6.556924660006307E-4   -3.682871037115820E-4    5.568396830898272E-1   -6.434167831192995E-2
 7.400000000000000E7    -8.933082156801134E-1    1.015374543327018E-1    7.106353196795561E-5   -5.441840177204216E-4    3.719926897899635E-4    2.339646395091124E-4    5.552314617209653E-1   -6.977092720118266E-2
 7.500000000000000E7    -8.920450417597005E-1    1.017359924106462E-1   -4.261823371094264E-5   -1.371808355436406E-4    5.474402770173093E-4   -5.624537548834592E-4    5.504084550348018E-1   -6.606131083901488E-2
 7.600000000000000E7    -8.925396617922002E-1    1.115155250115220E-1    4.676319904627940E-5   -8.913498736212528E-5   -3.587459871833835E-4    3.914648291081749E-4    5.495921598003531E-1   -6.538925841585456E-2
 7.700000000000000E7    -8.912211148254938E-1    1.077654419505076E-1   -7.512961973653693E-5   -2.650424085261798E-4   -1.546102555901223E-5   -4.648706363491622E-5    5.534589821232689E-1   -6.172796353720584E-2
 7.800000000000000E7    -8.892099574688583E-1    1.091168756781072E-1    9.765065317254349E-6   -1.573732013853625E-4    3.290933108145399E-4    3.993856334182376E-4    5.510197213016342E-1   -6.905165316288964E-2
 7.900000000000000E7    -8.873685836746661E-1    1.105699727509388E-1   -1.441638444583928E-4    2.356761279055960E-4   -8.863702841325266E-4   -1.847372000976529E-4    5.490695310454601E-1   -7.187935859068920E-2
 8.000000000000000E7    -8.888762260409132E-1    1.159630875725840E-1   -3.168378152079632E-4    9.604256222377849E-5   -4.198490584660776E-4    1.423628889061854E-4    5.461941783496952E-1   -7.106885847020199E-2
 8.100000000000000E7    -8.857558615730237E-1    1.121454985133424E-1   -4.844285477181957E-4   -3.003644806798866E-4    1.764097427825152E-4    7.533813730918059E-5    5.498377441147493E-1   -6.868705087476176E-2
 8.200000000000000E7    -8.890944165543938E-1    1.130163673102502E-1    2.124527286546603E-4   -1.576424581879303E-4    2.788961206435447E-4    3.184451361955611E-4    5.484283268638315E-1   -6.741446675784589E-2
 8.300000000000000E7    -8.892478093993531E-1    1.116064906258203E-1   -3.677198977637208E-4   -7.754961839713501E-5   -4.131721206135743E-4   -5.774309148070397E-5    5.548141052213046E-1   -7.444840806667187E-2
 8.400000000000000E7    -8.852192031205400E-1    1.144324327352332E-1   -6.103070042063459E-4   -1.027367955855404E-4    2.628963812204952E-4   -3.463874300665240E-7    5.516471750536881E-1   -7.414407167178128E-2
 8.500000000000000E7    -8.890635933286973E-1    1.184237647861405E-1    4.334639424195654E-6   -2.360689263603894E-4   -3.475467041083670E-4   -1.656799861115976E-4    5.493135367194750E-1   -7.543121904141072E-2
 8.600000000000000E7    -8.852670197329366E-1    1.196163763990970E-1   -2.458905713413775E-4   -2.193141302238912E-4    5.763850471906384E-4    1.783748913553660E-4    5.518470808636553E-1   -7.566355403958026E-2
 8.700000000000000E7    -8.858077737532738E-1    1.170756057390606E-1   -8.780556278031782E-5   -2.450537725276006E-4   -4.054589241475779E-4    5.911269066986890E-4    5.533081338000765E-1   -7.384169440202418E-2
 8.800000000000000E7    -8.882546991763093E-1    1.292086729319052E-1    1.052067941453689E-4    2.980603015573791E-6    7.700949090576233E-4   -1.145565687283823E-4    5.521105046198730E-1   -7.474565018935080E-2
 8.900000000000000E7    -8.865415066189376E-1    1.218511649126957E-1   -2.076375430268142E-4   -2.847104190921626E-5    5.639523307168032E-4   -1.879118311206284E-4    5.520328718662425E-1   -7.663929180408043E-2
 9.000000000000000E7    -8.847982794319147E-1    1.259589578889882E-1   -1.291720325113071E-4   -3.035423906701382E-4   -2.947113686478349E-5   -2.023542181217557E-4    5.517991502330853E-1   -7.369798447240332E-2
 9.100000000000000E7    -8.890392509436108E-1    1.315770644640294E-1   -2.350184550111626E-4    2.808150446320432E-4    3.570741691885463E-6    5.111579883991557E-6    5.528689216506564E-1   -8.261853193553013E-2
