#  HZ   S   RI   R     50.00 
! Rohde & Schwarz Vector Network Analyzer 
! Rohde-Schwarz,ZNBT8-20Port,1318700624101681,3.50
! Created: UTC 7/15/2025, 2:11:47 PM
! freq[Hz]                re:S1010                im:S1010                re:S0410                im:S0410                re:S1004                im:S1004                re:S44                  im:S44
 1.000000000000000E6    -9.011811687595989E-1   -5.682854941915399E-3   -7.494478240683694E-5    1.941925640064147E-4    5.063007749009173E-7   -1.418806351639860E-4    9.705208997595414E-1    1.946248112791168E-2
 2.000000000000000E6    -8.983341677970075E-1   -1.571320835044520E-2    2.683302348439387E-4    2.947777318639977E-4    2.219681476573307E-4   -3.963866476520872E-4    9.879565668352815E-1    9.003633918002884E-3
 3.000000000000000E6    -9.032674597867919E-1   -5.030740579766471E-3   -6.116758732595060E-4    2.847770707036768E-4    3.739590113308971E-4    1.540089399148288E-4    9.803190848888402E-1   -6.733715587214740E-4
 4.000000000000000E6    -9.135962215928785E-1   -8.269553649139496E-3    8.947985830483351E-5    7.134749496108710E-6   -4.292076109117825E-4   -4.063049049070301E-4    9.748354367370898E-1    1.171757409241381E-2
 5.000000000000000E6    -8.942632425598441E-1   -7.058709531397914E-4    2.653346344696069E-4    4.713889849803055E-5    2.807045488713767E-4   -7.046915918979389E-5    9.790720131508551E-1    3.578340046231344E-3
 6.000000000000000E6    -9.017242489789560E-1   -1.272975878959924E-3    4.377313349331538E-5    8.485843693036950E-6   -4.447213234539422E-5    1.749124243228933E-4    9.781622733907087E-1    3.770579347749200E-4
 7.000000000000000E6    -9.115104222552842E-1    1.778577545030279E-3    4.372625602863447E-4   -1.483862286634693E-6   -8.540341934920004E-5    1.068980893669542E-4    9.816138364902356E-1   -6.362965902199668E-3
 8.000000000000000E6    -9.017299906288353E-1    5.346721619638515E-3    2.989920698813872E-4    5.657454194930425E-4   -5.692693625862437E-5   -1.312254896620109E-4    9.779370194391314E-1   -2.139244853480580E-3
 9.000000000000000E6    -9.042947593148739E-1    1.244227371785592E-2   -4.336529078496573E-5   -2.048185496452432E-4   -3.043669600350052E-5    5.334278529802481E-5    9.794470640180291E-1   -1.836472210677822E-3
 1.000000000000000E7    -8.951258090040293E-1    2.467177991118334E-2   -2.081528520522471E-4   -2.504582659080356E-4    2.788175130750254E-4    1.150615595212150E-4    9.692194892522984E-1   -2.018261156291663E-2
 1.100000000000000E7    -8.945707573112929E-1    1.754310019367209E-2   -1.245842007783035E-4   -2.913979981288796E-4    1.193296611438388E-4   -2.107849285351969E-4    9.675355023818419E-1   -2.238353228839068E-2
 1.200000000000000E7    -8.992401112525733E-1    1.204690408349894E-2    1.416941895082197E-4    8.208516457279483E-5   -1.285427575134094E-4   -4.545818381755658E-5    9.722510666666071E-1   -1.873823424593335E-2
 1.300000000000000E7    -9.029533433169572E-1    2.670192510137550E-2   -1.663473473104270E-4    1.561212035039788E-4    2.580567541663117E-4    2.755672723443544E-4    9.816500571961257E-1   -2.295529369117083E-2
 1.400000000000000E7    -9.064832122672268E-1    1.788814151448195E-2   -3.245268888791572E-4    1.090217227424421E-4   -1.188185187870117E-4   -3.574921077282611E-4    9.791776547902595E-1   -1.753611947100638E-2
 1.500000000000000E7    -9.049623082545741E-1    2.911035307303558E-2   -1.424910456023051E-4   -8.543991573906476E-5   -1.405936159943995E-4    4.474963453560395E-5    9.761131747208797E-1   -4.037587550925268E-2
 1.600000000000000E7    -9.045024521536789E-1    2.088358336102702E-2   -1.173259095093307E-4   -8.988827112768835E-5   -3.615413664739752E-4    2.700118198829458E-4    9.741204048618465E-1   -2.523404395331262E-2
 1.700000000000000E7    -9.054442365313360E-1    2.768547336102745E-2   -6.403880881033929E-5    3.896026844352135E-4    3.439654786064545E-4    4.429094407875305E-4    9.842392576309668E-1   -3.260785322545161E-2
 1.800000000000000E7    -9.007969602661088E-1    2.777925928641506E-2   -1.957757963648090E-4    7.130379835220683E-5   -9.371427885006259E-5   -7.963259561714983E-5    9.802021602852158E-1   -2.790620915333592E-2
 1.900000000000000E7    -8.970200511008536E-1    2.621636620891027E-2   -2.909826368150145E-4   -4.007861607576629E-6   -2.357671411343966E-4   -1.036509170320615E-4    9.709090853963790E-1   -3.153650566459754E-2
 2.000000000000000E7    -9.023236287183337E-1    3.531327753924833E-2    2.757537030437154E-4    3.829667342408638E-4    6.958623944618576E-5    2.624266222142293E-4    9.741857599152492E-1   -2.873351990679866E-2
 2.100000000000000E7    -9.016881843449132E-1    3.502639626612940E-2    1.822080085612640E-4   -3.888656135443331E-4   -2.408085715355052E-4    1.773133517684999E-4    9.735683889922351E-1   -3.555098544422015E-2
 2.200000000000000E7    -9.044892131540128E-1    2.946142194739380E-2    5.317158283148039E-5    1.559479282660110E-4    5.009819218807980E-4    1.795105601465647E-4    9.836997808803960E-1   -3.894269415202511E-2
 2.300000000000000E7    -9.039006885421931E-1    3.295387665029743E-2   -1.169457246957053E-4    7.995604330196769E-5   -1.779421901035990E-4    2.056130152908908E-4    9.645183019994212E-1   -4.900458073307371E-2
 2.400000000000000E7    -8.942422714928081E-1    3.412001595677332E-2    3.698517372403353E-4    7.141985110318965E-6   -1.846148398183990E-4   -8.505717830818307E-5    9.746417031848063E-1   -3.057042520907672E-2
 2.500000000000000E7    -8.888936755586347E-1    5.341420570256967E-2   -1.149834065604810E-4    1.679308256765016E-4   -1.962997834534989E-5    3.190689011074335E-4    9.820221749088649E-1   -4.038186772375466E-2
 2.600000000000000E7    -9.071959423160946E-1    4.676971773977461E-2   -1.005731968099270E-4    7.631719214562166E-5   -7.290071572735642E-4    7.085111597116861E-4    9.784377930150184E-1   -5.357951634779520E-2
 2.700000000000000E7    -8.998503680039067E-1    4.303643125063002E-2   -2.052230494607017E-4    5.215871430532585E-4    6.977363224274074E-5    7.443542592704362E-4    9.791239233367555E-1   -3.375242407648441E-2
 2.800000000000000E7    -9.012220585721595E-1    3.972062068216135E-2    1.251302045669715E-4    3.075503331840430E-4   -5.008262648294412E-4   -3.798170405350690E-4    9.725947327252376E-1   -5.634015789363842E-2
 2.900000000000000E7    -9.019433789846234E-1    4.937391534592220E-2   -2.440691072532576E-4    6.843977830302912E-5    9.021100796232496E-4   -4.837204063391437E-4    9.797641371532928E-1   -5.591221873155353E-2
 3.000000000000000E7    -9.008029880480874E-1    4.417362191414428E-2   -4.262148390044661E-4    5.496709479301573E-4    5.043037456571781E-4    9.128927118569545E-5    9.712397769515526E-1   -4.017482150985933E-2
 3.100000000000000E7    -8.964059379308388E-1    5.086264655702315E-2   -5.365674373520388E-4   -7.115465311305453E-5   -7.381447203022796E-5    4.061359633028077E-5    9.704404769064123E-1   -4.856962564935439E-2
 3.200000000000000E7    -8.986783508008165E-1    4.082241164821587E-2   -5.604713492247663E-5    3.582635179677525E-4   -2.205646249498642E-4   -3.788875717039877E-4    9.756012578801119E-1   -5.355108537552112E-2
 3.300000000000000E7    -8.971864473920201E-1    4.764759738142438E-2    6.174874547354398E-4    2.388305350041420E-4    7.152987630843627E-4    4.901648076022409E-4    9.662829078104178E-1   -5.911886154124741E-2
 3.400000000000000E7    -8.984990706924363E-1    5.089234721849135E-2   -8.788748155177507E-6    2.772089717155257E-4   -3.793796169320884E-4   -4.820084925908655E-4    9.764038255640913E-1   -5.844630161811790E-2
 3.500000000000000E7    -9.018910062813915E-1    5.157524472438796E-2   -3.649005344677939E-4    1.061733773900885E-4   -5.310270278128860E-5   -1.404671353345922E-4    9.697896130638503E-1   -5.582629083768473E-2
 3.600000000000000E7    -9.073792796759689E-1    5.580426615309732E-2   -6.696361908250285E-4    4.443427659874454E-4    8.219910900489279E-4   -1.476846313661320E-4    9.798900594995004E-1   -6.004219436743859E-2
 3.700000000000000E7    -9.013669394423944E-1    5.453364068526324E-2   -2.982257271659347E-4    1.879142233977416E-4   -4.280447183326846E-4    5.297281674956574E-4    9.694655471091211E-1   -6.627022558754470E-2
 3.800000000000000E7    -9.011342083000868E-1    5.411534175328395E-2   -5.981297079763446E-5   -2.203167908683774E-4   -5.856183500582788E-4    2.220778202061991E-4    9.751593275549628E-1   -6.129549913537798E-2
 3.900000000000000E7    -8.988723035889065E-1    5.372417211110066E-2    7.287264626838513E-4    6.365454184624315E-5   -1.165858792067383E-4   -3.571357464233625E-4    9.710059903552659E-1   -5.695016511042178E-2
 4.000000000000000E7    -8.951764753508819E-1    6.258145467356677E-2    8.116578445259536E-4    3.590891757354652E-4   -9.351166831850006E-5    1.326852799714759E-4    9.784298927488795E-1   -6.183672186059057E-2
 4.100000000000000E7    -9.021902986064725E-1    5.840871204211220E-2    6.391637618407775E-5    2.047658803718854E-4   -1.164354764431094E-4    6.515694463277582E-4    9.740605796487820E-1   -6.037942058563525E-2
 4.200000000000000E7    -9.019680306693528E-1    6.289081004444368E-2   -5.969467604243574E-5    5.398531722573932E-4   -2.682951248054510E-4    1.014982110886750E-3    9.697302059410967E-1   -6.035291662990160E-2
 4.300000000000000E7    -8.931201740236870E-1    6.405220811445708E-2   -2.907111634558044E-4    7.594252840739777E-4   -2.549296550304212E-4   -3.342094446241780E-4    9.735410732073250E-1   -6.720672140907698E-2
 4.400000000000000E7    -8.965340928638033E-1    6.255118449816069E-2    6.136193299252160E-4    5.937024031116775E-4    3.701059499804804E-4   -7.673860046127637E-5    9.705448226490260E-1   -6.858206800837068E-2
 4.500000000000000E7    -8.990772514028571E-1    6.258861826805895E-2    7.417765315130471E-4   -4.775885561561584E-4   -4.745177112313816E-4    9.212300533690826E-5    9.730730980756465E-1   -6.131410933670457E-2
 4.600000000000000E7    -8.947119478061214E-1    6.791525468399211E-2   -3.145680019735563E-4   -1.707562318622762E-4    1.635394921683557E-4    2.548167601811068E-4    9.677049635610777E-1   -7.193608508383763E-2
 4.700000000000000E7    -8.978342504864583E-1    6.761963478944642E-2    2.482143809085485E-4   -1.737662031345164E-4    1.371980678023624E-4    2.855267422123731E-4    9.660348353010536E-1   -7.402490821286342E-2
 4.800000000000000E7    -8.952733416918579E-1    6.597468636028614E-2    1.526805843063315E-4    8.648694786698333E-4   -2.558910213178355E-4    4.137221134474078E-4    9.699142813964786E-1   -7.406500177000454E-2
 4.900000000000000E7    -9.029064250670878E-1    6.592352718547301E-2    5.017149615462849E-4    7.353584398988749E-5    3.411280476522333E-4   -9.409027954949403E-4    9.625105106448315E-1   -7.630719664958098E-2
 5.000000000000000E7    -9.014578194700712E-1    7.517954164036374E-2   -1.258500727136386E-4   -3.742290713951395E-4   -1.925830977549770E-4   -2.552678527764396E-4    9.657655986031584E-1   -7.755984022207899E-2
 5.100000000000000E7    -8.929114652013120E-1    7.371691980657029E-2   -6.064408762918106E-6   -4.924315023208241E-4    5.150259802012614E-4   -7.168659552514690E-5    9.661738464187311E-1   -8.141755270267700E-2
 5.200000000000000E7    -8.949864331889278E-1    7.520492275872466E-2   -2.330774796136061E-4    9.928984502722834E-5    1.431999381177256E-4    8.904025368053632E-5    9.711861885932952E-1   -8.694160096408052E-2
 5.300000000000000E7    -8.920144629476522E-1    7.415937390928157E-2    4.754848207662195E-4   -1.485308802017055E-4   -4.594435676865548E-4    3.618418942640417E-4    9.773683580581017E-1   -8.267551916269604E-2
 5.400000000000000E7    -8.925677527606009E-1    7.573117062045615E-2   -7.926122341012770E-5    3.083236383964111E-4    1.660393303530520E-4   -3.559762438959442E-4    9.658275287271709E-1   -7.798126705192195E-2
 5.500000000000000E7    -8.942719321561166E-1    7.896388425589478E-2    1.253890972790050E-4   -2.802087031398126E-4   -4.488777863652688E-4    3.334794986783943E-4    9.723141954135908E-1   -8.794418682529088E-2
 5.600000000000000E7    -8.953228088254965E-1    8.359809788804770E-2   -9.130084492926156E-5   -6.812684920858071E-4    2.720084408296770E-4   -2.845840178576593E-4    9.700155278832011E-1   -8.783510909921800E-2
 5.700000000000000E7    -8.932798810434915E-1    8.087997979266487E-2   -2.762225074727627E-4   -5.354414359559889E-5    4.253849545546440E-4   -2.904597143081884E-4    9.688402343417093E-1   -8.620890781820062E-2
 5.800000000000000E7    -8.929942818894042E-1    8.353637300643635E-2    9.700647658135424E-5   -1.730665282097629E-5   -4.511518696375248E-4    8.196822575972257E-5    9.641145142145687E-1   -8.542742507681352E-2
 5.900000000000000E7    -8.921693861858211E-1    8.469985895064022E-2   -6.721513474404616E-5    4.180120004192545E-4   -1.919848166668116E-4    5.550850542439597E-4    9.641470707497889E-1   -9.437247468411052E-2
 6.000000000000000E7    -8.948877665735876E-1    8.651053413349359E-2    4.047835035942798E-4   -2.014792313916381E-4    1.768996656226549E-5    1.932969414061485E-4    9.608056076466133E-1   -9.314080903007027E-2
 6.100000000000000E7    -8.936617521098362E-1    8.326281176196033E-2   -2.697326753844166E-4    5.359515212294327E-4    9.171473596099937E-5   -5.824112926811323E-4    9.733243108151531E-1   -9.216940830762739E-2
 6.200000000000000E7    -8.938068021483565E-1    8.887634700015822E-2    3.414803548487865E-6    2.812797280082755E-4   -4.904622085201457E-4   -4.764361885291450E-4    9.626017721808621E-1   -9.005659387627897E-2
 6.300000000000000E7    -8.887223237502980E-1    9.217076707391554E-2    4.402856178353145E-4    4.442440381379151E-4    4.893159502235133E-5    3.049342223092906E-4    9.650468890756652E-1   -9.626972590203486E-2
 6.400000000000000E7    -8.923737169388273E-1    8.826155548115228E-2   -1.757029575120941E-5    3.979086451320216E-4   -3.615776129362619E-4   -7.704361154228202E-4    9.627932616613029E-1   -9.051739622085828E-2
 6.500000000000000E7    -8.960771815784794E-1    9.309991188397387E-2    6.252310432629986E-4    1.797119327248650E-4    2.279191094188322E-4    1.726792390150281E-4    9.623237738082261E-1   -9.568721089040107E-2
 6.600000000000000E7    -8.907682787936452E-1    9.653768308899130E-2   -3.933215568586729E-4   -1.084958614842816E-4    3.447474498088217E-4    4.121166155025845E-4    9.628045130721389E-1   -9.896025656954827E-2
 6.700000000000000E7    -8.918374822054314E-1    9.608171099634784E-2    3.325625124285899E-4    4.770106753913678E-4   -1.259422341739390E-4   -5.448024107812229E-4    9.589936269830162E-1   -1.035280893991361E-1
 6.800000000000000E7    -8.867293192629162E-1    9.443691828303365E-2    7.570901541196359E-4    8.151432715519663E-5   -4.199171719076296E-4    1.914143737783827E-4    9.614897281971806E-1   -9.922547924884070E-2
 6.900000000000000E7    -8.918024543216088E-1    9.525779501007439E-2    2.514062514370135E-4   -2.171282876904640E-4    3.545883883881057E-4   -3.344190947212619E-4    9.674397061616637E-1   -1.032913944739476E-1
 7.000000000000000E7    -8.915541295250123E-1    9.569889932265997E-2   -7.598538066506466E-4   -2.410746539268272E-4    1.789805494698317E-4   -4.005540093300064E-4    9.574667193488799E-1   -1.084922093969541E-1
 7.100000000000000E7    -8.949396713714382E-1    1.026458257041938E-1    5.502263090631345E-4   -1.905432639022289E-4    1.244897281146695E-4    4.173509094099152E-4    9.588190100217338E-1   -1.012701010882273E-1
 7.200000000000000E7    -8.896969186546412E-1    1.030052606253622E-1    2.013465401107825E-4    3.848576554373437E-4    3.120493500072797E-4   -5.875070393050454E-5    9.605374842844180E-1   -1.104497278433745E-1
 7.300000000000000E7    -8.937081314410954E-1    9.996673055571205E-2    2.341756333908584E-4    2.436687537903567E-4    8.353592809013318E-5   -5.966935250020994E-4    9.565259952103483E-1   -1.083924440339664E-1
 7.400000000000000E7    -8.911134257370589E-1    1.024790460348454E-1   -3.142395601123429E-4   -7.504141532992902E-4   -3.813926012916031E-4    1.244865351533434E-4    9.600451507111855E-1   -1.077845154680389E-1
 7.500000000000000E7    -8.889910673261082E-1    1.015695444373072E-1   -3.126109842967091E-4    5.908727522825788E-4   -2.068300384590584E-4    8.367450726605195E-6    9.585429393196709E-1   -1.107051828590408E-1
 7.600000000000000E7    -8.922749357575255E-1    1.084518604347669E-1    2.878935399188331E-4   -5.243470421576957E-4   -9.964621445846173E-4   -4.383314676810712E-4    9.549057288692641E-1   -1.150553743221444E-1
 7.700000000000000E7    -8.891724583109377E-1    1.108821891916933E-1    5.050635467052958E-4   -5.479784502857024E-4   -4.639860140131309E-4   -3.580236711649902E-4    9.571044905616669E-1   -1.174272122268861E-1
 7.800000000000000E7    -8.923279666471046E-1    1.113034153157315E-1    2.329415597038210E-4    1.583852856209401E-4   -3.255184263117678E-5    1.605335521208388E-4    9.576479677284365E-1   -1.125807210893220E-1
 7.900000000000000E7    -8.864412357019040E-1    1.085205828655639E-1    5.761580574836981E-4    5.050270870347597E-4   -6.765592028232016E-5    2.406243947630707E-4    9.551199305375389E-1   -1.225861158289981E-1
 8.000000000000000E7    -8.847434073922168E-1    1.149425640070903E-1   -5.590294734555335E-4   -3.484955970603251E-4   -5.284149058436944E-4    4.561054866522297E-4    9.610577890759671E-1   -1.169707030461005E-1
 8.100000000000000E7    -8.813103236727879E-1    1.120353759884725E-1    8.978239579864567E-4   -3.973381808730753E-4    3.054577179801138E-4    5.847413960178763E-4    9.538136562092646E-1   -1.223271408026967E-1
 8.200000000000000E7    -8.905084987123482E-1    1.136068543922566E-1    7.459447972452910E-4   -8.751427355912552E-5   -4.294790688957006E-5   -5.552415100716597E-4    9.582355823494664E-1   -1.243794758365213E-1
 8.300000000000000E7    -8.893082824299838E-1    1.149564436038017E-1   -3.964787202224708E-5   -4.835654275335655E-4   -4.820474339304637E-5   -3.011603668379566E-4    9.578951994673077E-1   -1.263567470715049E-1
 8.400000000000000E7    -8.861212170384459E-1    1.121288472413046E-1    1.768378703210012E-4    8.415438450021015E-5   -2.691003663587831E-4    3.582318733009387E-4    9.566228842733810E-1   -1.243808324180424E-1
 8.500000000000000E7    -8.858805214098913E-1    1.174236867806004E-1   -5.161064199056496E-5   -7.597452233739608E-4   -5.485515900773427E-4    6.920557820510332E-6    9.556055915760131E-1   -1.257557466732107E-1
 8.600000000000000E7    -8.855089031553297E-1    1.195151193678100E-1    1.367697466103517E-4    1.672346235690623E-5   -2.793894937701098E-4   -4.421434677992973E-4    9.513086686107511E-1   -1.278541702243038E-1
 8.700000000000000E7    -8.830174907036764E-1    1.165600340058633E-1   -1.946397721222930E-4   -3.675561047640366E-5   -3.121141193239328E-5    1.165797043417409E-4    9.596130342102774E-1   -1.263956884301899E-1
 8.800000000000000E7    -8.782313437683332E-1    1.258499438585250E-1    8.533321221464849E-5    3.126278247336499E-4    2.988400510251883E-4   -1.358693001245662E-4    9.536405132227156E-1   -1.336049009632804E-1
 8.900000000000000E7    -8.841590607306258E-1    1.238532024738700E-1    5.050079968177232E-4   -1.679820166231814E-4    3.509038302237799E-5   -5.539936237315839E-4    9.547052078714797E-1   -1.329087860031676E-1
 9.000000000000000E7    -8.888956077141839E-1    1.250897655499463E-1   -1.696163487642977E-4   -1.219164200074742E-4   -5.093553605196273E-5    5.631459416441071E-4    9.556425205842837E-1   -1.323375647078675E-1
 9.100000000000000E7    -8.852692539345076E-1    1.274790227760942E-1    5.758628098746377E-4    1.155849995836049E-4   -1.456097808313550E-4   -6.622087305630127E-4    9.560954695259832E-1   -1.343648850050864E-1
