#  HZ   S   RI   R     50.00 
! Rohde & Schwarz Vector Network Analyzer 
! Rohde-Schwarz,ZNBT8-20Port,1318700624101681,3.50
! Created: UTC 7/15/2025, 2:09:54 PM
! freq[Hz]                re:S1010                im:S1010                re:S0610                im:S0610                re:S1006                im:S1006                re:S66                  im:S66
 1.000000000000000E6    -9.049892019215761E-1   -9.927676160965746E-3    2.627221428651151E-5   -2.880354582586718E-4    2.260475735670243E-4   -4.217189208033824E-5    5.665836670269321E-1    1.109165837186888E-2
 2.000000000000000E6    -8.995418357090902E-1   -9.418375762689557E-3   -3.374972199747489E-4    1.757717782407179E-4   -6.143395883223692E-5   -1.939719933715811E-4    5.667332123019839E-1    1.361757764587181E-2
 3.000000000000000E6    -9.079189499838768E-1   -9.441331034425326E-3    3.092350841302515E-5    1.432985098693627E-4   -6.806573999832490E-5    1.360584639817673E-4    5.526524017106772E-1    5.455238726651563E-3
 4.000000000000000E6    -9.138836061337293E-1   -5.762627038876343E-3    3.205871394750949E-6   -8.452849332374442E-5    1.763690910303064E-4    6.395225878178042E-5    5.574207195076427E-1    3.548963345053813E-3
 5.000000000000000E6    -9.058839234527223E-1   -1.475998349269754E-3   -2.605450576020706E-5   -6.068908326438293E-5   -3.687423783441267E-5    7.255971516118203E-5    5.586088824817651E-1    4.941176121168762E-3
 6.000000000000000E6    -9.067653177347055E-1    3.008894269027341E-3    2.879372938045700E-4   -3.941399078886349E-5   -2.761099419253664E-4    2.006423725538120E-4    5.591727830096790E-1   -2.318846538580346E-4
 7.000000000000000E6    -9.087989742047416E-1    5.956898819287785E-3    3.660910692865854E-5   -8.330133129978279E-5   -5.380168606487868E-5    1.472894289209401E-5    5.618227426951738E-1    1.659329586012845E-3
 8.000000000000000E6    -8.932972508426357E-1    1.327835072500236E-2    1.618830044733564E-4    3.067286626334797E-4   -7.782941431987805E-5   -2.637342676132333E-4    5.594150415907452E-1   -1.836683736866198E-3
 9.000000000000000E6    -9.012912527262422E-1    7.265613269643120E-3   -1.200743638885678E-4   -4.941837564949625E-5   -2.601261477840758E-4    1.445473613300824E-5    5.569246099126925E-1   -1.357379096638200E-2
 1.000000000000000E7    -8.864525710930762E-1    2.250168774470848E-2   -3.062071077734331E-4    4.396318307683160E-5   -3.565301058157264E-4   -7.769723376384645E-5    5.580548810219632E-1   -1.281517264796312E-2
 1.100000000000000E7    -8.974758876211976E-1    1.561461180869621E-2   -3.822691446885177E-5   -7.548504934691083E-5    1.331682879974240E-5   -1.136764150571065E-4    5.657837843770508E-1   -1.240076079944887E-2
 1.200000000000000E7    -8.999097310718329E-1    1.893564679324063E-2    6.232083970900113E-5    3.355734141829077E-5   -4.885599959767018E-4    4.077796417165755E-4    5.619669179780798E-1   -1.116758752833040E-2
 1.300000000000000E7    -9.038355636980424E-1    2.316997318185224E-2    1.160035002439285E-4   -6.849853832406185E-5    1.985164677357071E-4   -3.521493799291389E-4    5.597208980498087E-1   -1.488242775171490E-2
 1.400000000000000E7    -9.034691470112788E-1    2.969236921752159E-2   -1.382853656840623E-4   -5.288405540563547E-5    1.206163137217920E-4    3.191094525670030E-4    5.674956598927425E-1   -1.578420864734918E-2
 1.500000000000000E7    -9.027022476618271E-1    2.119325014134995E-2    3.218227546796582E-4   -1.837831784743016E-5    2.404748724391541E-4    1.297491562672620E-4    5.657766619993393E-1   -1.820085465488985E-2
 1.600000000000000E7    -9.100270433028365E-1    2.946189548321461E-2    1.523693168221547E-4    1.998761514102858E-4   -1.776632221433580E-4   -1.975694469734915E-4    5.652543797233974E-1   -1.247777648885109E-2
 1.700000000000000E7    -9.024477372640664E-1    3.553000370505966E-2    1.776927551725945E-4    2.346057210256974E-4   -1.552125152719121E-4   -1.772717601809666E-5    5.581178184455913E-1   -1.850122693283330E-2
 1.800000000000000E7    -9.077440193362536E-1    2.318231898303741E-2    9.892909443952085E-5    4.277692211495534E-4   -6.216511655700936E-5    1.542492067064122E-4    5.592495784337923E-1   -1.553325317903609E-2
 1.900000000000000E7    -8.944566828758795E-1    2.956123694116132E-2   -1.831014971365182E-4    2.951627074891797E-4    1.505392364220925E-4    8.514690679927488E-5    5.615014487879979E-1   -1.825390175859978E-2
 2.000000000000000E7    -8.968789626540091E-1    3.309368723025823E-2   -3.324523540412919E-4    2.730863954420970E-5    3.009988975595615E-5   -3.213862327398543E-5    5.632578544429234E-1   -1.750857053140494E-2
 2.100000000000000E7    -8.975016705472594E-1    3.535226362582005E-2    5.013700126909060E-6    2.574213505835394E-4   -1.986961561352168E-4   -6.378880959908930E-5    5.612190521286043E-1   -1.543277297496867E-2
 2.200000000000000E7    -9.039163002484507E-1    4.213474005431761E-2   -1.708440976450479E-4   -5.660193059950254E-5    3.319885347946971E-5    2.682644612589274E-4    5.639037260669898E-1   -1.745816702196759E-2
 2.300000000000000E7    -8.944780335909479E-1    2.955962855046066E-2    6.184620270044841E-6    6.728294101071864E-5   -4.346387338623936E-5    1.119722366547721E-4    5.612123569691397E-1   -2.267845208311714E-2
 2.400000000000000E7    -8.971341675918751E-1    3.850561757835626E-2    2.938197164140819E-4   -8.963937147688827E-5   -2.337649659058975E-4    2.620177012118964E-4    5.578655034328207E-1   -2.460396095152891E-2
 2.500000000000000E7    -8.942331116356372E-1    4.938155174091721E-2   -2.803633175986846E-5    1.262723587336084E-4   -2.427450922476887E-4   -6.877847498005983E-5    5.701929942227361E-1   -2.257451082275493E-2
 2.600000000000000E7    -9.015718918023863E-1    3.836771557108517E-2   -7.531506420463117E-4   -5.488664973988863E-4   -4.672452476758815E-4   -8.006614199144886E-4    5.628743415097096E-1   -2.889863039759683E-2
 2.700000000000000E7    -9.010745384240284E-1    3.574334019307707E-2   -4.210955938319313E-4    5.552687004121840E-4   -3.513602096781591E-4   -4.665110644526645E-4    5.576385544721374E-1   -2.524549406359593E-2
 2.800000000000000E7    -8.995990737524087E-1    4.357670117244743E-2   -2.312466271461975E-4   -2.266240217268758E-4   -4.047173799101293E-4    2.057619180439016E-4    5.601085742699168E-1   -2.610239885649054E-2
 2.900000000000000E7    -9.013633617413985E-1    5.221488651953113E-2    1.367963376651717E-4    1.207909931873850E-4   -6.212599483520797E-4   -1.690973963951494E-4    5.594911495936209E-1   -2.802578882073016E-2
 3.000000000000000E7    -8.998880358515315E-1    4.521875716880280E-2   -4.419111638951967E-4    4.197509167952665E-4   -2.970914059556698E-4    2.378230808372575E-4    5.586818134191179E-1   -2.513512445848633E-2
 3.100000000000000E7    -9.030170230230044E-1    5.043458234052701E-2   -2.326161929670216E-4   -2.712917420899145E-4    1.335976262613974E-4   -9.954565592688593E-4    5.599626433428608E-1   -2.310858151714941E-2
 3.200000000000000E7    -8.991634177105409E-1    4.196148233517613E-2    1.310276701686990E-4    5.886119311251004E-4    2.086943671105410E-5    3.413730808725923E-4    5.607526740395037E-1   -2.948780989594434E-2
 3.300000000000000E7    -8.956146433502068E-1    5.013221623444560E-2    9.819219119139472E-5   -5.760894938062768E-5   -2.617527060609482E-4    2.360163563499243E-4    5.602626247696360E-1   -2.704758758816860E-2
 3.400000000000000E7    -8.977661211795852E-1    4.573482810467677E-2   -1.079044863528787E-4   -1.097088408696447E-4    8.013818294061195E-4   -4.616704706424713E-5    5.566201439660582E-1   -3.392666538384032E-2
 3.500000000000000E7    -8.992940170572936E-1    5.235795618076479E-2   -2.771964871125456E-4    1.741851783370672E-4    1.925984818193608E-4    9.657178206694757E-5    5.603469468274288E-1   -3.272738518907991E-2
 3.600000000000000E7    -9.017397639110171E-1    5.698119285914464E-2    2.277389736456774E-4    4.361271842862815E-4    8.484250690523038E-5   -4.375393777470347E-4    5.623701636052202E-1   -3.438814718017128E-2
 3.700000000000000E7    -8.973671313948038E-1    5.556422046954161E-2    1.483530244152932E-4   -5.257359896780291E-4    4.430794404534411E-4    1.859458574380821E-4    5.591357985530698E-1   -3.201342014640247E-2
 3.800000000000000E7    -9.014963376449057E-1    5.619905463310719E-2   -6.984607256960707E-5    6.180133221238181E-4    4.502570493387035E-4   -1.547107970619572E-4    5.559294817061705E-1   -3.134942298846678E-2
 3.900000000000000E7    -8.983273604028070E-1    5.181676244531564E-2    2.037240122102443E-4   -2.349295195076663E-4    3.372660372849048E-4    2.233949451660056E-4    5.564916481065538E-1   -3.668751267398369E-2
 4.000000000000000E7    -8.955268087599790E-1    6.393287911101105E-2    4.932319672555791E-4   -1.350355295273198E-4    1.427145345590190E-4   -3.661270553037351E-4    5.571589376531260E-1   -3.374910862483034E-2
 4.100000000000000E7    -9.006683668719949E-1    6.350943598732688E-2   -1.516377623946927E-5    4.898066266551138E-4    4.822089990971360E-4   -1.983086690217255E-5    5.573425167213422E-1   -3.278383227281724E-2
 4.200000000000000E7    -8.978792409301032E-1    6.235882678605526E-2    1.093637201897083E-4    1.594390629322929E-4    1.342861575425498E-4   -1.710485187268962E-4    5.544838543305585E-1   -3.667095207266265E-2
 4.300000000000000E7    -8.972659802073217E-1    6.431569719265350E-2    3.726971185863455E-4    6.892474821161329E-5   -2.204044777417565E-4    5.069329290719671E-4    5.563140798640661E-1   -3.908967950950275E-2
 4.400000000000000E7    -8.951566554604927E-1    6.539477156747088E-2    9.371188304514227E-4    8.392658965891769E-4   -4.561368997937069E-4    1.940484035045993E-4    5.536876603320522E-1   -3.335890505756632E-2
 4.500000000000000E7    -9.058087084351008E-1    6.348067697955154E-2   -7.941191272365429E-4   -5.579445360124064E-5   -1.099518828213993E-4    3.311160994381567E-4    5.597648822324934E-1   -3.959015548486215E-2
 4.600000000000000E7    -8.966432375801635E-1    7.229293356132387E-2   -1.634063373314513E-4   -2.623017883061688E-4    3.319843286568494E-4   -2.668936996306277E-4    5.605953508057442E-1   -4.168213082185745E-2
 4.700000000000000E7    -8.978398745476394E-1    7.420760923338197E-2   -1.377358696499061E-4    5.143413454704909E-4   -1.760471771645114E-4    8.246147315327037E-5    5.510221830388226E-1   -4.319980518418103E-2
 4.800000000000000E7    -8.954503323561851E-1    6.686106195564163E-2   -1.810932597497325E-4   -1.868156896168058E-4    3.905322826692672E-4   -1.402686635479329E-4    5.579269650382074E-1   -3.683059029721488E-2
 4.900000000000000E7    -9.071742897904219E-1    7.271930475517747E-2   -7.666560407956619E-5   -1.443558044430859E-4    6.950798907387195E-5    1.319587540886529E-5    5.550067956496283E-1   -4.129526744182627E-2
 5.000000000000000E7    -8.982103127687902E-1    7.351458563979832E-2    6.472939418347975E-4    1.092873018157335E-4   -7.426886493020713E-4   -4.495564102277606E-5    5.561618488891499E-1   -4.701909033252953E-2
 5.100000000000000E7    -8.942526920699392E-1    7.555993094836645E-2   -5.579308373407842E-4    3.906511022261507E-4   -2.187166379833985E-4   -3.010037366694470E-4    5.555711482610096E-1   -4.732867019554931E-2
 5.200000000000000E7    -8.909043217230462E-1    7.568778467126512E-2    6.747586441710639E-6    7.362083498835044E-5    1.768141674851256E-4   -7.629395086305931E-4    5.526346255909369E-1   -4.583432873214716E-2
 5.300000000000000E7    -8.926026431541570E-1    7.696278835864530E-2    4.435878629100698E-4    3.413778977864429E-4    6.382425937429761E-4    2.331349436887863E-4    5.541834840573018E-1   -4.653844312368826E-2
 5.400000000000000E7    -8.963437112272571E-1    7.821848788406437E-2    6.301253256094804E-5   -1.919058223702542E-4   -6.210493802611845E-5    5.309851524014312E-4    5.555898184590963E-1   -4.544413367371278E-2
 5.500000000000000E7    -8.966275173843552E-1    8.422467301882303E-2   -7.757376613750760E-5   -3.058464991027964E-4   -8.374677884405898E-5   -1.084597431345258E-4    5.513802128973790E-1   -4.959750310631727E-2
 5.600000000000000E7    -9.027962519641937E-1    8.134221161404193E-2    1.675901395467221E-4   -7.193756250533200E-5   -3.552829580757617E-4   -1.609695992235923E-4    5.567897772681911E-1   -5.087782356670054E-2
 5.700000000000000E7    -8.898839189897717E-1    8.211726013343365E-2    1.406958041562816E-4    5.328131156469443E-4   -3.954425154602875E-4    8.781280003072393E-5    5.530674344595331E-1   -5.124684596607242E-2
 5.800000000000000E7    -8.942944218609652E-1    8.363179859466047E-2   -1.174196067255521E-4    2.687296230377580E-4    4.655269212693609E-4   -2.142975994735691E-5    5.554693869641378E-1   -4.549404482847441E-2
 5.900000000000000E7    -8.925994787814728E-1    8.430001019496242E-2    3.833640322082846E-4   -3.330473272442891E-5   -7.311488796787277E-4    2.307407856173306E-4    5.567261095909023E-1   -5.521983992631457E-2
 6.000000000000000E7    -8.916616674259040E-1    8.461513102018149E-2   -1.000746382542295E-4    3.149940158575270E-4    8.424476398810173E-5    3.713335858753790E-4    5.532817579399292E-1   -5.250813497177013E-2
 6.100000000000000E7    -8.892897230962868E-1    8.984567020265838E-2   -7.532343284935665E-6   -1.989748993231044E-4   -2.561040851807312E-5   -1.485727933307930E-4    5.558860692593803E-1   -5.170132691684463E-2
 6.200000000000000E7    -8.936989862809663E-1    9.054723832625640E-2    5.565051016921949E-4   -1.475233210978404E-4    6.186582309840274E-5   -2.110003414800444E-4    5.505329475295805E-1   -5.555102236203342E-2
 6.300000000000000E7    -8.943272704503974E-1    9.186231528869607E-2    5.722310783712312E-4    1.227771677925034E-4   -2.592142578433490E-4    3.386898494677553E-4    5.522675496902243E-1   -5.945316681815777E-2
 6.400000000000000E7    -8.914570492111772E-1    9.140126665716120E-2   -2.079915647011115E-4    2.486977300419900E-4   -1.282127184404856E-4   -2.136726459106986E-4    5.558017874243355E-1   -5.437611288440148E-2
 6.500000000000000E7    -8.962514734387497E-1    9.416257761525071E-2    3.951235417209795E-5   -1.436952526576464E-7   -1.128624263147957E-5   -2.869010141085122E-4    5.547109892509214E-1   -5.344500898794977E-2
 6.600000000000000E7    -8.954417894730549E-1    9.432262635050974E-2    7.000904767739931E-4    2.993321902583914E-4    4.103966443435057E-5    1.887749217846475E-4    5.533942825231092E-1   -5.988526846201344E-2
 6.700000000000000E7    -8.974378443790191E-1    9.890432651991371E-2    1.567354480219088E-4   -8.593717264011156E-5   -3.436597905358836E-4    3.455685153326788E-4    5.544503570823406E-1   -5.440863580297377E-2
 6.800000000000000E7    -8.908835661100191E-1    9.834221351690205E-2   -4.816113941268416E-5    7.108829263791106E-5   -6.554991774891116E-5   -5.613842306851340E-4    5.551504443043216E-1   -5.887087257263786E-2
 6.900000000000000E7    -8.912933199390516E-1    9.324347786784261E-2    1.446810020328302E-4    3.672834650163341E-4    8.939920267222304E-5    9.427458345094402E-4    5.533916399008603E-1   -6.106637262500559E-2
 7.000000000000000E7    -8.966316003821881E-1    9.453912288774854E-2   -4.400893589288524E-4   -4.981339395210303E-5   -1.521924414068690E-4    3.915162145115208E-4    5.533092958396297E-1   -5.988347352513969E-2
 7.100000000000000E7    -8.943061236949663E-1    1.034674980968499E-1    1.933661308149866E-4    1.003319491578529E-4   -4.390272490341355E-4   -6.410975231052049E-5    5.505373116623539E-1   -6.467343921959993E-2
 7.200000000000000E7    -8.857513039738681E-1    1.037451285776627E-1    3.379259391069241E-4    5.669376746725073E-5    8.011344499115360E-5   -4.134183303547244E-5    5.493900948213057E-1   -6.114158314714534E-2
 7.300000000000000E7    -8.930699692442973E-1    1.034480305193441E-1   -1.383850585439768E-4    1.540616630466216E-4   -2.019105138579386E-4    3.508243570011857E-4    5.541530620338508E-1   -6.495881595509458E-2
 7.400000000000000E7    -8.895553153751815E-1    1.040779185784000E-1   -5.080728702602370E-4    2.916352643046867E-4    1.390535424099819E-4    2.720134566703364E-4    5.530877634289282E-1   -6.362315799861361E-2
 7.500000000000000E7    -8.903830501447786E-1    1.029442857853145E-1    7.319224103530666E-4    2.270681506945582E-4    3.781927755228420E-4   -1.974779295705726E-4    5.483484483643304E-1   -6.585104795154800E-2
 7.600000000000000E7    -8.878314609390826E-1    1.093855248457181E-1   -5.575181736425665E-4    2.219747861515344E-4    1.726757245540118E-4    7.962981894225066E-5    5.528662005141901E-1   -6.900847745656526E-2
 7.700000000000000E7    -8.939490447951712E-1    1.071286089142570E-1   -2.323642577794794E-4   -2.913348256268260E-4   -1.981991764735134E-4    6.729756160111857E-4    5.528239291583534E-1   -6.231275393358203E-2
 7.800000000000000E7    -8.913570273389325E-1    1.072062870265651E-1    2.073190486397762E-4   -5.547877924448511E-4    7.377601026237596E-5   -2.276491291782983E-4    5.498210277290004E-1   -6.967032299313916E-2
 7.900000000000000E7    -8.856109929174689E-1    1.103212424561691E-1   -3.470469321855776E-4   -5.258607125194041E-4   -6.504160112981864E-4    3.478923397853796E-4    5.552738769745824E-1   -7.008328437484249E-2
 8.000000000000000E7    -8.855144329061967E-1    1.109576458253207E-1    1.907901017192152E-6    2.398276791039953E-4   -1.696434827953349E-4    5.376091562303600E-4    5.501068858287484E-1   -7.213967473296884E-2
 8.100000000000000E7    -8.848341579133886E-1    1.123403554873877E-1    2.902930043705441E-4   -6.759499900319614E-4    6.671570394854659E-4    1.025701360333565E-4    5.510462238300977E-1   -7.332179027482519E-2
 8.200000000000000E7    -8.829252199775678E-1    1.111246348560341E-1    1.636955063050094E-5   -6.296047980357994E-4    6.929881518157873E-4   -4.292653945375692E-4    5.504393003631540E-1   -7.018953444096349E-2
 8.300000000000000E7    -8.927207382758583E-1    1.144973065885120E-1    1.305841425385308E-4    1.936060066695503E-4    4.984783816628619E-5    6.396317915826185E-4    5.504358085971134E-1   -7.332268464586683E-2
 8.400000000000000E7    -8.923037834847024E-1    1.088896254865915E-1    4.634675901427604E-4   -9.662958303999617E-6    4.886883089538614E-4   -7.291278395161231E-4    5.514191026448633E-1   -6.709323666214340E-2
 8.500000000000000E7    -8.907561163061369E-1    1.173175657208155E-1   -1.732548739592776E-4   -2.358314322025346E-4   -7.874008059480700E-5    3.896854315753635E-4    5.516128513431299E-1   -7.158095567434956E-2
 8.600000000000000E7    -8.810439739769542E-1    1.145106913135605E-1   -2.149867527181817E-4   -9.733541655405948E-5   -2.404853699523836E-5    1.410855702239564E-4    5.511323630198929E-1   -7.769965688598758E-2
 8.700000000000000E7    -8.882721935395061E-1    1.253360925597332E-1   -3.528898424363002E-4   -2.973400692015571E-5    3.358553083672777E-4    4.938893288989423E-4    5.502387166259166E-1   -7.291550392019015E-2
 8.800000000000000E7    -8.866058096498897E-1    1.237295256686049E-1    2.039771906281961E-4   -1.992820184714303E-4    2.403592595254965E-4    2.517926583137172E-4    5.499481633172483E-1   -8.153026392094490E-2
 8.900000000000000E7    -8.789554543168183E-1    1.235741343300615E-1    1.169637386061496E-5   -2.726890241360913E-4   -6.426337258584223E-4   -2.646942863100151E-4    5.513941684889930E-1   -7.431344047479636E-2
 9.000000000000000E7    -8.882731299950708E-1    1.258597697695358E-1    1.865461956498467E-4   -4.205154187342062E-5   -2.997846005694033E-4    2.894349546659789E-4    5.483598004692067E-1   -8.061862464560630E-2
 9.100000000000000E7    -8.878767450715979E-1    1.236137737175728E-1   -4.680705580965760E-4    3.219970617381228E-4   -2.551382536883644E-4    5.761734254685878E-4    5.516368806366785E-1   -8.129602570665181E-2
