#  HZ   S   RI   R     50.00 
! Rohde & Schwarz Vector Network Analyzer 
! Rohde-Schwarz,ZNBT8-20Port,1318700624101681,3.50
! Created: UTC 7/15/2025, 2:07:26 PM
! freq[Hz]                re:S1010                im:S1010                re:S0610                im:S0610                re:S1006                im:S1006                re:S66                  im:S66
 1.000000000000000E6    -8.337512488822579E-1   -7.997520575216886E-3   -3.676427144543616E-4    7.003392564432358E-6   -1.430020346052798E-4   -8.535951527030286E-5    5.665529804233524E-1    1.198764564565787E-2
 2.000000000000000E6    -8.174705040949535E-1   -5.898888302940786E-3   -6.857375068926561E-5    2.322446154399029E-5    8.776186557360594E-6   -7.911519897081299E-6    5.594741943202201E-1    6.447759129196062E-3
 3.000000000000000E6    -8.184872081217160E-1    7.282981956692571E-3    3.598843282824981E-5   -1.686139206178808E-4    1.519109897521164E-4   -2.106519007361082E-4    5.592809478457710E-1    2.622964500157079E-3
 4.000000000000000E6    -8.307170496294614E-1   -1.014421492496833E-2    9.719316669033616E-6    1.748561280803179E-4    3.203290780976847E-5   -2.515889702966401E-4    5.634999333559084E-1    3.923632483654825E-3
 5.000000000000000E6    -8.237944583292188E-1    1.238411841003378E-2    2.597932539847325E-4    3.891873586478657E-4    9.261863410903451E-5    3.034642989876190E-4    5.571011578271888E-1   -1.095884324237310E-3
 6.000000000000000E6    -8.258653760335771E-1    2.014185729152402E-2    3.554882138711613E-5   -1.809639707347187E-4    2.641027467873103E-4    6.001487105079768E-5    5.600106535923908E-1    3.619411354940146E-4
 7.000000000000000E6    -8.332832859666048E-1    2.499582840073125E-2    1.509124075671286E-4    1.160784771771597E-4    3.031216857274691E-5   -1.587456323305464E-4    5.584018469868705E-1   -5.783294945070741E-4
 8.000000000000000E6    -8.242793971427264E-1    3.673641387127879E-2   -6.801821000458643E-5    1.196407982153501E-4    7.301581756242129E-5    1.231276392156935E-5    5.563464381001302E-1   -7.208840073309738E-3
 9.000000000000000E6    -8.296967149846886E-1    3.105461208477369E-2    8.654003064867027E-5   -3.107138533101095E-4    1.084237581884563E-4    7.495040000190572E-5    5.632446295029513E-1   -1.246862490725956E-2
 1.000000000000000E7    -8.169422974133861E-1    4.455011816391117E-2   -8.616339402132187E-5    1.789999828631430E-4    1.625271945269188E-4   -7.244583443810169E-5    5.566516020645671E-1   -1.019959586558767E-2
 1.100000000000000E7    -8.177597144548916E-1    5.197739235868225E-2   -4.372095496746988E-5   -6.073502253159277E-5    1.159156078590159E-4    2.099622018692206E-5    5.620732033994490E-1   -1.138922846711155E-2
 1.200000000000000E7    -8.195447300821543E-1    4.947517273171310E-2    2.993411413509633E-5    8.970649093372309E-5    1.660397522769988E-4    3.837322960489888E-4    5.640933825297182E-1   -6.829764850206531E-3
 1.300000000000000E7    -8.252268556757886E-1    5.792698193865024E-2   -5.561469659553773E-5    2.179427996480367E-4    2.182848703665579E-4   -1.177797663079500E-4    5.601472220372842E-1   -1.345375642611460E-2
 1.400000000000000E7    -8.258764947970288E-1    5.319987689784296E-2    1.287270325054137E-4    1.837058293902961E-4    8.201658997427150E-5    9.255649315856201E-6    5.633867059214449E-1   -1.774396737859694E-2
 1.500000000000000E7    -8.309583150221336E-1    5.721703504206063E-2   -9.838098141497719E-5   -1.181355783915648E-5   -2.859248260551831E-5    1.300980573983028E-4    5.665528053562062E-1   -1.048562631091780E-2
 1.600000000000000E7    -8.231736954225304E-1    6.429559772181787E-2    4.572425733388575E-5   -1.654229387034579E-4    1.283595395170773E-4   -6.668061902218544E-5    5.604855675791304E-1   -9.694050696219295E-3
 1.700000000000000E7    -8.168153890738957E-1    6.992862683075922E-2   -7.633696210905685E-5   -3.643702955785674E-5    8.422252633194791E-5    1.919309617482656E-5    5.597724387837048E-1   -1.465700090514098E-2
 1.800000000000000E7    -8.184137623903307E-1    7.181373402426998E-2    8.747959229731441E-5    1.174679644652083E-4   -4.249510897853387E-4    1.779102525997475E-4    5.619389208515769E-1   -1.898269684552587E-2
 1.900000000000000E7    -8.178733500214556E-1    8.126318660178806E-2   -7.030592758918564E-5   -2.221180358647576E-4    4.180955863397897E-6   -1.601633606794315E-4    5.550637761591457E-1   -1.809507662858089E-2
 2.000000000000000E7    -8.199938818107882E-1    8.341003095549746E-2    3.976081466108857E-5    4.033962576947598E-5    1.638690289444590E-4   -4.144085952487930E-4    5.611629086785870E-1   -1.869827249710626E-2
 2.100000000000000E7    -8.198944259808821E-1    8.543745243021532E-2   -1.139819074501663E-4    7.156879799767433E-5    3.496648895177438E-5    4.957621326814520E-5    5.606700198608110E-1   -2.087746000198703E-2
 2.200000000000000E7    -8.168506608994982E-1    8.142226660376359E-2    1.892548722320000E-5    5.265661750517945E-5   -1.635319272420655E-4    3.325954559310328E-4    5.540843501302966E-1   -2.308805798145131E-2
 2.300000000000000E7    -8.145927169725015E-1    9.183488009698922E-2    4.781114793137304E-4   -5.144950719725414E-5   -9.298351300859951E-5    2.570756773702733E-4    5.606256505336967E-1   -2.601514792459119E-2
 2.400000000000000E7    -8.212836348067653E-1    1.008031562840674E-1   -8.217910241785024E-5   -4.103635833441527E-5   -2.976805288333674E-4   -2.658104819079480E-4    5.579193670878903E-1   -2.107038262429440E-2
 2.500000000000000E7    -8.062337323392700E-1    1.044354735474462E-1    1.886802312498994E-4    1.738767503042136E-4   -1.059462903679925E-4   -2.221858597372300E-4    5.655414420515411E-1   -2.960469342561928E-2
 2.600000000000000E7    -8.191107651061972E-1    1.065428356617571E-1    5.475561178075586E-4   -1.936978409748297E-4    4.786630811438787E-4    2.878283145519628E-4    5.564292057629653E-1   -2.540476976648429E-2
 2.700000000000000E7    -8.159212170396041E-1    1.085669036504679E-1    2.085028110181851E-4    8.187404625211136E-6   -7.768350517109726E-6   -8.496908778521961E-4    5.554346971420778E-1   -2.433389811838433E-2
 2.800000000000000E7    -8.181160871529541E-1    1.184487986504855E-1    9.420412600164150E-5   -2.361780961468754E-4   -2.145514890949985E-4    1.221749295330048E-4    5.613911465118235E-1   -2.513354928222936E-2
 2.900000000000000E7    -8.109610764995376E-1    1.218533599435014E-1    4.004369411460610E-4    5.564419580677002E-4   -3.792590337157221E-4    3.960180614718273E-4    5.565632115342900E-1   -3.003916358214900E-2
 3.000000000000000E7    -8.155894398763428E-1    1.251094897725378E-1    2.058361464759690E-4   -8.921592471964811E-5    2.462378832251231E-4    3.876248760595221E-4    5.571493293345784E-1   -2.465163394440055E-2
 3.100000000000000E7    -8.140779320026289E-1    1.298292928737353E-1   -4.679722148254372E-4   -3.017771999383138E-4   -3.418751721093213E-4   -7.762769086839418E-5    5.612028410033345E-1   -3.039459895251629E-2
 3.200000000000000E7    -8.153650919161837E-1    1.248772430133974E-1    1.809895973962936E-4   -2.986243457907668E-4    1.128732241659242E-4    2.701856544450333E-4    5.572384946959165E-1   -3.031228913511562E-2
 3.300000000000000E7    -8.102331331851145E-1    1.333710947642955E-1   -4.183210106432939E-4    1.752209536341830E-4   -4.934789207086576E-4   -4.339859163565104E-4    5.582049582677082E-1   -2.648940990016475E-2
 3.400000000000000E7    -8.073862918320122E-1    1.320285138454697E-1   -9.674079744694645E-5   -2.326039385739310E-4    8.177383372558682E-4    1.991491373239569E-4    5.602764783906439E-1   -3.205965204313657E-2
 3.500000000000000E7    -8.088060324606071E-1    1.429522156456376E-1    4.242314461416050E-4   -1.780204436438602E-4    4.025864023388941E-4   -8.139516063968007E-5    5.565857554476772E-1   -2.645303392490066E-2
 3.600000000000000E7    -8.130340403377797E-1    1.491650814592433E-1   -8.878070930624391E-5    2.805484974461186E-4   -1.910428607660543E-4    3.003720720732575E-4    5.570665454865336E-1   -2.823265491571733E-2
 3.700000000000000E7    -8.117739094526168E-1    1.478697957443698E-1    6.349110959346540E-5   -1.412651232150658E-5   -2.922961357946780E-4   -2.846085898798615E-4    5.614726696712583E-1   -3.257419645512939E-2
 3.800000000000000E7    -8.080140257271612E-1    1.510325395073890E-1   -2.359190024471394E-4    5.736241295314418E-5    3.612920749905409E-4   -2.927551508272543E-4    5.557504262347794E-1   -3.273639118396809E-2
 3.900000000000000E7    -8.092001013465479E-1    1.579318011490374E-1    1.917695432097419E-4    3.195585065343365E-4    9.125445025206895E-4    1.835707699515693E-4    5.568350200561963E-1   -4.003071748331568E-2
 4.000000000000000E7    -8.070037427548367E-1    1.603671272147823E-1    8.302236026481422E-4    3.442648377294175E-4   -4.798890609648402E-4   -2.661417726010892E-4    5.608854989644467E-1   -4.129806107136579E-2
 4.100000000000000E7    -8.077537024075820E-1    1.641190789489186E-1   -7.037889259956382E-5    1.275809665729001E-4    2.755898487243937E-4   -3.412947244940792E-4    5.530904319801818E-1   -3.283582638869702E-2
 4.200000000000000E7    -8.084271411327463E-1    1.716941754388413E-1    1.351189049996141E-4   -2.862221366111076E-4    3.636274322331574E-4   -4.252749375051002E-6    5.547715772489110E-1   -3.101277193292657E-2
 4.300000000000000E7    -8.022949779337498E-1    1.784172783134363E-1    4.455089398356742E-4    1.902557255027564E-4    4.863172245220386E-5   -1.025993706015804E-4    5.533048794472393E-1   -3.764343513699821E-2
 4.400000000000000E7    -8.009942301638175E-1    1.786809304680822E-1    9.489662535349634E-5    3.059013744799907E-4   -3.313185178202721E-4   -2.605353451487122E-4    5.567950007407317E-1   -3.741313652871341E-2
 4.500000000000000E7    -8.050304161733214E-1    1.767567795849878E-1   -4.111228586264172E-6    6.194819028232117E-4   -3.017800743159449E-4    2.926777427977739E-4    5.569379427140903E-1   -3.738153333473726E-2
 4.600000000000000E7    -7.977324159930037E-1    1.880857184717988E-1   -2.765609936656274E-4   -1.662381966101084E-4   -4.424104262408324E-4    1.784120019268639E-4    5.563227822286382E-1   -4.053847901939082E-2
 4.700000000000000E7    -7.955827592446073E-1    1.905672886571058E-1    8.083012193187109E-6    8.873321428769522E-5    5.506405554431721E-4   -4.158901593559803E-4    5.525219535455939E-1   -4.265375971230616E-2
 4.800000000000000E7    -7.977364178381277E-1    1.870621469444078E-1    5.001480579839414E-4   -1.551785081783211E-4   -3.939120734446902E-4    1.210971280309487E-4    5.588045219912465E-1   -4.143309204127682E-2
 4.900000000000000E7    -7.950409955871129E-1    1.961074134247893E-1   -4.840218644583095E-4    6.134097311877890E-5    6.139044816362093E-5   -2.025500654784923E-4    5.545455244418912E-1   -4.422271797528775E-2
 5.000000000000000E7    -7.952420367288257E-1    2.038956531274967E-1   -3.552306548360389E-4    2.962724383883796E-4   -3.599633170203632E-5   -5.503727119266364E-4    5.559393024791619E-1   -3.922880259673071E-2
 5.100000000000000E7    -7.929216338214741E-1    2.010937310273645E-1   -1.005289268491840E-4    1.827030557193227E-4    4.689229833413893E-5    1.736487922030892E-4    5.559625022993377E-1   -4.616063189408907E-2
 5.200000000000000E7    -7.973250981240441E-1    2.044378712073606E-1    2.153722375554774E-4   -5.536344951537554E-4   -1.177749365086160E-6   -7.717909557595346E-4    5.552804319535831E-1   -4.875633298597988E-2
 5.300000000000000E7    -7.926461016885923E-1    2.155236187304127E-1    4.282021895439297E-5    6.143937233569711E-4   -3.740836685737116E-4   -1.686700346898388E-4    5.550978831462274E-1   -4.951341829065124E-2
 5.400000000000000E7    -7.885086142622294E-1    2.162473643093370E-1    2.139644281626108E-4   -2.549367776835887E-4    6.786196371760994E-5   -5.525101942256152E-5    5.510622159185323E-1   -5.079049902253917E-2
 5.500000000000000E7    -7.870308900368004E-1    2.254632314209377E-1   -1.929343641436825E-4   -6.411305449572234E-4   -1.886681690331716E-4   -1.967124350970682E-4    5.565865049781628E-1   -4.601760215457004E-2
 5.600000000000000E7    -7.897676140324109E-1    2.284460473358872E-1    4.263418771233507E-4   -1.798562966511477E-5   -3.840574696592074E-5    5.758610217485271E-4    5.574543324455282E-1   -4.631292507363700E-2
 5.700000000000000E7    -7.787029542752795E-1    2.306925839331250E-1   -9.419897358446253E-5    3.537724920878275E-4   -2.093202876543224E-4   -1.961115623929625E-4    5.558716194283885E-1   -5.004947230766378E-2
 5.800000000000000E7    -7.844313652863721E-1    2.278378022199385E-1    2.622752030357092E-4    1.754509490387356E-4    7.517570836117680E-4    5.468563138343460E-4    5.563861918269652E-1   -4.992035074053693E-2
 5.900000000000000E7    -7.796807348310234E-1    2.365576367522268E-1   -5.112758777881714E-4    2.630261957368133E-4   -2.383260359264335E-4   -6.325631106378294E-4    5.558647001443116E-1   -5.576813347445626E-2
 6.000000000000000E7    -7.842393453833929E-1    2.380578922314322E-1   -3.491293616005346E-4    3.067952852083550E-4   -1.389149453901370E-4   -3.264029787773073E-5    5.554232738543300E-1   -5.187584148091007E-2
 6.100000000000000E7    -7.771993092057129E-1    2.417418359878297E-1    7.002196351344652E-5   -1.053519736106015E-4    1.481743971451267E-4    2.673955395992925E-4    5.587475107255085E-1   -5.144806101178808E-2
 6.200000000000000E7    -7.782791775315985E-1    2.517541039411829E-1    2.735546588252495E-4    2.155061264433376E-4   -2.704681781910849E-4    4.938592924560132E-4    5.535117932402926E-1   -5.731745036257829E-2
 6.300000000000000E7    -7.788333124010477E-1    2.535007119545773E-1    3.817658680602945E-4   -3.235243418235313E-4   -2.494450787679319E-4   -2.950373700684120E-5    5.532828578920144E-1   -5.861133645987388E-2
 6.400000000000000E7    -7.830535755695220E-1    2.533187331389633E-1    7.319072749712539E-5    4.846759929880602E-5   -2.760911947624447E-4   -1.031094727711272E-4    5.508169860230306E-1   -5.579005547706505E-2
 6.500000000000000E7    -7.731925767370766E-1    2.571056869645784E-1    6.303625121954924E-5    2.674597149748450E-4    3.978844518371383E-5    4.582064900878913E-4    5.546100184262718E-1   -5.558709298045375E-2
 6.600000000000000E7    -7.752757842798429E-1    2.676155727565092E-1    1.013275064394673E-4    8.229358036594839E-5    3.183021467969811E-4    1.664034904139833E-4    5.549569284483539E-1   -6.204536554496169E-2
 6.700000000000000E7    -7.751458637997826E-1    2.645124299117184E-1    7.921214640487870E-5   -7.342231564630511E-4    2.565379655427038E-4   -6.970518385595909E-4    5.522627709915577E-1   -5.737916755083156E-2
 6.800000000000000E7    -7.745154070608603E-1    2.706892850676106E-1   -1.629628163150465E-4    3.352570716104187E-4   -2.310563959380824E-4   -5.355072784700607E-4    5.581111750387223E-1   -6.022857848040711E-2
 6.900000000000000E7    -7.676329215445705E-1    2.720805448412811E-1    4.635245984132325E-4    4.143032714153603E-4   -7.716774747933959E-4    3.320250805680837E-4    5.506086306750722E-1   -6.506649380779894E-2
 7.000000000000000E7    -7.655120000154761E-1    2.774997944072130E-1    5.494068244987681E-4   -7.358634736330433E-4   -4.164814717109443E-4    6.825648809420101E-5    5.537271778616830E-1   -6.031955886760508E-2
 7.100000000000000E7    -7.655304330544231E-1    2.781037989128499E-1   -1.533561782212700E-4    1.234566724914627E-5   -3.794081000472693E-5   -3.142119365277579E-4    5.516680587431004E-1   -6.065092942506340E-2
 7.200000000000000E7    -7.627591490226753E-1    2.835416150443621E-1   -2.327305136885055E-4   -1.177755349109059E-4    5.905820165992909E-4   -6.168536819942249E-4    5.521123711118844E-1   -6.344992516379262E-2
 7.300000000000000E7    -7.657248384638105E-1    2.853776097744664E-1   -1.202805918555511E-4    3.560623000225591E-4   -6.610634412172422E-4    1.416464778888134E-4    5.529153492744771E-1   -6.649588378943838E-2
 7.400000000000000E7    -7.594843240991842E-1    2.912710839260150E-1   -8.643429857697217E-5    4.819381669459878E-4   -1.483675174361876E-4   -5.031626428312092E-4    5.544169609251108E-1   -6.362386191990697E-2
 7.500000000000000E7    -7.628048743285069E-1    2.981786677314800E-1    2.482399726175955E-4    7.288417920785803E-5    2.464650124870959E-4   -7.906979020855220E-4    5.520026843740599E-1   -6.487933046629227E-2
 7.600000000000000E7    -7.545824775147165E-1    3.018103307758762E-1    3.451210231579690E-4   -1.883828734388671E-4   -5.598689585950033E-5    1.684230986179736E-4    5.560523830679496E-1   -6.660867689039687E-2
 7.700000000000000E7    -7.566579445753664E-1    3.034473393348097E-1   -4.083474687052975E-4    3.353906941235170E-4    2.214500993109681E-4    6.414278572594846E-4    5.512659824910746E-1   -6.428952372573414E-2
 7.800000000000000E7    -7.535995932172813E-1    3.067543141209519E-1   -4.810235132070896E-4    2.806611345148416E-4   -1.999850949411225E-4    2.133615980302064E-4    5.494057489042052E-1   -6.873884068288628E-2
 7.900000000000000E7    -7.521379616070001E-1    3.107417585276198E-1    4.219474901553259E-4    9.765103629693492E-5    1.367349838801305E-4   -1.164618581184944E-4    5.485699017491602E-1   -7.090635538330078E-2
 8.000000000000000E7    -7.503891514023705E-1    3.105766549750736E-1   -6.025604558044530E-4   -6.536602113301431E-4    5.108991359043195E-4    9.700192082402233E-4    5.561582104263826E-1   -7.232963054868659E-2
 8.100000000000000E7    -7.426891828000508E-1    3.183612490923819E-1   -4.954582874819198E-5   -7.769500990343706E-5    2.751882576996197E-4   -2.121699291334701E-4    5.472499930643319E-1   -7.146454106878601E-2
 8.200000000000000E7    -7.551678427161669E-1    3.206059196152168E-1   -7.232227962178500E-5    5.913913874447741E-4   -4.559044248681953E-4   -6.316205313591837E-4    5.547230841237198E-1   -6.773684719475008E-2
 8.300000000000000E7    -7.444689920844779E-1    3.239234934627805E-1   -4.555727676349278E-5    2.555076987466468E-4   -4.942149777402007E-4   -5.197060207614216E-4    5.505049623334766E-1   -7.446497241178490E-2
 8.400000000000000E7    -7.454753247727663E-1    3.240220055256721E-1   -6.772296166841242E-4   -4.099918061184560E-4   -8.807847694120070E-5   -2.008192147159853E-4    5.489315927379376E-1   -6.938852733404291E-2
 8.500000000000000E7    -7.443564078548478E-1    3.254383365775680E-1    2.350367217544787E-4   -1.330426724068224E-4    4.224547384952651E-4   -1.409151849414064E-4    5.507332595936307E-1   -7.391060366761225E-2
 8.600000000000000E7    -7.387622855385975E-1    3.390404593911517E-1    1.028803685939373E-4    1.535838746042755E-4    5.314066796157819E-4    8.935712839558636E-5    5.527728919703855E-1   -7.429230426980413E-2
 8.700000000000000E7    -7.365314974020382E-1    3.406365725856507E-1    5.456683955469567E-5    4.333389745762719E-4    1.493746601205196E-4   -8.652299914972391E-4    5.522573925294577E-1   -7.491041035020232E-2
 8.800000000000000E7    -7.328316961452329E-1    3.411278113129637E-1    1.298053494015144E-4   -3.617567650944209E-4   -2.687831573217322E-4   -6.213773464182351E-5    5.485084975229041E-1   -7.358098978255143E-2
 8.900000000000000E7    -7.342701531717780E-1    3.512797941608000E-1   -4.762663740143983E-4   -1.269973648929083E-4   -8.545335083516608E-5    4.001267186798599E-5    5.508272908046963E-1   -7.471174761703582E-2
 9.000000000000000E7    -7.340719474896815E-1    3.514695221491356E-1    1.547359813340701E-4   -3.921970517950039E-4    2.416070665707381E-4    2.136873195065445E-4    5.514723928402464E-1   -7.898204754090447E-2
 9.100000000000000E7    -7.305246167865092E-1    3.531261356889183E-1    5.762747685965347E-4   -2.730860904032806E-5    5.184247821095189E-4    9.445326157441488E-5    5.518740981514946E-1   -8.377159635553134E-2
