#  HZ   S   RI   R     50.00 
! Rohde & Schwarz Vector Network Analyzer 
! Rohde-Schwarz,ZNBT8-20Port,1318700624101681,3.50
! Created: UTC 7/15/2025, 2:09:45 PM
! freq[Hz]                re:S1010                im:S1010                re:S0610                im:S0610                re:S1006                im:S1006                re:S66                  im:S66
 1.000000000000000E6    -9.069320163143326E-1   -2.304387155630724E-3   -1.629541561074263E-4    8.094675044532595E-6    7.397733313709617E-5    9.867435592791547E-5    6.858800437093825E-1    8.988942014745047E-3
 2.000000000000000E6    -8.922382151348704E-1   -2.609322290536249E-3    2.292840736548398E-4    1.381732082912873E-4   -1.715763286998072E-5    2.982861538851446E-4    6.822940307380739E-1    1.332687253041803E-2
 3.000000000000000E6    -9.045256690037013E-1   -8.693191470999742E-3   -1.479810503828643E-4   -2.086870408061603E-5   -1.633115223020571E-4   -7.016927057522896E-4    6.797104841039556E-1    4.245565024968542E-3
 4.000000000000000E6    -9.146446405934717E-1   -4.360380494602189E-3    6.733318023009238E-6   -2.894969803224923E-4   -1.471779414501501E-4   -2.041454558400993E-5    6.852472775875629E-1    1.772275226551678E-3
 5.000000000000000E6    -8.989495585112413E-1   -3.133282146363358E-3    4.557834800177250E-5   -1.584092124908350E-4    1.274817857290781E-4    1.304708849149753E-4    6.759863497656428E-1    4.871686414590191E-3
 6.000000000000000E6    -9.047750247781075E-1    3.880672148192748E-4   -1.151347035182074E-4   -3.055488268707073E-4    1.052530078882678E-4    6.832379333215831E-5    6.801345811080924E-1    1.410287080727987E-3
 7.000000000000000E6    -9.120004540805772E-1    1.016147418414626E-2   -1.901722048680618E-4   -1.278919972437611E-4    1.842614804201212E-5   -1.282262781286731E-5    6.774974244701636E-1   -2.013123041683181E-3
 8.000000000000000E6    -8.991117289067516E-1    6.389892885973818E-3    2.530388802109831E-4   -1.841000971029345E-4    3.006742593440499E-4   -1.992787133178634E-4    6.783939852854927E-1   -3.865770577054669E-3
 9.000000000000000E6    -9.157706664099705E-1    8.917460748708117E-3   -2.292508991791331E-5   -1.413179320487129E-4   -1.826468249442988E-4    7.688103145756646E-5    6.839827347275007E-1   -1.412477494629854E-2
 1.000000000000000E7    -9.043263536095643E-1    1.984409875416789E-2   -5.735723374296299E-5   -2.234180684889657E-4   -1.836856940577567E-4   -3.386421991636463E-4    6.771667890266394E-1   -1.433832993525778E-2
 1.100000000000000E7    -9.062648898186098E-1    1.674872546527904E-2    5.134620637279778E-5   -5.495939644140835E-5   -2.545419164481492E-4   -3.782352029540132E-4    6.809152788253089E-1   -9.183298271009176E-3
 1.200000000000000E7    -9.045801111443329E-1    1.055314225163816E-2   -1.666649946168459E-5    4.646208731621232E-5   -2.148883653398002E-4   -9.003199714068161E-5    6.821214870083026E-1   -2.025455255024684E-2
 1.300000000000000E7    -8.962212740433267E-1    2.648278946351510E-2    3.632236910843285E-4   -1.668952449491447E-4    2.080931061786915E-4   -1.313548562680707E-4    6.806988255566696E-1   -1.072567054319627E-2
 1.400000000000000E7    -8.987048064717763E-1    1.841268355086414E-2    2.459754875265937E-5   -4.721367495045508E-4    7.695815796633483E-5   -6.325400509177245E-5    6.775549349873273E-1   -1.639326322843298E-2
 1.500000000000000E7    -9.050584406822945E-1    2.547974959068288E-2   -1.485920792924083E-4    1.371190582737753E-4    1.667481805453796E-4   -2.671442340152515E-4    6.807568777881444E-1   -2.339175194111994E-2
 1.600000000000000E7    -9.045312986393146E-1    3.046544259607162E-2    4.510299925847173E-4   -2.047543410689928E-5    4.315829327388193E-5    2.686283774516638E-4    6.813464165919527E-1   -1.612628151172708E-2
 1.700000000000000E7    -9.028384018400410E-1    3.091545432088496E-2    3.891807473533885E-4    3.141525731539989E-5   -9.237796857596057E-5   -1.731659270316736E-4    6.849579951077294E-1   -2.140167124645731E-2
 1.800000000000000E7    -9.102121848905136E-1    2.642457621033610E-2   -2.917068067748603E-4   -6.788808982052561E-5   -3.320858488808130E-5   -4.906553045638897E-5    6.809739694089468E-1   -2.231850799454620E-2
 1.900000000000000E7    -9.000960916350702E-1    2.924503363742332E-2   -9.045230338687375E-5    1.036870143496414E-4    2.393810974675554E-4   -1.404676980570057E-4    6.790426221348017E-1   -1.785907581679203E-2
 2.000000000000000E7    -8.945526176069447E-1    3.099871819377847E-2   -2.324366922063917E-4   -3.882594015575855E-4   -8.908402656280797E-5    1.673163505385013E-5    6.828365173498609E-1   -2.572627863778630E-2
 2.100000000000000E7    -9.056888184460117E-1    3.254514231960247E-2   -9.427853131548660E-5   -9.347226073654458E-5   -1.670463354584757E-4   -1.264876765666508E-4    6.790405536025822E-1   -2.536861049900708E-2
 2.200000000000000E7    -8.972444233869904E-1    3.445806052916217E-2   -6.848131743487446E-5   -2.597493899159672E-4    1.779250922054236E-4   -4.842064328928980E-5    6.741573936157419E-1   -2.510560487406883E-2
 2.300000000000000E7    -8.892252290652425E-1    3.021528749458989E-2   -1.627895449341649E-4   -1.932910251465172E-4   -2.227332827245836E-4   -1.260243422908075E-4    6.824376466967119E-1   -3.486122214722319E-2
 2.400000000000000E7    -8.954820903409446E-1    4.019021429911679E-2    3.528354052032970E-4    1.868525502927563E-4   -1.934584278794762E-4    1.072402026417327E-4    6.805780048207999E-1   -3.530196328621452E-2
 2.500000000000000E7    -8.856613185768464E-1    4.140476014981956E-2   -2.869318580719772E-4    2.115122692700687E-4   -3.591154551671171E-4    2.109718942121112E-4    6.912391851720454E-1   -3.116517979711023E-2
 2.600000000000000E7    -9.040322445650947E-1    3.257962646098191E-2   -8.130140300758937E-4    4.559176827619155E-4   -5.488936515503069E-4   -1.169541838043649E-4    6.838191013642443E-1   -2.901519189090059E-2
 2.700000000000000E7    -9.073088232258240E-1    3.619512396070459E-2   -5.385878880146612E-4    1.256812936663618E-4    4.184499440387400E-4   -7.447299213248184E-4    6.818404634318921E-1   -3.012784340655064E-2
 2.800000000000000E7    -8.971599060258951E-1    3.780209691429567E-2    2.365456803263015E-5   -8.804083971171698E-5   -4.384156821635202E-4    9.181786702839182E-4    6.833819264266544E-1   -2.630756576931270E-2
 2.900000000000000E7    -8.977209706194386E-1    4.644120056912918E-2    1.176015046575640E-4   -5.625022673237596E-5   -2.286831751866733E-4   -1.013126701561055E-3    6.783386188639605E-1   -3.493068068124052E-2
 3.000000000000000E7    -9.029331667710725E-1    4.402655580278370E-2   -3.842079453630419E-4   -5.883853089085125E-5    6.919542603793606E-4    7.741577953930426E-5    6.816461113948518E-1   -3.225114987466379E-2
 3.100000000000000E7    -8.998142123801294E-1    4.811237155550924E-2    3.526703059033482E-4    1.534900178361272E-4   -1.248594660790417E-4   -1.264550919240682E-4    6.825296272385115E-1   -3.005857993496039E-2
 3.200000000000000E7    -9.015254036003736E-1    4.412948168600382E-2    4.782095054718468E-5    1.570452153684432E-4    6.389556809519752E-4    2.780528810938251E-4    6.754550250319366E-1   -4.028989369169498E-2
 3.300000000000000E7    -9.012052331442750E-1    5.213998785963470E-2    1.502782263386487E-4    2.439026975909661E-4   -1.758237649830653E-4   -2.028534443717038E-4    6.775188672223381E-1   -3.919065675332713E-2
 3.400000000000000E7    -8.982643482048169E-1    4.868379064455895E-2    3.112132584249958E-4   -6.637321623386295E-5   -4.589526914299664E-4    1.026163053399424E-4    6.771440896584987E-1   -3.956344341734516E-2
 3.500000000000000E7    -8.974895306058435E-1    5.218489196678043E-2   -4.511930534797349E-4   -7.246752590330817E-4    1.079983686194646E-4   -8.502386618903341E-4    6.803987207612042E-1   -3.862449793108871E-2
 3.600000000000000E7    -9.028418859591905E-1    5.508275159640281E-2   -2.428107994015405E-5    1.001939908611063E-4   -3.302648945488735E-4    5.490817233995116E-4    6.777600663050963E-1   -4.394832775235305E-2
 3.700000000000000E7    -8.983513739053930E-1    5.380893236492693E-2    1.251068345792773E-4    3.488758435130014E-5   -6.308974904330753E-5   -6.481641365760824E-4    6.770728532452267E-1   -3.950724964134376E-2
 3.800000000000000E7    -9.009813938824003E-1    5.469336195829590E-2   -3.879039493480723E-4   -8.534210150384588E-5   -2.958800677767932E-4    3.825470710450229E-4    6.746837582612354E-1   -4.628517840354578E-2
 3.900000000000000E7    -9.002423348581272E-1    5.337785179873060E-2   -2.606679194290757E-4    2.808073630981637E-4   -2.431979252676380E-4   -3.598903798803346E-4    6.741521925596807E-1   -4.299033344313386E-2
 4.000000000000000E7    -8.947870225865925E-1    5.829655036909272E-2   -1.182610413086046E-4   -3.401461083041350E-4   -1.236450965935183E-4    4.529938855532218E-4    6.746592839871191E-1   -5.077569582980010E-2
 4.100000000000000E7    -9.002080732613147E-1    6.223553715187411E-2    1.755022054064373E-4   -3.561143633282571E-4   -6.632700401270287E-5    1.063933564668742E-4    6.766114135315600E-1   -4.241420277431275E-2
 4.200000000000000E7    -8.963560998172364E-1    6.021642055502642E-2    9.651909346306887E-4   -7.987636945831649E-5   -7.422536262231494E-4    2.636868238441133E-4    6.767368150125457E-1   -4.895457721282214E-2
 4.300000000000000E7    -9.032364283818259E-1    6.770244437997441E-2   -6.662948439428438E-5    2.075943689806662E-4    3.221573646904716E-4    1.686893161348769E-4    6.734821498368343E-1   -4.907378941271198E-2
 4.400000000000000E7    -8.969555672236939E-1    6.640773623815299E-2    1.532504119114965E-4   -4.937520949490791E-4   -2.915591881401764E-4    3.597064435980633E-4    6.723479518705552E-1   -4.796500334494693E-2
 4.500000000000000E7    -8.983181665153458E-1    6.501611998763730E-2    5.122378225377872E-5   -3.893577358765258E-4    2.630688442511996E-4   -7.186327793543626E-5    6.768712090260510E-1   -4.821893271975754E-2
 4.600000000000000E7    -8.967859185688075E-1    6.812524617703279E-2    2.655398755610990E-4   -2.308435853443019E-4    1.876658565675409E-4    3.978605495557644E-5    6.792671266885290E-1   -5.091000765165001E-2
 4.700000000000000E7    -8.934091209185201E-1    6.799838202127294E-2   -5.508754404914427E-4    4.038527918718842E-4   -4.846996851968453E-4   -1.217719715046847E-4    6.714968272196379E-1   -5.293979335807045E-2
 4.800000000000000E7    -8.935593202505753E-1    6.293623469368728E-2    3.662983566071680E-5    1.719539935952335E-4    1.511864136708449E-5    1.022146051789861E-4    6.715098930336320E-1   -5.020421908019872E-2
 4.900000000000000E7    -9.006834073083144E-1    7.026090328237543E-2    2.559578470799991E-4   -5.941274046941375E-4   -5.410181719252135E-4   -4.659885658607961E-4    6.683836854246142E-1   -5.294292454568384E-2
 5.000000000000000E7    -8.960248711441336E-1    7.234668102007843E-2    5.355499144031867E-4   -9.031769919917260E-4   -3.462207487570092E-4   -2.966443605113167E-5    6.730516412534547E-1   -5.764187357031761E-2
 5.100000000000000E7    -8.958656442062232E-1    7.280331611363895E-2   -4.102332753411838E-4    1.730774942184705E-4    1.312505806131383E-4   -1.324179227950768E-4    6.679498881154101E-1   -5.269801807413983E-2
 5.200000000000000E7    -8.962899487123833E-1    7.268021474370884E-2   -6.244112914543743E-4   -4.794492671508570E-4    1.606654101678736E-4   -3.396664383041909E-4    6.765659251420116E-1   -5.842144656174860E-2
 5.300000000000000E7    -8.925716049524203E-1    7.798261795147790E-2    2.411890104397010E-5   -6.540589710909626E-4    8.753275489813056E-4   -2.434981440732293E-4    6.703182097403187E-1   -5.976285897695815E-2
 5.400000000000000E7    -8.886448434399332E-1    7.821330798425685E-2    1.056595929075593E-4   -2.391912420991404E-4   -7.685317162599259E-4    1.033917279365037E-4    6.714018214645933E-1   -6.164409476151270E-2
 5.500000000000000E7    -8.976076852458561E-1    7.997875398871411E-2    3.842105450216437E-4   -4.744376618442383E-4    3.892705930235025E-5    9.342759579129941E-5    6.715601003445555E-1   -6.022734108344562E-2
 5.600000000000000E7    -8.944145224499325E-1    7.974370195704807E-2   -4.213174942380187E-4    5.796912088349349E-4   -4.706578191792197E-4    3.019382119500104E-4    6.731090539566805E-1   -6.204906438933616E-2
 5.700000000000000E7    -8.920454318251445E-1    8.507685271098057E-2    2.289881928647523E-4    1.138560235507960E-4   -9.094058635674947E-6    7.065837472010533E-4    6.693798915432161E-1   -6.704525910808547E-2
 5.800000000000000E7    -8.920219138731293E-1    7.932478791971205E-2    4.103108772988239E-5   -1.223301453345952E-4    1.794124124688419E-4   -1.367196517827567E-5    6.715037187439588E-1   -6.199343469739599E-2
 5.900000000000000E7    -8.898769838031980E-1    8.053469510918425E-2    5.186313729602764E-4   -9.258109579214067E-5   -5.871664863047497E-5   -4.121087613295955E-5    6.658746920662214E-1   -6.691464820310249E-2
 6.000000000000000E7    -8.964689228781171E-1    8.369308857964737E-2    2.571645869262076E-4    3.463804563742069E-4   -2.201270578731856E-4   -3.115097291058908E-4    6.712319149546375E-1   -6.320316471351511E-2
 6.100000000000000E7    -8.895803156969334E-1    9.001271761799319E-2    2.113635073093343E-4    8.908343760244630E-5    3.147383698652030E-5    4.872452100425248E-4    6.738090820177409E-1   -6.559202045709958E-2
 6.200000000000000E7    -8.923507197343628E-1    9.036150106952390E-2    2.044539155591157E-5   -2.388574592244965E-4   -2.339697416720763E-4    1.272795894266434E-4    6.678169939121777E-1   -6.577896273889106E-2
 6.300000000000000E7    -8.912028017293050E-1    8.946360568390196E-2    7.732425385762184E-4    1.031302588013072E-4   -4.007652972668386E-5   -6.369067734772323E-4    6.690687935660864E-1   -7.327293514411466E-2
 6.400000000000000E7    -8.905729075205933E-1    8.849479735972939E-2    1.151081803418684E-4   -3.475628196244282E-4   -1.852309798396827E-4    1.879756287977380E-5    6.738303812808510E-1   -6.869938549458147E-2
 6.500000000000000E7    -8.972354197476240E-1    9.744273758680488E-2   -3.905084502674582E-4    4.893781409093529E-4    9.873824647917727E-6    5.674535698583548E-4    6.704968662857195E-1   -7.218272196439643E-2
 6.600000000000000E7    -8.944553913839168E-1    9.464535422450195E-2   -1.702997329304434E-4   -4.135773759502310E-4   -1.841069307244024E-4    2.502125035897779E-4    6.676902921699935E-1   -7.219025840436379E-2
 6.700000000000000E7    -8.935113484934195E-1    9.663504692475682E-2   -3.797382836501145E-4    1.725686594579288E-4    2.965087238615448E-4    1.258893456901112E-4    6.697059597738330E-1   -7.380059146099303E-2
 6.800000000000000E7    -8.910158089825817E-1    8.936467646099340E-2   -9.049531308048453E-5   -2.406328123654521E-5    3.375522917347866E-4   -1.694976080060663E-4    6.704286716078720E-1   -7.535044995047321E-2
 6.900000000000000E7    -8.950801468438869E-1    9.120915010957469E-2   -1.009559507168327E-4   -6.297879729756479E-5   -1.821258095587500E-4   -1.360988517699586E-4    6.722059982086337E-1   -7.322481499567382E-2
 7.000000000000000E7    -8.930139249183665E-1    9.371526672307086E-2    1.040422801517329E-4   -3.804958268551480E-4    2.186289336900067E-4   -3.181860426865046E-4    6.670217644215890E-1   -7.852415210402140E-2
 7.100000000000000E7    -8.933117153531649E-1    9.970631815176789E-2    7.644136005306976E-4    1.153215895819854E-4   -6.460579830564761E-4   -3.006977080580012E-4    6.692048737082691E-1   -7.987860339437361E-2
 7.200000000000000E7    -8.869562024064682E-1    1.017015747760268E-1    3.542002710598022E-4    1.070035729951314E-4    1.375895155513889E-4   -7.496927358320341E-5    6.658253360578389E-1   -7.824416472877317E-2
 7.300000000000000E7    -8.929983371187804E-1    1.033755332073692E-1    1.942516067071664E-4    8.418168605512757E-5   -6.500928746833886E-4   -1.825668079412085E-4    6.718678199253153E-1   -7.900064346234283E-2
 7.400000000000000E7    -8.893198279026081E-1    1.031677259459382E-1    1.700310884721326E-4   -1.952827017834170E-4   -5.621110951311108E-4   -4.223820364592176E-4    6.682970593784435E-1   -8.372075881067907E-2
 7.500000000000000E7    -8.945039785649571E-1    1.017598271265466E-1    5.134722916363208E-4   -8.976526266022740E-5   -4.284742480516165E-4   -4.568715197588719E-4    6.645591066074829E-1   -8.637491440712518E-2
 7.600000000000000E7    -8.851629385799120E-1    1.109635555712832E-1    4.635431031935758E-4   -1.576679348559807E-4   -8.849966080799548E-5    1.159262194503646E-4    6.732954043782946E-1   -7.947698820034073E-2
 7.700000000000000E7    -8.917315242335598E-1    1.066171184004729E-1   -1.761231302509541E-5    1.008617315981477E-4   -3.880784167836030E-4    2.761284185131709E-4    6.688224526091471E-1   -8.258104765400125E-2
 7.800000000000000E7    -8.891511068811072E-1    1.078261423829570E-1    1.538447746917704E-4   -3.711914117593810E-5   -6.186437041758025E-4   -1.170018626252430E-4    6.669121633621923E-1   -9.020207743839208E-2
 7.900000000000000E7    -8.855355287093768E-1    1.028687338090355E-1   -7.304394133492067E-5    7.545410824967121E-4   -1.068798990516407E-4    1.005842731123560E-4    6.671921488916914E-1   -8.772539030455154E-2
 8.000000000000000E7    -8.913068204591907E-1    1.116836111482683E-1    1.152549683132035E-5   -1.664732824808925E-4   -1.727224780192886E-4   -3.256457812754607E-4    6.712854449546911E-1   -8.972495282979485E-2
 8.100000000000000E7    -8.806702947952069E-1    1.104405340152463E-1   -8.025695228786874E-4    4.434509926466603E-4    3.440138291204443E-4    3.492087150438417E-5    6.674136548761839E-1   -8.969039666694839E-2
 8.200000000000000E7    -8.833311329275377E-1    1.172569157970168E-1    2.262553232649094E-4   -3.806707640802986E-4   -2.344436654705754E-4   -2.195408140678869E-4    6.643984519224105E-1   -8.898492231271521E-2
 8.300000000000000E7    -8.860148465327858E-1    1.122111910980213E-1    1.062087764527917E-4    2.709677138459834E-4    4.265376817421032E-4   -2.404269720232323E-4    6.644151866997109E-1   -8.774671066227210E-2
 8.400000000000000E7    -8.875612143093889E-1    1.146726110179796E-1   -2.573619791789902E-4    7.750054316084909E-5   -4.477210414590129E-4    3.657690217556403E-4    6.683913331073923E-1   -9.067824877202996E-2
 8.500000000000000E7    -8.866018035370570E-1    1.140640074713809E-1   -9.826858805869254E-5    9.259255704750560E-5   -4.199423093254801E-5   -1.201212715535512E-4    6.689879958603377E-1   -8.989516759034781E-2
 8.600000000000000E7    -8.882865267388373E-1    1.189427522540877E-1   -7.992104455804302E-5   -3.239995645922862E-4    3.686417794536609E-4    3.188104710868221E-4    6.687164834063440E-1   -9.294903315985649E-2
 8.700000000000000E7    -8.900397455581525E-1    1.199948324880174E-1   -3.166294456471818E-5   -4.639898809501549E-4    5.967708699899506E-4   -8.293135074546878E-5    6.684876749442705E-1   -9.306944583609178E-2
 8.800000000000000E7    -8.845302557020277E-1    1.272731671542250E-1   -6.493411383209911E-4    6.280387665641917E-4    3.890219371386862E-4   -1.132816521168604E-4    6.665205199339083E-1   -9.704038701515398E-2
 8.900000000000000E7    -8.832750677500019E-1    1.205731031964794E-1    6.912332171510734E-4    2.285597227768826E-4   -1.221168889155963E-4   -1.045529223092920E-4    6.626576078862411E-1   -9.816714279550394E-2
 9.000000000000000E7    -8.848162785277345E-1    1.267637892116679E-1    1.553273536963752E-4    4.701079702448538E-4    6.773449419222204E-4   -3.343613626162416E-4    6.609925230134246E-1   -9.765082508530139E-2
 9.100000000000000E7    -8.838243817339381E-1    1.264743237174309E-1   -6.223944058494614E-4   -3.585900129516446E-4    1.927198238698190E-4    3.338184196496768E-4    6.694069809432396E-1   -9.948449016961355E-2
