#  HZ   S   RI   R     50.00 
! Rohde & Schwarz Vector Network Analyzer 
! Rohde-Schwarz,ZNBT8-20Port,1318700624101681,3.50
! Created: UTC 7/15/2025, 2:08:42 PM
! freq[Hz]                re:S1010                im:S1010                re:S0310                im:S0310                re:S1003                im:S1003                re:S33                  im:S33
 1.000000000000000E6    -8.244393946321734E-1   -6.512914084898848E-3   -7.633043454789511E-5    1.272820806564516E-4   -1.136250265296522E-4   -2.681075602826668E-4    5.672563565065133E-1    8.426892056775255E-3
 2.000000000000000E6    -8.278525922844758E-1   -3.099652815304842E-3   -2.045912740654184E-5    9.617532431786340E-5   -2.884089535531760E-4    3.402713784497918E-5    5.619433382445552E-1    7.691614676204409E-3
 3.000000000000000E6    -8.245203367916433E-1   -1.152028883919900E-3   -1.660143562357730E-4    5.864534216026011E-5   -9.823271643885421E-5    1.080137921248808E-4    5.657489505962032E-1    5.685440761347547E-3
 4.000000000000000E6    -8.302349743300158E-1    3.654427613106014E-3   -2.121613538648098E-4   -1.119206041942979E-4    1.305735130639116E-4   -2.029623702406258E-5    5.641626818909676E-1    8.638799988751162E-3
 5.000000000000000E6    -8.260984906002147E-1    7.885250136646411E-3    9.642849290858692E-5   -2.742595053560378E-4   -2.873378282774362E-5   -8.933095356406820E-5    5.639137029786265E-1    7.456359886726996E-3
 6.000000000000000E6    -8.238069186493634E-1    1.746415249123909E-2    1.134934540659377E-4   -6.399943001471636E-5    2.754982240280835E-4    2.406941623750180E-4    5.522018501070273E-1    3.339331079496854E-3
 7.000000000000000E6    -8.354662960708887E-1    1.812205378052733E-2   -1.949866783970797E-5    1.301733845076281E-4   -1.753234985066550E-4    8.005067818642125E-5    5.588465270987729E-1   -7.106936027577671E-3
 8.000000000000000E6    -8.220269172151087E-1    3.006373187068324E-2    1.858355159776464E-4   -1.375893932119285E-5    2.850758708134899E-4    3.859869468699746E-5    5.650020655905227E-1   -1.665856443339848E-3
 9.000000000000000E6    -8.249039681850279E-1    5.283976078542522E-2    2.976365344953439E-4    8.219843710851872E-5   -6.346050247883649E-5   -1.009340806370399E-4    5.644497940192178E-1   -3.482762259185224E-3
 1.000000000000000E7    -8.144997972472043E-1    4.240258131817218E-2    1.003906994061424E-4   -1.291422130159589E-4    1.431681752049514E-4    1.190245021255607E-4    5.627254267901282E-1   -4.695721566214602E-3
 1.100000000000000E7    -8.175341144263818E-1    4.414150819304632E-2   -2.333918322925918E-4    1.635995707716779E-4    1.418951192763935E-4    2.824073147329031E-4    5.589630323666875E-1   -9.750526101001075E-3
 1.200000000000000E7    -8.217048072607444E-1    4.849321169020109E-2    4.367212915050788E-4   -1.169238679192570E-4    2.264831868359597E-4   -3.269070155640863E-4    5.598538126704286E-1   -1.186874642579634E-2
 1.300000000000000E7    -8.164021367274052E-1    4.665747467548576E-2   -1.696525800936132E-4    1.259560048748377E-4    3.404512577883306E-4   -9.837377360108112E-5    5.653774469817879E-1   -1.086598838260899E-2
 1.400000000000000E7    -8.215550367312126E-1    5.940959892338842E-2   -6.298124206685757E-6    7.473878530765028E-5   -1.872000081087651E-4   -1.449668671312666E-4    5.654657778777596E-1   -1.230513604973764E-2
 1.500000000000000E7    -8.251598710104211E-1    6.312323032758331E-2   -2.164869054248487E-5    5.982825707687326E-5   -3.803965933258408E-4    2.512375528238994E-5    5.585650235684008E-1   -6.317695519453560E-3
 1.600000000000000E7    -8.231156518802277E-1    6.036229252328277E-2   -3.320788045844366E-4    1.893139853004121E-4   -1.662521705448053E-4    6.758216020519422E-5    5.655035306762319E-1   -1.147254897818622E-2
 1.700000000000000E7    -8.250338657610898E-1    7.167916328741405E-2    2.155424024741876E-4    2.635515211035302E-4    3.236090705526226E-4    5.710990775220921E-5    5.688867933163930E-1   -1.729008916629074E-2
 1.800000000000000E7    -8.190975069353008E-1    7.030735442874560E-2   -6.933438182311098E-5    1.538126366646981E-4    2.290277842246299E-4   -1.477611173098819E-4    5.637909633810109E-1   -1.428769829101111E-2
 1.900000000000000E7    -8.231856619837153E-1    7.249124702489389E-2    1.233675858725318E-4   -3.674855089466895E-5    2.141211822065948E-4    2.671296031109918E-5    5.582914815000223E-1   -1.557331284432039E-2
 2.000000000000000E7    -8.174916502099047E-1    9.256520077169955E-2   -1.159982720161357E-4   -6.194403853562288E-5   -1.042554011536044E-4   -8.048963722953838E-6    5.640430180191438E-1   -1.810716903620099E-2
 2.100000000000000E7    -8.144855932795388E-1    8.812192435195026E-2   -5.584772123019245E-5    4.932898606293082E-5   -5.440245714116352E-4    2.162964134288614E-4    5.642074694863050E-1   -1.541181290418928E-2
 2.200000000000000E7    -8.189704139548603E-1    8.588663069628108E-2    2.376152671987376E-4   -1.339041386027976E-4    1.187177087200655E-4   -7.072454837758013E-5    5.739270526989722E-1   -2.454244270152377E-2
 2.300000000000000E7    -8.200054565283753E-1    1.013451303883386E-1    1.133207374736550E-4   -2.782712609207210E-5    1.937748438937754E-4   -4.824425675344485E-5    5.572010873015967E-1   -2.738793835637965E-2
 2.400000000000000E7    -8.136748145809862E-1    1.021367106699822E-1    9.246752554052419E-5   -5.817913792608288E-5    5.477043635250208E-4   -1.385180894217448E-4    5.540758325807665E-1   -1.917317408515015E-2
 2.500000000000000E7    -8.091804331509205E-1    1.128861819986087E-1    2.524927047739484E-5    6.837723675151058E-5    1.033436440693151E-4    1.475473968378983E-4    5.521797824549117E-1   -1.708685330672857E-2
 2.600000000000000E7    -8.169962580418851E-1    1.048914375262700E-1   -2.631343960174061E-4   -8.342013138928716E-5    3.201561243174369E-4   -7.848554069505407E-4    5.591360580804435E-1   -2.112599536848174E-2
 2.700000000000000E7    -8.175390241051008E-1    1.148654357314362E-1   -9.228430168476231E-5    4.485936063328371E-4   -5.570696866240815E-4   -1.745564797552744E-4    5.667110124672134E-1   -2.466015013838454E-2
 2.800000000000000E7    -8.150797559375527E-1    1.217815875620667E-1   -2.736475340882891E-4   -9.412342496190348E-5    2.327190436197094E-4    4.713598784746115E-4    5.602698631239403E-1   -1.933791697113353E-2
 2.900000000000000E7    -8.134106416131748E-1    1.212768494788337E-1    4.269603740166620E-5   -3.380649995675493E-4    5.002037878120463E-4    1.298916131176523E-4    5.605662590125545E-1   -2.822394242164626E-2
 3.000000000000000E7    -8.122063618378411E-1    1.230933438253874E-1    2.156668317918549E-4    5.498307660121540E-5    1.072574372452510E-4    3.757246166478765E-4    5.581616196910956E-1   -2.780661811750545E-2
 3.100000000000000E7    -8.131249109568209E-1    1.303743942249896E-1    3.273303750853769E-4   -2.530125975800794E-4   -6.973047537636867E-5    5.794362928732474E-4    5.557869916038887E-1   -2.863891326860532E-2
 3.200000000000000E7    -8.119410936268696E-1    1.237243181035895E-1   -2.378492725651732E-4    3.865868156137982E-4   -4.500265036548379E-4   -8.337774908986098E-5    5.579722902243276E-1   -2.355362593901805E-2
 3.300000000000000E7    -8.097538269389726E-1    1.304823863205643E-1   -1.288397813407789E-4    1.909200227796306E-5    1.495788062244866E-4   -2.063943991183912E-4    5.603108284710184E-1   -2.858905254895187E-2
 3.400000000000000E7    -8.117260012415085E-1    1.328162348600422E-1   -1.135019313491156E-5   -1.714212064403770E-5   -2.124836606866610E-4   -2.728547590705059E-4    5.638030411795251E-1   -2.957592891376183E-2
 3.500000000000000E7    -8.118840803002152E-1    1.451892332882268E-1    8.513195678407327E-5    5.163766009213908E-5   -2.227251151359518E-4   -3.909829632993053E-5    5.593132892434888E-1   -3.317182854469047E-2
 3.600000000000000E7    -8.113777567478830E-1    1.497523189991325E-1    4.496057312119454E-4   -7.792308735594102E-5    2.745733986056914E-4   -7.362472505454140E-5    5.614436367298830E-1   -3.272808310045075E-2
 3.700000000000000E7    -8.099309085470223E-1    1.500738112464698E-1   -7.840039638737811E-4   -6.433687552483403E-5    7.659440846664152E-5   -2.017672717903609E-4    5.579897448632151E-1   -3.197354751097520E-2
 3.800000000000000E7    -8.088525140336806E-1    1.565946369852049E-1   -4.979783393875573E-4   -5.167612146833566E-4   -2.851285624932950E-4   -8.147821990062425E-5    5.576238718744426E-1   -3.047952213031715E-2
 3.900000000000000E7    -8.118066896023077E-1    1.590192267044081E-1    5.258240427006652E-5   -2.523969584186849E-5    1.637994668771583E-4   -3.450541114696485E-6    5.615999797083226E-1   -3.103087393465693E-2
 4.000000000000000E7    -8.079122308166419E-1    1.623363358058014E-1   -2.414472533164589E-4   -1.570302683599276E-4   -8.624873319610664E-5    3.918227127954001E-4    5.564609705432967E-1   -3.352829899328653E-2
 4.100000000000000E7    -8.097616515430983E-1    1.679872778402193E-1    8.783334995203624E-4    8.627822226279723E-5    1.129237471544644E-4   -1.084356964953588E-4    5.572313578026157E-1   -3.172785215803055E-2
 4.200000000000000E7    -8.062618487763435E-1    1.699333413847344E-1    3.010170617960185E-4    2.903382277499303E-4   -2.328231152902822E-4    4.067541854868692E-4    5.645591638092763E-1   -3.716273238419120E-2
 4.300000000000000E7    -7.973048890086827E-1    1.708594939676944E-1    2.608151146789933E-4    3.089888076550210E-4   -9.461263168462173E-4   -3.467235435884723E-4    5.606391472784205E-1   -3.294513175395723E-2
 4.400000000000000E7    -8.012950143105700E-1    1.767073150835794E-1    4.090908622504236E-4    4.182009672691954E-4   -3.836587082591135E-4   -1.152595347436503E-4    5.624673151172813E-1   -3.581479367543224E-2
 4.500000000000000E7    -8.033012688004880E-1    1.792756003829151E-1   -3.476827633519387E-5   -1.476611880533277E-4   -5.074920944945837E-4   -4.839406167886395E-5    5.566378090049980E-1   -3.733149694947298E-2
 4.600000000000000E7    -7.976019087445373E-1    1.886029771284653E-1   -2.254912985355217E-4    2.463718257809025E-4    1.047357903661782E-3    2.528580574888222E-4    5.586929102718660E-1   -4.058451072443360E-2
 4.700000000000000E7    -7.998575634351389E-1    1.942811846795618E-1   -2.242120133042646E-4   -1.352948153635522E-4    5.257194787063631E-5    2.977630728935103E-4    5.613245043066464E-1   -4.046580659105099E-2
 4.800000000000000E7    -7.994128822411508E-1    1.901801309556650E-1   -8.610267393273374E-5    1.781700147891471E-4   -1.471924441531003E-5    2.503537300704168E-4    5.615644528133423E-1   -3.606176962557504E-2
 4.900000000000000E7    -7.976260241729172E-1    1.957997590866454E-1    1.067597923369056E-5    2.094378733977599E-4    3.254986733258499E-4   -3.751131191676878E-4    5.571446920382466E-1   -4.227511650043286E-2
 5.000000000000000E7    -7.996011329150952E-1    2.006933683129077E-1    7.714135941321738E-4    5.292973063233061E-4   -1.555874423325273E-4   -2.208581887371212E-6    5.569495881031115E-1   -3.935350804480776E-2
 5.100000000000000E7    -7.917014027588196E-1    2.044067141798127E-1    5.421503745320485E-4    2.026225782235545E-5    3.958888252381206E-4   -1.219783788395388E-5    5.598999264129677E-1   -4.035768857014069E-2
 5.200000000000000E7    -7.943415195933221E-1    2.102474024799732E-1    2.499377919552368E-4   -8.894033280348858E-5    4.575785058932519E-4   -5.090821414457671E-4    5.597903759004426E-1   -4.380514986592817E-2
 5.300000000000000E7    -7.921709058197638E-1    2.164565489836951E-1   -9.872901510512772E-6   -1.918837975555586E-4   -1.557965993511416E-4   -1.921191071856987E-4    5.598848101368351E-1   -4.025156925059787E-2
 5.400000000000000E7    -7.879315998977915E-1    2.190857884397532E-1   -3.598656529041430E-4   -2.694902783438692E-4   -6.546246132935628E-4   -3.592121412660228E-4    5.600206282637913E-1   -4.646975459410859E-2
 5.500000000000000E7    -7.916899985379191E-1    2.208884351027412E-1   -2.453484055566727E-7   -2.662280620826056E-4   -3.592913659677933E-4    9.384734048443075E-5    5.577555085356921E-1   -4.378165910911118E-2
 5.600000000000000E7    -7.888205105871279E-1    2.232717540108971E-1    3.541680283780228E-4    3.278375258704424E-5    6.461663334009300E-4    3.706236875492734E-4    5.553440427512802E-1   -4.403485407157780E-2
 5.700000000000000E7    -7.841217923840231E-1    2.260288432262081E-1   -7.170577655749945E-5   -2.077713620525839E-4    2.792007176129865E-4    5.576021820477677E-5    5.552277704018025E-1   -4.479415007223664E-2
 5.800000000000000E7    -7.858754307393448E-1    2.313274126225629E-1    1.643578065147998E-4   -1.800491128929596E-4    2.076647453638404E-4    7.399446044692269E-4    5.567708704739340E-1   -4.936447567867253E-2
 5.900000000000000E7    -7.818125201532463E-1    2.337504857783564E-1   -3.408441680178581E-4   -2.350257937677561E-4    2.789695409339132E-4    2.461348142693201E-4    5.562003106302259E-1   -4.243935615955095E-2
 6.000000000000000E7    -7.806827587043813E-1    2.355626980642161E-1   -4.432882538999341E-4    9.730896073760460E-6    7.477152181391821E-5   -8.062456289885970E-6    5.563567092242109E-1   -5.306724920327262E-2
 6.100000000000000E7    -7.792684229565755E-1    2.472291006671238E-1   -9.844407699844172E-5    3.009669692766770E-4    2.539224424287152E-4    1.984812962576325E-4    5.580546322284933E-1   -5.124100626290635E-2
 6.200000000000000E7    -7.742215067022249E-1    2.464228957975492E-1   -3.454080314680273E-4   -8.208675715239604E-5   -1.725786655401649E-4    2.778961290819471E-4    5.548652868847900E-1   -4.738406980066678E-2
 6.300000000000000E7    -7.808887631936616E-1    2.513352736333487E-1   -5.334800488564920E-4    2.823127581756179E-4    5.037489185450067E-4   -1.567862060368922E-4    5.560323240875292E-1   -5.194418704737019E-2
 6.400000000000000E7    -7.756843167546348E-1    2.537920909432962E-1   -1.663620171506230E-4    3.495390909959671E-4   -1.669685147944009E-4   -4.935687021869950E-5    5.556978099625974E-1   -5.587575935645729E-2
 6.500000000000000E7    -7.720750678592928E-1    2.638417331525550E-1    7.170607484671310E-5   -3.196768999045078E-4    3.260216448835156E-4   -2.619277547711251E-4    5.590156055170338E-1   -5.091088965655482E-2
 6.600000000000000E7    -7.755319743168021E-1    2.651843475577881E-1   -1.390628422658831E-4   -1.747415784604207E-6   -2.284057937274956E-4   -7.825561153252533E-5    5.557211879573084E-1   -5.261752136736369E-2
 6.700000000000000E7    -7.713870645125482E-1    2.650725798723133E-1   -2.291125527249115E-4   -2.127842541267192E-4    2.010404003446492E-4   -3.347890824428398E-4    5.552545190236572E-1   -5.507250502658612E-2
 6.800000000000000E7    -7.660542855751922E-1    2.676434057948276E-1    5.446638100839417E-4    3.881066251700490E-4   -5.561999495445025E-4   -5.850721660945815E-4    5.540823556570027E-1   -5.346625293450503E-2
 6.900000000000000E7    -7.706336603468547E-1    2.731591391723964E-1   -6.848196195690433E-4   -4.883425200564750E-5   -4.385538640577782E-5   -2.863315293906827E-4    5.560907725499750E-1   -5.967377533186579E-2
 7.000000000000000E7    -7.705118410309372E-1    2.803492952236479E-1    8.267722967026373E-5   -2.024756668798487E-4   -5.237604310181063E-5   -1.499516333079908E-4    5.549494661326299E-1   -5.660475536976348E-2
 7.100000000000000E7    -7.704550596287905E-1    2.813140580192189E-1    4.799852134984004E-4    1.659760591915055E-4    2.250802653071452E-4   -6.134554956711376E-5    5.518885675023302E-1   -5.929587289582981E-2
 7.200000000000000E7    -7.636438481421546E-1    2.875861980488603E-1   -1.617329669693504E-5    9.725290121391832E-5   -1.786467624416895E-4   -5.602828666722311E-4    5.567529495526807E-1   -5.598794826021847E-2
 7.300000000000000E7    -7.587784671278400E-1    2.862385259040181E-1   -4.793663073896617E-4   -2.131281862974289E-4    4.689386643928801E-4    4.150359817469271E-4    5.547879982418693E-1   -6.305384303149426E-2
 7.400000000000000E7    -7.627824950498576E-1    2.897906974586937E-1   -5.500442630389595E-4   -6.062885591581262E-5   -3.903186010874290E-4    3.223082491122473E-4    5.546715980728080E-1   -6.051081756726668E-2
 7.500000000000000E7    -7.601023167333324E-1    2.962547461726975E-1   -6.144081860927054E-4   -2.962650193135660E-4   -8.778534098173300E-4    8.948659739139406E-5    5.570336103018882E-1   -6.390906217273466E-2
 7.600000000000000E7    -7.591468124134988E-1    3.055825890672552E-1    2.547503424438740E-4   -1.960491848328317E-4   -3.814334384382304E-4   -2.292002130881679E-4    5.543345843423537E-1   -5.822885852545325E-2
 7.700000000000000E7    -7.549544369091370E-1    3.034969849646569E-1   -7.642464856857519E-5   -2.398633936056103E-4    1.803346843236063E-4    2.807038956517656E-4    5.552533381505306E-1   -6.199455467389190E-2
 7.800000000000000E7    -7.524750579374017E-1    3.058180735758324E-1    1.475479881113720E-4    3.342038013540522E-5   -8.101693312053800E-4   -1.342174474746940E-4    5.540214677214766E-1   -6.519437736471367E-2
 7.900000000000000E7    -7.500932095119950E-1    3.092608847723112E-1    4.355571771582734E-4   -5.356773295493337E-5   -5.763510724687334E-4    3.183658825103426E-4    5.536738037589589E-1   -6.345488052966543E-2
 8.000000000000000E7    -7.501639510574626E-1    3.164219764864381E-1   -2.477477073637652E-4    1.913093447415711E-4   -2.482248590863107E-4    7.739014219385886E-5    5.596909996217199E-1   -6.485609108716289E-2
 8.100000000000000E7    -7.466966910780136E-1    3.177911800668016E-1    9.129384408536452E-4   -1.396073654220859E-4    6.554736472894442E-4    1.844478931528215E-5    5.549660197290444E-1   -6.443809559439553E-2
 8.200000000000000E7    -7.506950254240798E-1    3.189409155150822E-1   -4.185538829637208E-4    8.471197597808303E-4   -1.350083325325811E-4   -4.222583665904077E-4    5.539099323494475E-1   -6.810017881905957E-2
 8.300000000000000E7    -7.438486043082593E-1    3.262646407839938E-1   -2.656104970609764E-4    5.714037765098625E-5   -1.376045024978544E-4    4.221919725044063E-4    5.528498415879181E-1   -6.849317595717126E-2
 8.400000000000000E7    -7.437946609714742E-1    3.249707077427013E-1   -6.887296257705228E-4   -9.931519038828211E-5   -6.234815954241978E-5   -1.139706803760162E-4    5.539163039211652E-1   -6.419046318007907E-2
 8.500000000000000E7    -7.440775531257422E-1    3.324592955656226E-1   -3.689980841083267E-4    2.613464803003818E-4    6.954966035179944E-4    4.089426502655479E-4    5.535866735516178E-1   -6.589201115487481E-2
 8.600000000000000E7    -7.402449695759323E-1    3.358467567906180E-1    3.844609381546769E-4    7.956302691665674E-5   -7.439862718191948E-4    1.098837176890185E-3    5.561912208041589E-1   -7.002837791819508E-2
 8.700000000000000E7    -7.365264696070724E-1    3.382571591231125E-1    1.719625721247003E-4   -9.422789692022711E-5   -7.297163240566090E-4    8.911676601345197E-5    5.547619444545984E-1   -7.020771886125261E-2
 8.800000000000000E7    -7.359846329617492E-1    3.446530373320211E-1   -4.372946713735922E-4   -6.765762223204644E-5    7.920661394327109E-4   -2.390665566846875E-4    5.546453230013311E-1   -7.289358135220501E-2
 8.900000000000000E7    -7.397909697880281E-1    3.446542618651744E-1   -7.114365515896696E-4   -1.468368464831919E-4    6.519217691393867E-4    8.748713220877031E-4    5.495860788871826E-1   -7.188243135314940E-2
 9.000000000000000E7    -7.332876661953732E-1    3.539400830839400E-1   -3.489919595635642E-4    1.930868847111958E-5    4.631708403785314E-4   -5.763127026494515E-4    5.525241933877953E-1   -7.313490691800595E-2
 9.100000000000000E7    -7.283433088201235E-1    3.544711498679339E-1   -6.011195894972620E-4   -2.788786071906835E-4    3.004522899810230E-4   -1.807341891688005E-4    5.522927466235823E-1   -7.196678538948337E-2
