#  HZ   S   RI   R     50.00 
! Rohde & Schwarz Vector Network Analyzer 
! Rohde-Schwarz,ZNBT8-20Port,1318700624101681,3.50
! Created: UTC 7/15/2025, 2:08:47 PM
! freq[Hz]                re:S1010                im:S1010                re:S0310                im:S0310                re:S1003                im:S1003                re:S33                  im:S33
 1.000000000000000E6    -8.316048848299056E-1    2.831624415835275E-3    5.598805584128771E-5    2.106262525533712E-4   -1.363005684255699E-4   -3.021310103564639E-5    9.743345784256759E-1    7.861093918136762E-3
 2.000000000000000E6    -8.177137986765334E-1   -5.994014617466644E-3    3.800043552564884E-4    4.984740806497897E-4    3.374907228178080E-4   -3.142597618216743E-4    9.816133728098144E-1    3.133649481341219E-3
 3.000000000000000E6    -8.295948686759770E-1    4.472735964770193E-3    9.356169880548546E-5    1.582203374181255E-4   -1.811321009007952E-4    7.263430691211700E-5    9.740702120506273E-1    2.235873077886770E-2
 4.000000000000000E6    -8.367226813977691E-1    9.333872262430343E-3    1.026582156120168E-5    1.553550922675207E-4   -1.309599924491137E-4    3.162989658295841E-4    9.787693328327242E-1    1.491408966493101E-2
 5.000000000000000E6    -8.252740979761698E-1    1.148934985174787E-2   -4.743273733626643E-4   -1.706405935793962E-4    5.643612976243789E-5   -2.273528643191368E-4    9.748254872181064E-1    1.507084215678307E-3
 6.000000000000000E6    -8.227318659419389E-1    2.487037075164868E-2   -1.317643366466481E-4    2.482372602747597E-5    1.709158039729296E-4   -3.582950418620325E-4    9.710378334483064E-1   -3.723906713490326E-3
 7.000000000000000E6    -8.295460198735376E-1    1.858936540920276E-2   -2.306013282656144E-5   -1.637676836980681E-4   -6.801807090751677E-5    2.860781601412281E-5    9.807807855439746E-1   -8.557636948779555E-3
 8.000000000000000E6    -8.167280663148628E-1    3.093184186382267E-2    8.090162651139621E-5    1.912203838112714E-4   -1.450493986647130E-4    5.332933190454499E-4    9.805982468851111E-1    7.826674591569244E-3
 9.000000000000000E6    -8.268818353730611E-1    2.819510980183944E-2   -1.228840141244414E-4   -1.745916583035521E-4   -7.004878977697984E-5    3.399161960781869E-4    9.809553179854051E-1   -1.207008777437018E-2
 1.000000000000000E7    -8.199269084144468E-1    4.532012264143379E-2   -1.886061175617180E-4   -2.925950808159802E-4    4.073840707195671E-4   -2.107254917798379E-4    9.843449003570363E-1   -1.246285444100532E-2
 1.100000000000000E7    -8.189635134378824E-1    4.859874292888623E-2   -1.556530243356763E-4   -1.629728703950112E-4    1.505694181931838E-5    3.927792272664344E-4    9.688436059101769E-1   -2.213817886258878E-2
 1.200000000000000E7    -8.331058151181475E-1    4.653766308489110E-2   -3.821723383678614E-4    2.828801579804707E-5   -2.998918582635156E-4   -4.721094867799953E-4    9.694000260744383E-1   -2.081226880321408E-2
 1.300000000000000E7    -8.228024203623786E-1    5.214897292152214E-2   -2.582498843245097E-4    1.534618818137714E-4   -1.134538856551642E-4    2.922980988061852E-4    9.684263447024147E-1   -1.624483924184192E-2
 1.400000000000000E7    -8.181482668222204E-1    5.752484397482232E-2    9.829913492461119E-5   -1.758790404719827E-4   -6.249692982679327E-5   -4.008709769140799E-5    9.875941031201452E-1   -2.718645025417641E-2
 1.500000000000000E7    -8.232214463371218E-1    6.911496640474288E-2   -1.725577462367820E-4    2.141917879837585E-4   -9.737278483836926E-5   -2.739124741558254E-4    9.778506466605361E-1   -1.562773154718908E-2
 1.600000000000000E7    -8.258712770211364E-1    7.696962519726437E-2    2.983270261727833E-4   -2.158776971623762E-4    1.177817093186798E-4    1.393200996416292E-4    9.767975460611474E-1   -2.329201747518099E-2
 1.700000000000000E7    -8.258520874899522E-1    7.308873503409201E-2   -3.351299229150034E-4    3.239511834914291E-5    9.411620640631896E-5    1.366439135630456E-5    9.768438063506220E-1   -2.859301149891225E-2
 1.800000000000000E7    -8.246363789925407E-1    7.399357609608842E-2    3.828115645274018E-6   -2.354479025507619E-4    7.371529539283946E-5    1.518776829906639E-4    9.794318220200751E-1   -3.022580567938793E-2
 1.900000000000000E7    -8.241191307158003E-1    8.318392057387891E-2    1.981170652323971E-4    3.790665534543513E-4   -2.008079563081512E-4   -1.227622160818504E-4    9.752605288128748E-1   -3.227394716904709E-2
 2.000000000000000E7    -8.209442132958530E-1    8.412143517454555E-2   -4.530266784672993E-4   -1.558490436777139E-4    3.178322795921430E-4    1.013780425049219E-4    9.761459329374206E-1   -3.392571891679502E-2
 2.100000000000000E7    -8.249007942619213E-1    8.785945182636729E-2    3.190949290645159E-4    1.103877630503493E-4   -2.003419323607094E-4    1.672428495331334E-4    9.862793240419154E-1   -3.055136913200441E-2
 2.200000000000000E7    -8.225748701666482E-1    7.965438245455972E-2    1.668739657670780E-4    7.781104805062545E-5    1.193565887306552E-4    3.565871455440819E-4    9.879052269154217E-1   -2.758273148225216E-2
 2.300000000000000E7    -8.238886185815221E-1    9.005254656200984E-2   -6.009802090901783E-6    2.903236618210476E-5   -2.225993005267782E-4   -2.708541209381602E-4    9.816550292414230E-1   -3.981785908206196E-2
 2.400000000000000E7    -8.103505541136072E-1    1.086360647018038E-1   -2.155233554200175E-4   -1.015550810261282E-4   -9.486457749063376E-5   -1.301205328991565E-6    9.643847094264045E-1   -2.900871116213312E-2
 2.500000000000000E7    -7.977252442910552E-1    9.979729513652481E-2   -3.488083174779657E-4   -2.236283353048080E-5    4.598462899778202E-4   -1.772188073799996E-5    9.732423074630605E-1   -3.606953148796199E-2
 2.600000000000000E7    -8.212532455519821E-1    1.069315078659985E-1   -2.511748573835446E-4    7.388384164682675E-4   -5.049300101188994E-5   -2.487564638322523E-4    9.695579228947104E-1   -4.852633788676655E-2
 2.700000000000000E7    -8.199398160779694E-1    1.119740285958017E-1    6.807686240471608E-4   -3.663182461115390E-4   -4.880319767879641E-4   -4.368152919742048E-4    9.831109926042779E-1   -3.966499793226748E-2
 2.800000000000000E7    -8.158745796221061E-1    1.137916915690524E-1   -2.371484854919690E-4    6.677412669913604E-4   -1.188573608365576E-4   -1.002514598246743E-3    9.760819699331197E-1   -3.535300954679842E-2
 2.900000000000000E7    -8.166811155235174E-1    1.199037249112960E-1    7.898949496032811E-4    5.937426190079152E-4   -9.050825331393883E-5   -5.133122467395240E-5    9.747494534104422E-1   -4.564561268591086E-2
 3.000000000000000E7    -8.163517510268937E-1    1.261906437203064E-1   -1.598912015275201E-3   -4.211569572155368E-4   -2.328369920358746E-4   -7.866595886965685E-4    9.689747471300223E-1   -4.906470701236256E-2
 3.100000000000000E7    -8.140096917214130E-1    1.255184378322695E-1   -3.901015688175954E-4    2.864012491691372E-4   -4.172233760097059E-4    2.853887243164222E-4    9.660549539883729E-1   -5.578773868070831E-2
 3.200000000000000E7    -8.115670757701537E-1    1.236689865117423E-1   -6.425445631216478E-4    3.740363233199729E-4   -5.207754945591764E-4   -7.612442968434486E-5    9.748780417931986E-1   -5.272089556438048E-2
 3.300000000000000E7    -8.083835436072768E-1    1.357326843787835E-1    4.140973430054286E-4    2.290568538223475E-4   -7.120564222192097E-4   -3.502522619738857E-4    9.713959030660023E-1   -5.430802141698795E-2
 3.400000000000000E7    -8.105696047130320E-1    1.357490421971843E-1   -2.759534514885858E-4   -2.715275915670995E-4    4.663604550285891E-4   -5.440446432520912E-4    9.846077389959327E-1   -4.991941611254443E-2
 3.500000000000000E7    -8.087054767251798E-1    1.475972245179051E-1    1.323966941835599E-3    9.513691353524510E-5    1.286113031538004E-4   -8.176274996753718E-5    9.762351980246837E-1   -5.249916942152352E-2
 3.600000000000000E7    -8.065106799779277E-1    1.457098104024239E-1    6.572394998258911E-4    4.963857653584678E-4   -5.813380849107999E-4    1.721411419603070E-5    9.770188369794430E-1   -5.631459783101291E-2
 3.700000000000000E7    -8.098399609561354E-1    1.475485646241123E-1    5.624870369562282E-5   -5.777045434642628E-4   -4.905178600853014E-4    1.415946450374453E-4    9.727970930623808E-1   -5.594169647874000E-2
 3.800000000000000E7    -8.122256731679810E-1    1.576457954732751E-1    3.691347220614705E-4    6.696547401958469E-4   -5.871181386329681E-4    1.054029988288956E-4    9.713809608395183E-1   -6.166395983474260E-2
 3.900000000000000E7    -8.105045000562557E-1    1.552859946923154E-1   -9.390547502982377E-5    3.157305604902103E-5    3.269756558752198E-4   -3.695281049535895E-4    9.814622970168594E-1   -6.156984813812068E-2
 4.000000000000000E7    -8.069487860570487E-1    1.674361698428675E-1    4.924142535393120E-5   -5.070318101120318E-4   -3.925043287971697E-5   -6.910198379179717E-4    9.683092907258665E-1   -6.261379964786692E-2
 4.100000000000000E7    -8.082067899248992E-1    1.605627164253590E-1   -1.425847900994556E-4    3.644397896824391E-4   -2.441229744870780E-4    5.257414555032226E-4    9.732066177436004E-1   -6.117332688833211E-2
 4.200000000000000E7    -8.019921969560823E-1    1.693203171710384E-1    3.029766334851660E-4   -9.410323145145889E-4    3.077933048279381E-4    2.140177374826397E-4    9.743956235340739E-1   -5.919867238264830E-2
 4.300000000000000E7    -8.028198651253590E-1    1.775885910436403E-1    1.293604037365482E-4   -4.323286713348237E-4    2.735857186210895E-5   -3.395891828887472E-4    9.680607960807074E-1   -5.670235092311952E-2
 4.400000000000000E7    -7.983892900359479E-1    1.753961338482658E-1   -1.092316597596761E-4    3.346588638822420E-4    4.359665263693554E-4    3.366490282626697E-4    9.697233003301011E-1   -6.132310254746189E-2
 4.500000000000000E7    -8.061623406666714E-1    1.811097952956390E-1   -1.608295922446582E-4    1.070182921861242E-3    1.721377849220304E-4    2.328486012857451E-4    9.691386934016507E-1   -6.148267235800918E-2
 4.600000000000000E7    -7.930532196158416E-1    1.865572803755053E-1   -2.724337920736458E-4    6.835390394057266E-5   -1.555502241536530E-4    8.024551050002035E-5    9.750584237581847E-1   -7.519154759515449E-2
 4.700000000000000E7    -7.974948185367966E-1    1.916313746178976E-1    1.156142351477105E-4   -6.983566860201079E-4    6.202202595579746E-4   -7.913521569865793E-5    9.623953549273991E-1   -6.991205908100941E-2
 4.800000000000000E7    -7.991840986488610E-1    1.890848812178537E-1   -2.076430801709854E-4    4.001039368769218E-4   -1.434889131029576E-4    1.051174727669522E-4    9.719822547865875E-1   -7.394038786586034E-2
 4.900000000000000E7    -8.006774435867355E-1    1.984289197038110E-1   -6.762268531609794E-4    1.995245903165872E-4    1.487081315520457E-4   -2.605009638009111E-4    9.667972684662803E-1   -6.936775360989955E-2
 5.000000000000000E7    -7.997754662505165E-1    2.042912744007266E-1   -6.870550618008202E-4    5.022635142248745E-4   -6.857253035723460E-6   -1.473289526292282E-4    9.716259501952546E-1   -7.621153423230749E-2
 5.100000000000000E7    -7.938951747375333E-1    2.036043999126138E-1   -2.579276779895009E-4   -4.708496047680679E-4   -3.726693634992643E-4    5.507407577983725E-5    9.690622422937349E-1   -7.804566696723947E-2
 5.200000000000000E7    -7.943681046996709E-1    2.089535364825478E-1   -5.680505159443280E-4   -3.081090985550983E-4   -1.554319487116245E-4   -3.888588762660872E-4    9.691732587494412E-1   -7.501029474160943E-2
 5.300000000000000E7    -7.914128981207814E-1    2.117354558749515E-1   -3.402465335204253E-4   -4.423960442714532E-4    1.519815247868009E-4    4.214000783256117E-4    9.628166024713287E-1   -7.917573916840528E-2
 5.400000000000000E7    -7.886393440262850E-1    2.131008170040652E-1    3.659132974925875E-4   -4.897627425548379E-4    1.535741547713148E-4    2.206488633848692E-4    9.712311290244131E-1   -8.833832502498563E-2
 5.500000000000000E7    -7.917332213994350E-1    2.215866743490424E-1   -5.217505469394262E-4   -5.525615090085089E-4   -6.188235618116240E-4   -2.852413548990909E-4    9.687843206703519E-1   -8.371211513162584E-2
 5.600000000000000E7    -7.900200962304945E-1    2.284874951937272E-1    7.401368577930629E-4   -3.040102020664311E-4   -1.239582669370718E-4    4.389504846651764E-4    9.649571556922178E-1   -8.662794529869261E-2
 5.700000000000000E7    -7.843078768178333E-1    2.299325299597080E-1   -2.977523840158134E-5   -6.319372541092786E-5   -2.352422341723289E-4   -3.411779547045897E-4    9.664609365369262E-1   -8.432336451504679E-2
 5.800000000000000E7    -7.834902895032348E-1    2.302793860056312E-1    1.617868815592098E-4   -1.264140099734759E-4    4.685992617819716E-4   -4.994613162391783E-4    9.753359011174729E-1   -8.286498007093636E-2
 5.900000000000000E7    -7.839484190033231E-1    2.391708275233977E-1   -6.613759579393791E-7    2.562810626916376E-4   -2.977648274716333E-4    3.699161988179685E-5    9.688006050940049E-1   -8.444082647581630E-2
 6.000000000000000E7    -7.805915586439692E-1    2.378103911292417E-1   -5.436410058247019E-4    1.481509733019959E-3    1.545815981952412E-4    7.984863135471539E-5    9.672879204254877E-1   -9.321054215536674E-2
 6.100000000000000E7    -7.779829401959634E-1    2.385879575896698E-1    2.877043958985311E-4   -3.381698586488266E-4    2.939486825572339E-4   -1.707427038498413E-4    9.706579501664004E-1   -8.760717442938432E-2
 6.200000000000000E7    -7.775380375779111E-1    2.465736037208790E-1    1.324486537200054E-4    1.497395687872171E-4   -5.209712795429433E-4   -2.550420647028415E-4    9.633382746305473E-1   -9.264384071338820E-2
 6.300000000000000E7    -7.773554703997987E-1    2.508488671925574E-1   -7.139120168259161E-4   -7.599900812919952E-4    1.354788355648130E-5   -4.663149898000764E-5    9.676438951095188E-1   -9.262246524721794E-2
 6.400000000000000E7    -7.744157690227061E-1    2.551340543147210E-1    6.511478097122434E-5    4.120794128269032E-4   -1.466190941587900E-4    6.802288268751650E-4    9.597530313710712E-1   -9.764852021820558E-2
 6.500000000000000E7    -7.755826961457701E-1    2.602186017667647E-1   -2.487347398063082E-4   -1.053531968175411E-4    2.600375337836965E-5    4.307252242204060E-4    9.654224345624954E-1   -9.513326913045837E-2
 6.600000000000000E7    -7.755095521365233E-1    2.624064793694652E-1    1.279534581580421E-4    1.011991482642793E-4   -1.390883508143937E-5    1.026170879793177E-4    9.596440480353741E-1   -1.051261173163684E-1
 6.700000000000000E7    -7.720088692415988E-1    2.688371911714721E-1   -5.814271610471076E-4    2.823409906698479E-6   -1.009308014848033E-4    2.788843454126686E-4    9.671360215839062E-1   -1.035130265832060E-1
 6.800000000000000E7    -7.747378625764979E-1    2.667305712861882E-1    4.032072135054465E-4    9.542794861996572E-5    2.464766789165347E-4    3.088705286505756E-4    9.578979104356802E-1   -1.003789247950591E-1
 6.900000000000000E7    -7.752839785814477E-1    2.723120492418540E-1    2.657250320478834E-4   -6.620595507036170E-5    3.596769014679350E-4    5.864771311522528E-5    9.652666960427184E-1   -9.604168795241877E-2
 7.000000000000000E7    -7.684080241108592E-1    2.763907017086712E-1   -1.219618047073597E-3   -2.824054334054085E-4   -3.242766152090601E-4    1.884936290052885E-8    9.613955612101075E-1   -1.069727472055133E-1
 7.100000000000000E7    -7.694266169737767E-1    2.797321000099429E-1   -1.610195416191404E-4   -5.975133941303675E-4    6.537111131539403E-4   -5.908521893963999E-5    9.609540777608824E-1   -1.053281926800150E-1
 7.200000000000000E7    -7.631509609127873E-1    2.815984569428172E-1    2.604524528988116E-5    3.142919809953380E-4    2.344305899018639E-4   -8.689530943194963E-5    9.630309934232669E-1   -1.020031903707445E-1
 7.300000000000000E7    -7.604999339159140E-1    2.866929108188436E-1    2.908936287562316E-5    7.840266006375433E-4    3.832320608816651E-4   -1.476372105041869E-5    9.602073971231220E-1   -1.090129280330551E-1
 7.400000000000000E7    -7.656063046434248E-1    2.915236223118741E-1    4.038207220623171E-4    1.881375963523524E-4   -3.459616762634000E-4   -2.061614825290013E-4    9.603635918601088E-1   -1.125529026685787E-1
 7.500000000000000E7    -7.647716980129720E-1    2.933925497196032E-1    3.553826657613652E-4    1.404799749394370E-4   -3.119763579704210E-5    4.252721122785719E-5    9.592736484938181E-1   -1.098396849650766E-1
 7.600000000000000E7    -7.571575418607890E-1    3.042077072875990E-1    8.161439907802235E-5    2.302130744618208E-4   -6.011119588167994E-4    1.659602806277561E-4    9.641329158741727E-1   -1.120659755902495E-1
 7.700000000000000E7    -7.584624980193054E-1    3.054338763251462E-1   -1.208840442754921E-4    1.372433804220575E-5    1.463977592214049E-4    5.348575732386507E-4    9.631687639573333E-1   -1.074175233383216E-1
 7.800000000000000E7    -7.567221943415100E-1    3.071545857988923E-1   -9.209898232616199E-4    2.054149769463085E-4   -2.922209849058663E-4    3.310024174985503E-4    9.556301691884771E-1   -1.128089229079123E-1
 7.900000000000000E7    -7.486416256033603E-1    3.083904219022348E-1    6.242391995231181E-4   -8.028417535393313E-5    1.245622979254581E-4    7.957458054540007E-4    9.575195800137342E-1   -1.149337215719494E-1
 8.000000000000000E7    -7.533859773466439E-1    3.142743365189447E-1   -3.571316741880182E-4    2.286989792163046E-4   -7.059299786152490E-6   -5.418666830857167E-4    9.650873563573016E-1   -1.130072423817631E-1
 8.100000000000000E7    -7.454220005720840E-1    3.185576699696399E-1    6.556945230863858E-4   -1.235559470733959E-4    3.629009288252767E-4   -7.374452491913172E-4    9.575876013310530E-1   -1.137093051830311E-1
 8.200000000000000E7    -7.498194875609633E-1    3.222919878577616E-1   -5.303279517261231E-4    3.305484002102877E-4    7.676460158782242E-5   -3.381622905573260E-4    9.563661101476774E-1   -1.151602705933606E-1
 8.300000000000000E7    -7.434711764995754E-1    3.236960934292403E-1   -2.656777466777405E-5    1.173151504232201E-4   -3.299281202740930E-4   -5.727339880037623E-4    9.527637986861774E-1   -1.224737855690489E-1
 8.400000000000000E7    -7.448729284860216E-1    3.258758645951571E-1    4.435470678226952E-5   -4.690940718441275E-4   -2.504167255800697E-4   -1.813509653872935E-4    9.590235918126598E-1   -1.244685693784504E-1
 8.500000000000000E7    -7.400366908575798E-1    3.289958502740151E-1    4.506061139347614E-6   -4.051268419002925E-4   -3.674684047576310E-4    9.897446713018061E-5    9.579470564174315E-1   -1.242833049117966E-1
 8.600000000000000E7    -7.387737413657147E-1    3.352540219743096E-1   -4.441828834848615E-4    1.612146094227020E-4   -9.502621093161155E-5   -5.000783562776753E-4    9.594965681306731E-1   -1.257819547680799E-1
 8.700000000000000E7    -7.397479474856352E-1    3.415611547603909E-1   -7.348781644689689E-4   -1.957727521853483E-4   -2.149035724039812E-5   -2.217128658639035E-4    9.570385855095770E-1   -1.249653726607466E-1
 8.800000000000000E7    -7.271658487497513E-1    3.458226394242428E-1    7.912960550441820E-4    1.660946652302586E-4   -1.213019232590227E-5   -8.466369127398301E-5    9.539414278026888E-1   -1.279831751834360E-1
 8.900000000000000E7    -7.318280588213639E-1    3.446045512763391E-1    3.847162793276794E-4   -7.427666139550053E-4   -3.242532329281889E-4    1.552667151941460E-4    9.546148382212406E-1   -1.285915982789039E-1
 9.000000000000000E7    -7.289734257458258E-1    3.544487149472826E-1    5.813558247623133E-5    1.165384719544071E-3    6.048072319763077E-4   -4.808978875778856E-5    9.494307019790451E-1   -1.366658410915345E-1
 9.100000000000000E7    -7.338489617686211E-1    3.588829145259206E-1    4.395763096780441E-4    3.839212534337111E-4   -2.417739315072582E-4   -3.268155159019991E-4    9.545009965124777E-1   -1.342063545638852E-1
