#  HZ   S   RI   R     50.00 
! Rohde & Schwarz Vector Network Analyzer 
! Rohde-Schwarz,ZNBT8-20Port,1318700624101681,3.50
! Created: UTC 7/15/2025, 2:12:00 PM
! freq[Hz]                re:S1010                im:S1010                re:S0610                im:S0610                re:S1006                im:S1006                re:S66                  im:S66
 1.000000000000000E6    -8.954839914143830E-1   -4.714674503705337E-3   -4.508696481279802E-5   -2.143168484694754E-5    1.517730469786254E-4   -4.104258513901782E-4    9.726021893635753E-1    1.328340709746041E-2
 2.000000000000000E6    -8.896163133733501E-1   -1.985868878140677E-2   -3.355976125861711E-6   -3.228045432796651E-5    2.382086719024562E-5   -4.842029666860606E-5    9.799024876782816E-1    1.429647299238287E-2
 3.000000000000000E6    -9.055025137257587E-1   -9.897597839345122E-3    4.924082724973773E-5   -3.417072672060477E-4    1.008714046801046E-4   -9.954014001811303E-5    9.719969700089787E-1    3.134086575347527E-3
 4.000000000000000E6    -9.022231754852552E-1   -6.336437687414159E-3   -2.501746822402818E-4   -1.958581414518654E-4   -1.648229223064456E-4    2.335218165337201E-4    9.780797593086370E-1    2.339082745461683E-3
 5.000000000000000E6    -8.989046367526283E-1   -3.991542973675342E-3   -4.637345006507713E-5    1.061814571494219E-4   -3.494090364298014E-4   -3.537303194678319E-4    9.746996190506533E-1    1.008986996794136E-3
 6.000000000000000E6    -9.027406572648636E-1    4.530329835598940E-3    2.491741315558576E-4    2.734385344214779E-4    8.598321565061837E-5   -9.899540224764303E-5    9.746613827531158E-1    5.281376522079825E-3
 7.000000000000000E6    -9.118777342013503E-1    4.572187695959878E-3   -1.296078129631214E-6    4.003441027559840E-5   -3.496053304857555E-4   -7.661944005856158E-5    9.725641342722479E-1    5.978014728143230E-4
 8.000000000000000E6    -9.079590809175797E-1    1.447474262339540E-2    2.160848189386310E-4   -1.806064432413982E-4   -2.934901258795774E-4    6.807247424597349E-5    9.749537795119296E-1   -2.726962560556546E-3
 9.000000000000000E6    -8.982387140036898E-1    1.802802477486937E-2    1.010993296297141E-4   -1.574050520963319E-5   -6.432469802640693E-6   -1.704318546161783E-4    9.687165183003088E-1   -1.135119546577404E-2
 1.000000000000000E7    -8.974533023409035E-1    2.782755631069346E-2    3.241184038349360E-4   -7.635553727444643E-5   -1.941284878189012E-5    1.792774976304863E-4    9.683563755081125E-1   -1.042694778811037E-2
 1.100000000000000E7    -9.045455938529428E-1    1.801603133647302E-2   -1.773163645572046E-4   -1.710496164125199E-4    1.752745159273745E-5    8.816413179880275E-5    9.854591112095726E-1   -1.439168898825449E-2
 1.200000000000000E7    -8.980848994969558E-1    1.899680704335760E-2    2.746133705400751E-4    3.377893797057262E-4    8.430017966042697E-5    1.965687706149478E-4    9.734564961267113E-1   -2.196442049709828E-2
 1.300000000000000E7    -8.977177511265686E-1    2.552223121320814E-2   -2.729565972314418E-4    1.993188187751640E-4    8.945882513145989E-5   -1.863204614681845E-4    9.718186163710040E-1   -1.794869074756370E-2
 1.400000000000000E7    -8.983391847033447E-1    3.181075021513974E-2   -5.072864360251570E-4    1.552030740309677E-4    4.911549269624003E-5   -3.604171864049186E-5    9.843921333746641E-1   -2.198533949986081E-2
 1.500000000000000E7    -8.947557462789621E-1    1.446434052100515E-2   -3.119706686060783E-4    5.506241663191466E-4   -4.906255682025564E-4   -7.212190396542580E-5    9.789612270923391E-1   -2.406897099189423E-2
 1.600000000000000E7    -9.076333816590233E-1    2.885893199892962E-2    3.950858511362268E-5   -2.118011732137111E-5    1.424973112936217E-5    1.939919654223507E-4    9.739367186570520E-1   -1.789684125136810E-2
 1.700000000000000E7    -8.940153944944069E-1    3.372896328601588E-2   -8.780787246324508E-5    1.301242183924244E-4    3.083671334232563E-4   -1.096709808200609E-4    9.739170892516016E-1   -2.942974068880764E-2
 1.800000000000000E7    -8.968813486740185E-1    2.130975526832077E-2    2.751250464802371E-4   -1.987389165241487E-4    6.896001535665601E-5   -2.957233289550172E-5    9.764233503048356E-1   -2.516959639204711E-2
 1.900000000000000E7    -9.010532457877435E-1    2.617229254820578E-2    2.788492912607482E-4   -7.779870713187190E-5    4.605570798484627E-4   -2.327601415129243E-4    9.748045225428684E-1   -2.684824472150089E-2
 2.000000000000000E7    -8.947223442008775E-1    3.458200099917980E-2   -1.272486121671146E-4   -2.739972554457918E-4   -6.777731738757141E-5   -1.911389015748492E-5    9.778565656686261E-1   -2.619375978263329E-2
 2.100000000000000E7    -9.011476221655662E-1    4.129768008915550E-2    5.615206770853781E-5    7.533636764176646E-4    5.962034127310199E-4   -2.875903752502293E-4    9.675253336421621E-1   -3.388615000547924E-2
 2.200000000000000E7    -8.984644880027207E-1    3.335653449671667E-2   -3.622487030561572E-4    4.917092233580269E-5    1.755444559512307E-4    4.670236249509588E-5    9.686627540195359E-1   -3.654236519444008E-2
 2.300000000000000E7    -8.909273066550412E-1    3.133326096667339E-2    5.192930884743546E-5    4.877039932614732E-4    2.192709787841999E-4    3.337025714910361E-4    9.806111237919205E-1   -4.033683165743784E-2
 2.400000000000000E7    -8.949345520674066E-1    3.714059006751519E-2    1.915026974696994E-4    2.015793507542976E-4   -1.653187443714741E-4    1.725015351738005E-4    9.739122355496056E-1   -3.608365515147725E-2
 2.500000000000000E7    -8.868167499244552E-1    4.097415097300022E-2    2.337628929429330E-4    1.582324730204632E-4    1.351679073455678E-4   -9.110784646397660E-5    9.814499601221992E-1   -3.471562641739607E-2
 2.600000000000000E7    -9.037586180271440E-1    4.524373020263063E-2    2.857963715484663E-5   -5.911427402508856E-4    9.398370505511110E-4   -8.535903638375220E-4    9.745409506563275E-1   -3.453336005175755E-2
 2.700000000000000E7    -9.071164653414303E-1    4.634243648659082E-2    6.991365872920246E-4    3.419121632602095E-4    2.098508959765139E-4    4.172003648993814E-4    9.793566396240769E-1   -4.580717664310859E-2
 2.800000000000000E7    -8.993976699367827E-1    4.898532084765061E-2    9.816082817948411E-4   -1.476178756429996E-4   -3.557398999977982E-4    5.128255352761808E-5    9.786714285768083E-1   -3.665103846829984E-2
 2.900000000000000E7    -8.924985032187159E-1    5.171507247125065E-2   -9.144250413447678E-6   -2.267384581489535E-4    6.083508033942108E-4    2.891146997536720E-4    9.787802002205560E-1   -4.531158617378246E-2
 3.000000000000000E7    -9.007494759938846E-1    4.903833028563320E-2    9.250576665123875E-5   -1.704254724490528E-4   -4.987430006437209E-4    3.280607501279203E-4    9.747644036603942E-1   -4.544544789881590E-2
 3.100000000000000E7    -9.016688894788960E-1    5.000206853772200E-2    3.948646353112366E-4   -1.058172482830114E-3    1.254860749444163E-5   -4.034048778421891E-4    9.700675178805560E-1   -3.978346635881632E-2
 3.200000000000000E7    -8.959142027046636E-1    4.610740794968474E-2    2.336256348525678E-4    7.818793721939767E-4   -4.845230760566877E-4    2.549448311634549E-4    9.746438436071467E-1   -4.389477578004252E-2
 3.300000000000000E7    -8.908305928709868E-1    4.989096435720588E-2   -3.254409529531655E-5   -2.118447721409192E-4    9.837779533028853E-4   -3.738635064498640E-4    9.770916986773543E-1   -5.016028719451721E-2
 3.400000000000000E7    -8.960904892295063E-1    5.008390410585588E-2   -3.922739696447324E-4    1.147265881018115E-3    2.781815426244469E-5   -8.741016433388378E-4    9.681540315215602E-1   -4.731392658739025E-2
 3.500000000000000E7    -8.960026544960903E-1    6.019540431352675E-2   -2.550868604606211E-4   -2.825619011996870E-4   -4.962232404434608E-4    4.532332405576453E-4    9.662341904271273E-1   -5.223469082585117E-2
 3.600000000000000E7    -8.980620747419698E-1    5.988558449402698E-2    8.566182675502197E-5    6.915834637062973E-5   -2.057839681094687E-5   -6.753140128049712E-4    9.751332341946770E-1   -6.015531399490805E-2
 3.700000000000000E7    -8.983827889926286E-1    5.769132475242188E-2    7.517785652194469E-4   -5.021796810018547E-5   -4.540805278257315E-4    7.029213007411025E-5    9.766827862878960E-1   -5.147197706546757E-2
 3.800000000000000E7    -8.944573026084804E-1    5.912956042843487E-2    4.817251294479416E-4    1.903239839477474E-4    1.784544992680746E-4    1.250573262543292E-4    9.688099880495958E-1   -5.704877597207309E-2
 3.900000000000000E7    -9.008207520738638E-1    5.728927174163440E-2    1.548790105707369E-4   -3.255180118684805E-4   -5.719850359415797E-4    2.885253074284337E-4    9.747883203778073E-1   -6.464250474802945E-2
 4.000000000000000E7    -8.959274155043871E-1    6.433922542923601E-2    6.923666475607941E-4   -5.060583408710417E-4   -7.528819635620746E-4    1.376439535745189E-4    9.742018075004327E-1   -5.524603094605951E-2
 4.100000000000000E7    -9.055039778855386E-1    6.807506013636397E-2    5.963857273149817E-4   -3.097519406706521E-4    3.441755516942947E-4    1.326644089359460E-4    9.692733889691372E-1   -5.608669409914614E-2
 4.200000000000000E7    -8.977344577630655E-1    6.748135257107475E-2    9.202139519050338E-4   -1.095177595212529E-4   -1.459269812896115E-4    1.160154824855297E-4    9.694262170897691E-1   -5.825141142667936E-2
 4.300000000000000E7    -8.939702287934871E-1    7.523235560353360E-2    1.928966929769944E-4   -8.394735602739976E-4    2.385134150380337E-4    2.047462862500146E-4    9.711889162493285E-1   -5.985567485172723E-2
 4.400000000000000E7    -8.916642473676504E-1    6.977784807624712E-2   -2.921602158704011E-4   -9.349077587715797E-5   -2.076194000209888E-5    1.393253068768579E-4    9.676772030544049E-1   -6.301487618242295E-2
 4.500000000000000E7    -8.977049591758811E-1    6.627917644593985E-2    2.023925843262408E-4   -2.097855322783578E-4    3.569736890798531E-5    2.777071750769318E-4    9.707147429818176E-1   -5.850710110035774E-2
 4.600000000000000E7    -8.876507152061053E-1    7.181089949845711E-2    1.610905544930881E-4   -2.406248893904026E-4    3.873036505933729E-4   -1.016667950084672E-4    9.726934243602104E-1   -6.287052556608209E-2
 4.700000000000000E7    -8.958820412227531E-1    7.609825289497779E-2   -3.503962840488830E-4    2.160566849282747E-4   -7.143172132360651E-4    3.436679319375532E-5    9.707211434424727E-1   -6.798456597019022E-2
 4.800000000000000E7    -8.938642914612758E-1    7.345404155295850E-2   -1.572304048182890E-4   -1.564882570670003E-4    5.919917198262132E-5    5.669772907450469E-5    9.598849213260546E-1   -6.544849737246357E-2
 4.900000000000000E7    -8.964697545283687E-1    7.364802098532157E-2   -5.794164883625481E-4    1.207742520259856E-3   -1.756576675813772E-4   -2.030056304351110E-4    9.646236627399246E-1   -6.537805070223957E-2
 5.000000000000000E7    -8.951405749271940E-1    7.397408396555225E-2   -4.144882881321522E-4    3.783799450034857E-4   -4.739272276469178E-4    3.675070757607675E-4    9.702771728823558E-1   -6.471151238635896E-2
 5.100000000000000E7    -8.903863356058065E-1    7.550918747786896E-2   -6.032075789388499E-4    5.796389913440423E-4    4.547284143298131E-4    6.791906350737333E-4    9.664362911630864E-1   -6.995837856960181E-2
 5.200000000000000E7    -8.948991934206264E-1    7.642364482459102E-2    5.861433510170728E-4   -3.785680981901659E-4    9.107841682011726E-5    9.563328487317920E-5    9.669742328270784E-1   -6.889132865303843E-2
 5.300000000000000E7    -8.932456012452432E-1    7.980956018830124E-2   -1.728865898229880E-4    3.245717389937898E-4   -9.473400721791320E-6    2.646068392105770E-4    9.717748069091118E-1   -7.199263617293652E-2
 5.400000000000000E7    -8.916371055433738E-1    8.307668936760401E-2   -4.270810032954678E-4    8.005829507670267E-4   -2.495312610707618E-4   -2.447655779604632E-4    9.643111505885806E-1   -7.468381998758722E-2
 5.500000000000000E7    -8.944472687109394E-1    8.283364601680651E-2    3.468766367021537E-4   -2.227811718316308E-4    2.720825755405783E-4    9.531799537914470E-6    9.661204292257842E-1   -7.144200489498083E-2
 5.600000000000000E7    -8.947846486968807E-1    8.742794027516482E-2    6.352326269911263E-5   -3.323259806809586E-5   -9.417859917364256E-5    2.314362708067963E-5    9.702073854773623E-1   -7.770985209348931E-2
 5.700000000000000E7    -8.893661219935288E-1    8.943064026713975E-2    3.745954564186773E-4    5.954717694211398E-4   -1.075669490677569E-4   -1.766263695565211E-4    9.674802487118986E-1   -8.048663787459480E-2
 5.800000000000000E7    -8.902372542606023E-1    8.586446805805423E-2   -2.416026126164112E-4   -3.331292162137123E-4   -6.037172720900016E-4    2.680547105224812E-4    9.675864915459832E-1   -7.924955546292696E-2
 5.900000000000000E7    -8.924771524105375E-1    9.253043257826365E-2    8.862206859030699E-4   -1.052399685151367E-3   -8.584002069751105E-5    9.510182144236408E-5    9.655617384106980E-1   -9.092022689649353E-2
 6.000000000000000E7    -8.875733403708440E-1    9.246429921322313E-2    1.103345194291292E-4    3.827975308289868E-4   -9.308309182774538E-5   -2.485283002654057E-4    9.653577310783674E-1   -7.710156308925707E-2
 6.100000000000000E7    -8.878378015924293E-1    9.845017395444033E-2   -1.156350885095890E-4   -8.688882780463592E-4   -3.434180064523462E-4   -2.183593298629041E-4    9.658827548363446E-1   -8.287978661824662E-2
 6.200000000000000E7    -8.883552851390508E-1    9.592053149921639E-2   -2.352475022661662E-4    5.881697843101895E-4   -7.137592493848322E-4   -8.916088499249982E-4    9.594265650414023E-1   -8.850606597870848E-2
 6.300000000000000E7    -8.977244713476711E-1    9.547114844562311E-2   -2.809886111241726E-4   -4.685555583638588E-5    6.593832719026437E-4    8.543753922771900E-5    9.671800106341373E-1   -9.066456284224360E-2
 6.400000000000000E7    -8.892556532272785E-1    9.621074629525797E-2   -4.055919078093785E-4   -2.765820946450504E-4   -4.652277366828344E-5    2.249106688537002E-4    9.606986881573606E-1   -9.020315793393041E-2
 6.500000000000000E7    -8.934558042442867E-1    1.002941106286869E-1    7.527959037973117E-4    1.880716597450219E-4    1.861450447951254E-4    2.038508745564349E-4    9.645069811616576E-1   -9.388699436828539E-2
 6.600000000000000E7    -8.916431133151467E-1    1.006401057201609E-1    3.518734051792670E-4   -6.786455715896223E-4    3.902703095140799E-4    6.546326345010672E-4    9.566081533396497E-1   -9.963308485101714E-2
 6.700000000000000E7    -8.922361519651308E-1    1.062601142299128E-1    2.950038718837388E-4   -2.121734829763407E-5   -1.200697877268968E-4    1.970954480826260E-4    9.679163843380514E-1   -9.455323613726033E-2
 6.800000000000000E7    -8.914475828349520E-1    1.044586141332635E-1    4.573623999450153E-4   -1.534798520335246E-4   -2.167991348567824E-4    1.099053509008814E-4    9.632483109029143E-1   -9.582227853263360E-2
 6.900000000000000E7    -8.857024620988007E-1    1.013965215855064E-1    8.927871373951663E-4   -7.589338176523743E-4    3.729480585247072E-4   -7.326193811427162E-5    9.600232742961091E-1   -9.942576298263978E-2
 7.000000000000000E7    -8.882910154876329E-1    1.004552814139384E-1    4.466150893251550E-5    2.670538831096552E-4   -3.335130886865145E-4    8.981534679300553E-5    9.633224978760799E-1   -1.004640556240436E-1
 7.100000000000000E7    -8.884615955463888E-1    1.055297934824752E-1    2.467281327972079E-4    1.811385508483605E-4   -5.361071306907531E-4   -1.926269718097156E-4    9.653088004448404E-1   -1.063329641774886E-1
 7.200000000000000E7    -8.867223845288695E-1    1.074542419154188E-1    2.026162758325253E-4    4.878686597549388E-4    8.599886243950534E-5    1.752940236722964E-4    9.624320878752133E-1   -1.072565181629189E-1
 7.300000000000000E7    -8.863744230228101E-1    1.090563218379378E-1    1.793779843666784E-4    6.030001819044081E-4   -6.167080194610997E-4    6.156111464368776E-4    9.654114542726151E-1   -1.080334507473097E-1
 7.400000000000000E7    -8.842641399713564E-1    1.125593150813590E-1    8.482084983458657E-4   -2.704926647229664E-4   -2.016795192974412E-5    5.330882718042298E-4    9.630738687998801E-1   -1.040794798175478E-1
 7.500000000000000E7    -8.877654711871712E-1    1.090910549284496E-1    3.642253799460584E-4    3.339533708952938E-4   -2.310825637643357E-4   -1.346039048231724E-3    9.554969671776895E-1   -1.021327800555583E-1
 7.600000000000000E7    -8.880424151949606E-1    1.171260557158475E-1    6.226258268327279E-4   -8.487915595581399E-4   -1.061893270220442E-4   -1.482592954213291E-4    9.647753585446075E-1   -1.001630199209795E-1
 7.700000000000000E7    -8.897480545665365E-1    1.110563899367974E-1   -8.368043393847712E-4   -2.566599718178813E-4    5.040382362132425E-4   -2.140715164122819E-4    9.657617850765754E-1   -1.074210829260121E-1
 7.800000000000000E7    -8.850985859146802E-1    1.115155788956025E-1   -3.069761249076520E-4   -2.017005295479414E-4   -2.959411889231876E-4   -5.721064826086486E-4    9.590974093929154E-1   -1.106476148748840E-1
 7.900000000000000E7    -8.850688880473493E-1    1.194601773975058E-1    8.133510158884482E-5    2.154694446861942E-4   -3.519718312727837E-4   -7.898780626110163E-4    9.575733416481471E-1   -1.099820595190344E-1
 8.000000000000000E7    -8.847603091447090E-1    1.213972845101171E-1    9.395930789031974E-5    2.182808418461849E-4   -9.779010162902639E-5    4.953521899780359E-4    9.617803509324329E-1   -1.099335486064422E-1
 8.100000000000000E7    -8.842241252613755E-1    1.220522332231580E-1    6.158788728520772E-4    3.827287240366009E-4    7.392963155148761E-4    1.691568132451105E-4    9.517005680955547E-1   -1.100445915599412E-1
 8.200000000000000E7    -8.833292691674332E-1    1.221989719912128E-1    1.351423651738410E-4   -2.249406975142196E-4    3.807482912702900E-4   -4.339683435393842E-4    9.619428008460106E-1   -1.153587673969678E-1
 8.300000000000000E7    -8.851492591417824E-1    1.205942092847651E-1    1.922093990532502E-4    1.830750016451071E-4    3.575189392662275E-4   -1.964783785642744E-4    9.573293052431811E-1   -1.151535794693861E-1
 8.400000000000000E7    -8.857828444657257E-1    1.242481806144114E-1   -3.515649990540826E-5    7.628821370622950E-4   -4.949060954817419E-4    2.700737275753593E-4    9.581847317005436E-1   -1.178538617305664E-1
 8.500000000000000E7    -8.808811324852770E-1    1.221624579833965E-1   -2.224074930728212E-4   -5.876737031743738E-6   -1.061249377709507E-3    3.555105471877976E-4    9.567703888729436E-1   -1.129735630203899E-1
 8.600000000000000E7    -8.849798593053001E-1    1.294047963107909E-1    2.367574473287915E-4   -2.431983260323905E-4    3.359510958273021E-4    6.672679569253160E-4    9.574599424513569E-1   -1.176483281342180E-1
 8.700000000000000E7    -8.837553604988404E-1    1.354087788668637E-1    5.045034696754160E-4   -4.992153596671361E-4    1.274165166587514E-4    7.673672738394251E-5    9.561377527233944E-1   -1.192526657937043E-1
 8.800000000000000E7    -8.820754507967812E-1    1.297065806186540E-1   -1.583500282651934E-5    2.085862572798992E-4    1.220490141236999E-4   -1.158831828323682E-4    9.558238719307324E-1   -1.202314584831271E-1
 8.900000000000000E7    -8.819400261241090E-1    1.367733935984771E-1    8.192514667987130E-4   -1.065749528983143E-4    5.716142824811492E-4    4.375771662549815E-5    9.509797317999863E-1   -1.204473908763685E-1
 9.000000000000000E7    -8.834901155392650E-1    1.347536125595114E-1    3.602028697768965E-4   -9.493183439473106E-5   -5.791868031111988E-4   -5.129996101437549E-4    9.588824013892331E-1   -1.259800295112918E-1
 9.100000000000000E7    -8.808362523822280E-1    1.353795183727056E-1    4.509177224213269E-4   -1.419646512390842E-4    6.390181241462434E-5   -3.457405368194989E-4    9.623575445858352E-1   -1.267805683904633E-1
