#  HZ   S   RI   R     50.00 
! Rohde & Schwarz Vector Network Analyzer 
! Rohde-Schwarz,ZNBT8-20Port,1318700624101681,3.50
! Created: UTC 7/15/2025, 2:13:07 PM
! freq[Hz]                re:S1010                im:S1010                re:S0310                im:S0310                re:S1003                im:S1003                re:S33                  im:S33
 1.000000000000000E6    -8.963836398493165E-1   -5.801977049437022E-3    6.704429141047189E-5   -3.346911049262988E-4    1.522564034390344E-4   -1.671866483826798E-6    9.701115705366874E-1    1.078325440536309E-2
 2.000000000000000E6    -8.966592034040494E-1   -4.859572786908639E-3    2.818082069874798E-4    9.026066881248163E-5    8.671396924606274E-5    1.259250420389231E-4    9.659697820875637E-1    1.461304746862191E-2
 3.000000000000000E6    -9.040436582931031E-1   -5.005934845273254E-3    1.543729141906193E-4    1.969429797052879E-4   -7.324144375948766E-5   -9.593083599165902E-5    9.629171277402481E-1    1.745005898837962E-2
 4.000000000000000E6    -9.118115011133487E-1   -1.162542083315503E-2   -8.732365830056501E-5    2.850976565186030E-4    2.308212045883595E-4    2.123637352987680E-4    9.818041133904053E-1    1.717789147106952E-2
 5.000000000000000E6    -8.926686269877792E-1   -5.981101449892575E-3    4.862841754187757E-5    4.811283407874128E-4    5.617601169182083E-6   -4.037723157469404E-4    9.725261725177191E-1   -3.500796393297232E-3
 6.000000000000000E6    -8.991992422233996E-1   -3.306559505447928E-4    4.518461979522737E-5   -2.717203354124559E-4   -3.959173184004267E-5   -2.299372936556679E-5    9.704078171308507E-1    3.401773854078614E-3
 7.000000000000000E6    -9.055504870229200E-1    1.104791146978641E-2   -3.138330849808905E-5    1.738857244784638E-4   -9.122032944498431E-5   -1.860395878477968E-4    9.746000177149375E-1   -7.523306783371411E-3
 8.000000000000000E6    -8.955686829476091E-1    8.503440002235152E-3    8.020022585605182E-5    3.788173709174216E-5    3.349494534967912E-5   -1.865199572836909E-4    9.794672488794050E-1    3.999275815292758E-3
 9.000000000000000E6    -9.042937192745339E-1    1.807035322336285E-2    4.037601672714357E-4    2.589549468442193E-4    1.486254127783960E-4   -2.379907319594329E-4    9.712242336769842E-1   -9.432857658614548E-3
 1.000000000000000E7    -8.939026296941637E-1    2.118805415906337E-2    3.221441751930699E-4   -2.897815569097979E-4   -2.782030183329622E-4   -2.580923942468479E-4    9.914403635303678E-1   -1.455817558618196E-2
 1.100000000000000E7    -8.933484638836962E-1    2.894296950990684E-2    3.315681420612101E-5   -1.580829789911939E-4    8.064338463476359E-5    4.742368999180971E-5    9.730584683742992E-1   -1.927974753104437E-2
 1.200000000000000E7    -8.973186559768070E-1    1.588945898120775E-2    1.960297716386843E-6   -1.132804543934821E-4    9.890998668313321E-5   -2.509470832509854E-4    9.727689637158938E-1   -1.716420534261824E-2
 1.300000000000000E7    -8.983739296377687E-1    3.301381826424776E-2    4.361762736558603E-5   -1.776212976513143E-4   -1.731982713892892E-4   -3.510031997047780E-4    9.802473572513682E-1   -2.221599424286742E-2
 1.400000000000000E7    -8.987501535171806E-1    1.918097026849704E-2    1.537787946548248E-4    7.650886338652209E-5    1.129038804519754E-4   -1.121324040651294E-4    9.815788270260841E-1   -2.096106851794113E-2
 1.500000000000000E7    -9.020688748432654E-1    2.399714261617842E-2    1.112224235226300E-4   -5.526252700546347E-5   -4.038540889625173E-4    2.257814596793577E-4    9.792928077617592E-1   -2.129756045132560E-2
 1.600000000000000E7    -8.980508091440438E-1    3.072627390938719E-2   -8.118555500627735E-5    1.779720738261104E-4   -2.126388170784395E-4    2.140103489955156E-4    9.794135431601733E-1   -2.184693754479599E-2
 1.700000000000000E7    -8.975294341537517E-1    3.263887027667709E-2    1.539564013263267E-4   -1.449591732614544E-4    5.956598025690277E-5    2.748440416654198E-4    9.843384176089064E-1   -2.939660072400136E-2
 1.800000000000000E7    -8.973519575525528E-1    3.004668697011790E-2   -3.063068645567014E-4    1.879070873889251E-4   -1.455166729350905E-4    2.637020192043173E-5    9.872737222480064E-1   -2.756420754281880E-2
 1.900000000000000E7    -8.974367493825457E-1    2.742403079095647E-2   -1.696794764343923E-6    1.390387101092438E-4    3.029535059317043E-5   -8.384212852993714E-5    9.809761883622953E-1   -2.415501180045850E-2
 2.000000000000000E7    -8.945919510766199E-1    3.111023656903593E-2    1.589538830654823E-4    2.727896384641906E-4    7.764310041288474E-5   -1.737439993252022E-4    9.772829580175436E-1   -2.711635047639510E-2
 2.100000000000000E7    -8.946653378488528E-1    3.653327832006725E-2    6.700717207736163E-6    3.899390441925084E-4    1.309331778630728E-5    1.967505788407315E-4    9.855401313452826E-1   -2.709106942330679E-2
 2.200000000000000E7    -8.971769116766882E-1    3.653074914753185E-2    7.469827824992582E-5    1.625808904645946E-4   -1.876846839896322E-4   -8.627923592470025E-5    9.755457779938115E-1   -2.420401783274355E-2
 2.300000000000000E7    -8.873563758583723E-1    2.604772795141599E-2   -1.541062003323200E-4   -1.245919346071466E-4    1.724250763970257E-4    1.142116288840559E-4    9.752455122851825E-1   -3.926542419608316E-2
 2.400000000000000E7    -8.871813609794605E-1    4.391805980657776E-2   -3.386062153511924E-4    6.639376675162047E-5   -1.222627253780873E-4    9.563066502772181E-5    9.647242159002848E-1   -2.303210806712811E-2
 2.500000000000000E7    -8.810981582483610E-1    4.084303359164269E-2    3.117463936663028E-4   -9.875327747918475E-5    3.645598119754014E-4    8.776700254135360E-5    9.815024544455000E-1   -4.223339493720506E-2
 2.600000000000000E7    -9.021639165740882E-1    3.800251300673391E-2   -6.612347406209674E-4   -2.052664379077930E-4   -2.153587332450936E-4   -3.782678215188193E-4    9.716533639236817E-1   -3.575355646432002E-2
 2.700000000000000E7    -9.012771249821800E-1    4.224758249709577E-2   -6.064683966069285E-4    2.758599461180281E-4   -7.787885861131715E-4    9.405908742842130E-4    9.746214901761892E-1   -3.475516752034448E-2
 2.800000000000000E7    -8.941412394792516E-1    4.390441969419581E-2   -1.369361994874461E-4   -3.509665825878359E-4   -6.843043417359802E-4    3.934747498126627E-4    9.724869101106826E-1   -2.492998865129310E-2
 2.900000000000000E7    -8.986719792913657E-1    4.706892936818644E-2   -8.799243930198634E-5   -5.501700538734815E-4   -1.245694800820367E-4   -2.844233017346875E-4    9.825624832312502E-1   -3.910643426743150E-2
 3.000000000000000E7    -8.967421568656555E-1    4.777814439432181E-2   -1.615005680853409E-4    5.100468396629184E-4    4.768365713536223E-4    5.386988272075554E-5    9.792408759264274E-1   -4.774850319398253E-2
 3.100000000000000E7    -8.963212973488258E-1    4.666908675669887E-2    2.703682981925796E-4   -6.428249062281931E-4    1.543360066603615E-4   -2.831619354383255E-5    9.695354314864564E-1   -5.068968443359397E-2
 3.200000000000000E7    -8.990284174237169E-1    4.911440948616171E-2   -1.051426951363618E-4   -9.782888989195932E-4   -2.575238034882107E-4    2.612013562472364E-4    9.772326636153450E-1   -4.419730719257930E-2
 3.300000000000000E7    -8.918721413697136E-1    5.299631117512449E-2    1.227920442309902E-4    3.896511659743208E-4    1.821709162569298E-4    4.356798917807211E-4    9.678480081240414E-1   -4.821366072831058E-2
 3.400000000000000E7    -9.007457733714235E-1    5.258650672058159E-2   -5.440348667686989E-4    2.818450089820595E-4   -1.042527596128791E-4    2.388063178331254E-4    9.825469990949997E-1   -4.239271710348183E-2
 3.500000000000000E7    -9.008439141673057E-1    6.046531428791299E-2   -5.947380033820319E-4   -2.591297203406524E-4    1.382425678358688E-4    2.015932467305332E-4    9.759640724878210E-1   -4.781378809729456E-2
 3.600000000000000E7    -8.981399746296429E-1    6.090895594829738E-2   -2.728813474570618E-6    5.818987702792553E-4    1.032764750403714E-4   -5.745560906446479E-4    9.779167973352697E-1   -4.189198817195870E-2
 3.700000000000000E7    -8.953857085762646E-1    5.866322371950776E-2    3.171571100330550E-4    8.882420604221829E-4    7.238855906500142E-5    2.430863071191958E-4    9.755003491552514E-1   -5.184304099702745E-2
 3.800000000000000E7    -9.003554645796633E-1    6.028012196930617E-2    1.769862040810150E-4    4.441349960495134E-4   -6.728406770592087E-4    8.892503516632132E-4    9.706617775780189E-1   -5.025166650562477E-2
 3.900000000000000E7    -8.921122003926086E-1    5.651965570695476E-2   -4.336986220710258E-4   -6.419922343536601E-5   -2.685612940461297E-4    3.444317007114440E-5    9.776217589497833E-1   -5.003890792772628E-2
 4.000000000000000E7    -8.991680245653895E-1    6.535655493926515E-2   -4.344197788156209E-4   -1.677088610552369E-4    2.791895559892655E-4    2.317584607284798E-4    9.678535555840551E-1   -5.454396285157542E-2
 4.100000000000000E7    -8.997992512733817E-1    6.627758318441652E-2    4.045758486984884E-4    1.113873852278079E-5   -4.835491626278418E-6    2.024071571466323E-4    9.769935273668763E-1   -5.578664191570234E-2
 4.200000000000000E7    -8.977113220046351E-1    6.574426279102902E-2   -4.372949711214807E-4   -5.538171915619713E-4   -5.284201763774202E-4   -2.807422180189345E-4    9.720443277007168E-1   -4.684767615555589E-2
 4.300000000000000E7    -8.918997037838485E-1    6.666219746757503E-2   -8.736130648010953E-4   -9.416896934199880E-4    1.797338159306068E-4    4.827907900060580E-4    9.731583691034323E-1   -5.292819257345050E-2
 4.400000000000000E7    -8.910620249819243E-1    6.605179202774968E-2    1.554917563321656E-4   -4.480272862196227E-4   -3.217450928385786E-4    6.816468686898150E-4    9.734427251265750E-1   -5.589698423122133E-2
 4.500000000000000E7    -8.973832705404493E-1    6.981924605556172E-2   -3.179671417483184E-4    7.053501445607486E-5    4.068801413538969E-4   -1.791463519611910E-4    9.652861962520677E-1   -5.114805918301135E-2
 4.600000000000000E7    -8.879913067602784E-1    7.253283709688307E-2   -8.409257112458614E-4   -6.239727980037051E-4   -6.677467686559636E-4   -4.891466432220815E-4    9.773184015952885E-1   -7.014400023842231E-2
 4.700000000000000E7    -8.904617877339813E-1    8.012574120500164E-2   -5.383333891566433E-4   -4.622005717232626E-4   -5.768415222146950E-4    2.373546916047964E-4    9.638630710670325E-1   -6.016252011224082E-2
 4.800000000000000E7    -9.036827801743307E-1    7.136838192516202E-2   -2.407429512815678E-4    1.533454696090471E-4   -4.739984011017852E-4    1.956595975637856E-4    9.696596819326307E-1   -6.127875893724263E-2
 4.900000000000000E7    -8.996090043833735E-1    6.759207842964031E-2   -8.635045384155864E-4   -1.816709735704294E-5   -5.674381436124850E-4   -1.999513711476746E-4    9.712329939734845E-1   -6.120005055934787E-2
 5.000000000000000E7    -8.947715330276421E-1    7.786493607544259E-2   -3.993532521545405E-4   -6.542202151986133E-4   -1.751708970502052E-4    2.755142345129690E-4    9.788261744625369E-1   -6.665636935657808E-2
 5.100000000000000E7    -8.945511089925480E-1    7.597623957835606E-2    1.594455079769775E-4   -3.084535271585610E-4   -3.720679547062361E-5    6.599542902872725E-5    9.682932588164666E-1   -7.375304976463870E-2
 5.200000000000000E7    -8.908518940102772E-1    8.344436111204367E-2    1.431227604180217E-4    4.384926531629474E-4    3.963679210837256E-5   -1.676113959482116E-5    9.681048940695255E-1   -6.596529434150544E-2
 5.300000000000000E7    -8.927630540918070E-1    8.214331907121546E-2    5.875402265834552E-4    3.058753192210098E-4    6.369170782784129E-4   -1.047199281107105E-5    9.672002516076661E-1   -6.750813260860075E-2
 5.400000000000000E7    -8.952532643058149E-1    8.249513423503382E-2    2.644724717693249E-4    7.009874977075250E-5    4.676869856304259E-4    5.527142123691482E-4    9.733732351530441E-1   -7.260720746079095E-2
 5.500000000000000E7    -8.944782339209125E-1    8.735493103539906E-2   -1.056196035579607E-3   -5.197478237338796E-4    2.871195671452227E-4    1.514806194015064E-4    9.676424416506891E-1   -7.060242641218602E-2
 5.600000000000000E7    -8.969587401036142E-1    8.604086385643782E-2    2.170755153698382E-4    3.422521698282154E-4   -6.916802761375574E-4   -1.956717337996934E-4    9.653631149833001E-1   -7.612364613220549E-2
 5.700000000000000E7    -8.928332684357936E-1    8.570315694301688E-2   -1.084483565488446E-3    2.607936061517391E-4   -2.017554782589660E-4   -4.982069093344728E-4    9.704672725497850E-1   -6.804967260871145E-2
 5.800000000000000E7    -8.895337806437000E-1    9.295289782505346E-2    6.679764887663446E-4    4.660039650949112E-4   -5.135098082465586E-4   -4.905540772424259E-4    9.733734606782249E-1   -7.697555570729904E-2
 5.900000000000000E7    -8.938675866240654E-1    8.897668587497271E-2    5.909094795561740E-5    1.048861688319917E-4   -1.169686812128215E-4    3.134829935942168E-4    9.707119677945368E-1   -7.520873429129632E-2
 6.000000000000000E7    -8.875786953779601E-1    9.353059691257644E-2   -5.948399069422828E-4   -3.408789694936465E-5   -1.956301355549411E-5    3.607188835066209E-4    9.702730430960884E-1   -8.309992476050358E-2
 6.100000000000000E7    -8.862275650293631E-1    9.075084537359071E-2   -2.177269072431060E-6   -8.918428469367612E-4    5.161338551546105E-4   -4.087158914299052E-4    9.653963917295514E-1   -8.173050519917147E-2
 6.200000000000000E7    -8.918295516642475E-1    1.004718827010706E-1    2.825435846367750E-4   -1.107064205994176E-4   -6.048219932968500E-4    3.100632103743564E-4    9.650153046668123E-1   -8.547601857087365E-2
 6.300000000000000E7    -8.912429832403058E-1    9.486732443818538E-2   -3.213715426684800E-5    1.124757462707806E-3   -2.719641400262156E-5    1.245381809626085E-4    9.662585769896044E-1   -8.371144778416774E-2
 6.400000000000000E7    -8.874208305217903E-1    9.371829726921187E-2    3.234940711901749E-4    3.060473795168680E-4   -8.386815169953043E-4    7.926752360811899E-5    9.668051224812593E-1   -9.299093360889216E-2
 6.500000000000000E7    -8.888709948489596E-1    1.019938197942845E-1    5.967040547771769E-4    8.661761980538260E-4    2.168012216115514E-4    8.885481997289050E-4    9.653557651072823E-1   -8.557290927414793E-2
 6.600000000000000E7    -8.904356645918821E-1    1.037808876390547E-1   -1.010659642594757E-4    1.992042724970211E-4    4.985115066736474E-6    9.748797352822982E-4    9.613104585554009E-1   -8.225783047721544E-2
 6.700000000000000E7    -8.916458860790810E-1    1.060995735685158E-1   -3.181922811175757E-5   -3.931442000953092E-4    7.615091362401593E-4    1.585946886852344E-4    9.654188405712829E-1   -8.731524681060684E-2
 6.800000000000000E7    -8.871625760434961E-1    1.017888412925624E-1    3.910889393931232E-4    1.488913210501114E-4    3.361208361381719E-4    4.198753356593899E-5    9.622249170267134E-1   -9.378435079028043E-2
 6.900000000000000E7    -8.910071531786479E-1    1.048929950662293E-1   -6.893551360299611E-5    1.012879036177747E-3    4.401869463891656E-5    4.982275211128748E-4    9.643004592828927E-1   -8.880649578513818E-2
 7.000000000000000E7    -8.890447411925892E-1    1.011054783402738E-1    3.474763410414710E-4    4.406524290098343E-4    2.517925856141365E-4   -1.924533815219714E-4    9.677555747689850E-1   -9.268732944723200E-2
 7.100000000000000E7    -8.879453555329818E-1    1.125874596462918E-1    3.730099869638460E-4    4.306683498413215E-4   -4.757950176352356E-4   -5.410669014799438E-4    9.633865199399532E-1   -9.236992176810745E-2
 7.200000000000000E7    -8.861030595183701E-1    1.062391035376689E-1   -9.015212910489817E-5    1.580718454631504E-4    1.723506198512821E-4    4.999227953287259E-5    9.684138565185505E-1   -9.032944504828404E-2
 7.300000000000000E7    -8.895653992530810E-1    1.077495657503199E-1    4.590232854571424E-4    5.520018262718027E-4   -6.790224607499404E-4    7.466623388542405E-4    9.615490170623925E-1   -9.326807585805946E-2
 7.400000000000000E7    -8.864977302525606E-1    1.116164759190326E-1   -3.904536392402470E-4   -5.377781003383100E-4    7.941768401971168E-4    2.472133389102026E-4    9.633100391643974E-1   -9.563648003621154E-2
 7.500000000000000E7    -8.863546589249444E-1    1.089757567464807E-1    4.343694596951871E-4   -7.800285944780836E-5   -2.809247021441981E-4   -3.329105615648085E-4    9.659013861791605E-1   -9.785673954652911E-2
 7.600000000000000E7    -8.884029873301573E-1    1.126422423820668E-1   -1.757324774238410E-4   -8.879723362852834E-5   -2.583717642333645E-4   -1.452559045089815E-5    9.674414443647626E-1   -1.031910148970298E-1
 7.700000000000000E7    -8.866225841453661E-1    1.102197315274910E-1    6.827305653479871E-4   -1.015739894137909E-4   -2.145397416464864E-4   -3.698841061558694E-4    9.666781616054899E-1   -9.248134079390483E-2
 7.800000000000000E7    -8.840995570092178E-1    1.155669860799960E-1   -3.724259365491620E-4   -1.126431648112122E-4   -1.120352318245168E-4    2.074909692523718E-4    9.622013271441585E-1   -9.879194888862119E-2
 7.900000000000000E7    -8.862199337556600E-1    1.179499232268343E-1    4.264078334053753E-4    3.024710021194417E-4   -3.332282571032102E-4   -6.192027499128294E-5    9.606380995052366E-1   -1.015611080202441E-1
 8.000000000000000E7    -8.903546429610099E-1    1.256436734693920E-1   -3.659529604792519E-6   -2.239277062380389E-4   -6.216810514524440E-4    5.855513800486570E-4    9.653747399915215E-1   -1.010556461710901E-1
 8.100000000000000E7    -8.807133352683514E-1    1.178638267824866E-1    8.008608099807323E-5   -6.148936911996455E-4   -5.060026238278558E-4   -3.262634161372219E-6    9.580933419196211E-1   -1.029504388070763E-1
 8.200000000000000E7    -8.833514517224892E-1    1.191061043786685E-1    3.629365316707050E-4   -4.703809701983511E-4   -2.184720291973118E-5    4.024540738784662E-4    9.621652195841878E-1   -9.756257043373728E-2
 8.300000000000000E7    -8.831669452324327E-1    1.192026263831915E-1    3.705182644575404E-4    2.289618891194255E-4    7.805710855807749E-4    6.556281989164776E-6    9.625563537216482E-1   -1.045497187253748E-1
 8.400000000000000E7    -8.897384118945850E-1    1.223214502728179E-1   -2.185718462550248E-4    7.211923378945553E-4    2.377529950875952E-4   -8.243351743994402E-4    9.594909181451884E-1   -1.083836220465742E-1
 8.500000000000000E7    -8.873136880678505E-1    1.245019188916167E-1    2.900124706705875E-4    6.375820363484110E-4   -1.654385778579302E-4    3.115439510826093E-4    9.565494060121295E-1   -1.100570558159952E-1
 8.600000000000000E7    -8.819416163128021E-1    1.291346365415817E-1    2.544812171227254E-4    4.659444021852109E-4    1.603931457105656E-4    1.646132565331348E-4    9.586120046233491E-1   -1.120384084093132E-1
 8.700000000000000E7    -8.818601410425126E-1    1.237775386892976E-1   -3.006546590416325E-4    1.201821777933433E-5   -2.593937161927403E-6   -1.690056881868783E-4    9.642881129564349E-1   -1.080080686150904E-1
 8.800000000000000E7    -8.819401608517579E-1    1.396803280805916E-1    7.329329618611462E-5   -2.086559923297866E-4   -3.040856791742323E-4    9.477690537594607E-4    9.602846239696220E-1   -1.083549881812931E-1
 8.900000000000000E7    -8.857924963158073E-1    1.300342162113680E-1    3.812302113311419E-4    1.477819161715255E-4    6.901518537439644E-4    7.424239867731346E-5    9.569405460056196E-1   -1.146450177957168E-1
 9.000000000000000E7    -8.860800728774122E-1    1.387330589782813E-1    2.657099972421747E-4    2.674578305199601E-4    6.430397664780477E-5   -4.997918018467544E-4    9.577230872346394E-1   -1.184159687827894E-1
 9.100000000000000E7    -8.854099544321856E-1    1.349792653087141E-1    3.149376488092455E-5   -4.380050265776186E-5   -4.293709096298179E-4   -3.193110530588966E-4    9.543510494108736E-1   -1.192809823171792E-1
