#  HZ   S   RI   R     50.00 
! Rohde & Schwarz Vector Network Analyzer 
! Rohde-Schwarz,ZNBT8-20Port,1318700624101681,3.50
! Created: UTC 7/15/2025, 2:07:21 PM
! freq[Hz]                re:S1010                im:S1010                re:S0610                im:S0610                re:S1006                im:S1006                re:S66                  im:S66
 1.000000000000000E6    -8.252774659658723E-1   -6.835579864129886E-3    1.570952882979930E-4   -1.087568168649143E-4    1.207861102068071E-4   -3.137965500066356E-4    6.772314589021329E-1    1.805278183640730E-2
 2.000000000000000E6    -8.254521374342516E-1   -8.945811592368617E-3   -1.569664033838664E-4   -6.583845051170501E-5   -2.040141193616136E-4   -5.436709635366156E-5    6.908460934359492E-1    1.169675718056259E-2
 3.000000000000000E6    -8.237843189596112E-1    6.304367038864240E-3    8.191264247644913E-5   -4.824369205216611E-5   -2.301470160428410E-4    5.829544911359554E-6    6.723586648409249E-1    8.671730567798228E-3
 4.000000000000000E6    -8.306824559354902E-1    6.988142184467700E-3   -1.740665423371994E-4    3.445310803036424E-5    2.969546067549563E-4    2.487667857316758E-4    6.811328372261549E-1    4.333911451228212E-3
 5.000000000000000E6    -8.241865166616305E-1    4.599149912002640E-3   -9.709072631180889E-5   -4.097180896119031E-5   -1.130358585759092E-4   -4.896024765887070E-5    6.785831827950901E-1    3.029032274155971E-3
 6.000000000000000E6    -8.239202096827524E-1    2.406893945828641E-2    2.811830698872790E-4    1.165725434941200E-4    1.398380055213203E-4   -1.281325988858516E-4    6.751311789597293E-1   -2.321075845732387E-3
 7.000000000000000E6    -8.298583675859291E-1    2.689507291959043E-2    1.537656261291935E-5    1.630123150164369E-4   -2.602487903063146E-4   -5.568995700117991E-5    6.773948848089359E-1   -1.414248573612813E-3
 8.000000000000000E6    -8.265576827115712E-1    2.440855282584155E-2   -3.413821653372558E-4   -7.545483229601395E-5    3.109334973227497E-4   -1.174364093004617E-4    6.796793313435535E-1   -4.529093864740511E-3
 9.000000000000000E6    -8.271942809819656E-1    3.293853234755729E-2    1.375248746227153E-4   -1.026553062216896E-4   -1.519034196329491E-4   -3.120280409876058E-4    6.808642725709708E-1   -9.946163935756152E-3
 1.000000000000000E7    -8.187020006279432E-1    4.443038508409643E-2    1.597615548934595E-4    2.114094129780865E-4    1.268342834955284E-4    2.190002037035878E-4    6.726786022936524E-1   -1.509740735258420E-2
 1.100000000000000E7    -8.195739620501841E-1    4.591783301739217E-2   -1.844552562777549E-4    8.065968738642476E-5   -2.020828357801664E-5   -3.365501216515094E-5    6.860860482739873E-1   -9.037777557762043E-3
 1.200000000000000E7    -8.136116984390014E-1    4.327706501359008E-2   -5.435713634891277E-5    1.472888180373872E-4    7.167456480785019E-5    2.107610884100624E-5    6.806991227192030E-1   -1.188667037198139E-2
 1.300000000000000E7    -8.191058361191932E-1    5.514865978865386E-2    1.341305660706097E-4   -1.805350885940704E-4    2.271811329905915E-4    8.955166016714275E-6    6.822381303897878E-1   -1.452656790522409E-2
 1.400000000000000E7    -8.242079775277680E-1    5.450577907531930E-2   -4.369477633361459E-4   -9.081794230399591E-5   -4.207201918845126E-5    1.445611838591596E-4    6.868681364023912E-1   -1.776401946654761E-2
 1.500000000000000E7    -8.238682456251620E-1    6.939415353535118E-2   -7.870018082825042E-5    2.510628644274498E-4    4.417042121595009E-6   -3.947660045600844E-5    6.796213461516923E-1   -1.636135202714669E-2
 1.600000000000000E7    -8.242400026862410E-1    6.848296953123460E-2   -1.774931210468335E-4   -1.153458646603621E-4   -5.156427456455161E-5    2.050312610209699E-5    6.817573329824200E-1   -1.731682275641567E-2
 1.700000000000000E7    -8.204185207515580E-1    7.246725720113005E-2    8.525995963635406E-5    1.148261461999763E-4    5.018028574728804E-4   -7.370243996697074E-5    6.794460387807437E-1   -1.966463541414465E-2
 1.800000000000000E7    -8.241847625136647E-1    7.263593475411899E-2   -3.157527030256665E-5    1.157556172447040E-4    1.971344147642932E-5    1.410270804338324E-5    6.781235565198601E-1   -1.725680300343036E-2
 1.900000000000000E7    -8.218410142413672E-1    7.724951029336496E-2    4.834956291009431E-5    7.911690318675694E-6   -3.944564647018500E-4   -1.670173225525096E-4    6.799014723957209E-1   -2.549855490479914E-2
 2.000000000000000E7    -8.248315937529785E-1    8.872681478220236E-2    3.658278825615899E-4   -1.228111282033199E-4    9.034682138308041E-5   -1.125865108233555E-4    6.790836696750400E-1   -2.038871093145039E-2
 2.100000000000000E7    -8.169630405888554E-1    8.952842140567163E-2   -3.755455617625918E-5   -1.652511451261839E-4    1.500886356201376E-4   -8.480126335409553E-5    6.813979204938719E-1   -1.788677371439729E-2
 2.200000000000000E7    -8.217304474753315E-1    8.975373540771885E-2    5.165134086907388E-5    3.808464201350063E-6    4.430621363235826E-5   -1.035134322534787E-4    6.803974006345147E-1   -3.423987064973075E-2
 2.300000000000000E7    -8.169252796607795E-1    8.956729807100565E-2    7.835144450879798E-5    6.266691930703878E-5    2.391601092327266E-4   -3.887809255593509E-4    6.774476999046650E-1   -2.569071565487180E-2
 2.400000000000000E7    -8.085006532201401E-1    1.089955120225040E-1    1.634539643315138E-4    2.692310808583980E-5   -9.137826223484799E-5    3.189436029385540E-5    6.710354994278622E-1   -2.723606819435759E-2
 2.500000000000000E7    -8.120903358475572E-1    1.079726180694822E-1    1.816437794614634E-4    2.063028619687564E-4   -4.286736115962523E-5   -1.545958481140055E-4    6.858424683961110E-1   -3.336823690712674E-2
 2.600000000000000E7    -8.148041602494323E-1    1.035123293867872E-1   -3.485780704536196E-4    3.205325218196386E-4   -5.656836608264794E-5   -3.510674543547371E-4    6.799169712596781E-1   -3.288667183410494E-2
 2.700000000000000E7    -8.189009333625682E-1    1.122274331775592E-1    2.845774680710825E-4    1.747957203094365E-4   -4.270604363710535E-4   -5.652132758531648E-4    6.761995733953990E-1   -3.449874216701847E-2
 2.800000000000000E7    -8.069004623944949E-1    1.149514425455269E-1    2.488796542137181E-4    4.129768997025107E-4    1.118238159161747E-5   -1.554187705848451E-4    6.826216138494033E-1   -3.055243158545499E-2
 2.900000000000000E7    -8.109489453675945E-1    1.185387168004319E-1   -8.204305718123876E-5   -6.332399549140291E-5   -3.215063423089483E-4    2.873281283952041E-4    6.784548403159408E-1   -3.254035739221948E-2
 3.000000000000000E7    -8.139086664556968E-1    1.244377910770816E-1    9.372266348302642E-5   -3.359765267943894E-4   -1.201318747640473E-4    1.209652374988505E-4    6.764831468312898E-1   -3.226912490909832E-2
 3.100000000000000E7    -8.123410804702299E-1    1.207496286945418E-1   -1.422722218738111E-4   -5.438298126104908E-4    2.382691888430690E-4    3.370468278921724E-4    6.790023472661739E-1   -3.650546836548703E-2
 3.200000000000000E7    -8.176877918518288E-1    1.249715760035716E-1    6.081942930675184E-4   -2.457331060926511E-4   -1.830966032960646E-4   -1.313210387122210E-4    6.815201514138677E-1   -4.036267953689989E-2
 3.300000000000000E7    -8.101447861707338E-1    1.310933312698101E-1    1.833565961297886E-4   -5.891825995891766E-4    1.277126909178976E-5   -1.493625854524608E-4    6.758964610459285E-1   -3.799383359404889E-2
 3.400000000000000E7    -8.116379186569870E-1    1.396066061918923E-1   -2.829059809595620E-4    3.883194112231276E-4    1.182006442529591E-4   -1.784948708067315E-4    6.786862648552093E-1   -3.850652487962550E-2
 3.500000000000000E7    -8.102875556732826E-1    1.466552376376841E-1    1.821517225446241E-4    6.002497584813600E-4    1.153583934008780E-4    3.732171002557971E-4    6.758490251542107E-1   -3.841951649539332E-2
 3.600000000000000E7    -8.069927518726540E-1    1.502972024357973E-1    1.603162467074278E-4    3.595933310313833E-4    7.820757573291575E-5   -7.265095973236965E-4    6.813533779575504E-1   -3.667310681415129E-2
 3.700000000000000E7    -8.109417528459232E-1    1.496511207791558E-1    4.726248257933823E-4   -4.342166516549967E-4    6.343694140882065E-4    2.617689326766257E-4    6.788647514972319E-1   -3.609959252487407E-2
 3.800000000000000E7    -8.054060854957968E-1    1.487775203194268E-1    1.627475790155770E-4   -7.894095614452482E-4    2.872611397704322E-4    2.113421235444621E-4    6.764300707807829E-1   -3.763226070027596E-2
 3.900000000000000E7    -8.090119258903924E-1    1.581175226251994E-1    1.064407094712318E-4    6.887740324117274E-5   -2.807279025606316E-4    2.220517322897801E-4    6.794503444467742E-1   -4.508276261982358E-2
 4.000000000000000E7    -8.055199394504435E-1    1.628470755565466E-1    8.599682723771602E-4    3.160016421845617E-4    7.653423743728532E-4   -2.125175114673075E-4    6.743631120817567E-1   -4.422707878832858E-2
 4.100000000000000E7    -8.039799045130456E-1    1.639667754079019E-1   -2.869157382833705E-4    5.033208159980139E-4   -5.167322085735834E-5   -4.437555293990981E-4    6.740636972346369E-1   -4.617780801256723E-2
 4.200000000000000E7    -8.076588232059499E-1    1.694438338404786E-1   -1.333399261545781E-4   -3.784803842793203E-4    6.028576944745568E-4   -7.002858216065282E-4    6.707362863659320E-1   -4.881073280909937E-2
 4.300000000000000E7    -8.027681652958254E-1    1.754193148064065E-1   -7.256896674229088E-4   -1.689535540830361E-4    3.786505324543192E-4    9.352955700679848E-5    6.727525732967117E-1   -5.198543073736508E-2
 4.400000000000000E7    -8.001936435082794E-1    1.817215336509943E-1   -8.539666061188360E-5   -2.330255799426240E-4   -1.752804445664303E-4    4.325086826939252E-5    6.699879865640769E-1   -4.578306360686928E-2
 4.500000000000000E7    -8.080844762325872E-1    1.779601335255630E-1    4.813713163853684E-4   -1.539782995085030E-5   -2.316833159783820E-4    2.940722334575050E-4    6.748989870616214E-1   -4.970898636487369E-2
 4.600000000000000E7    -7.970247948202770E-1    1.887055533371637E-1   -5.451202596227912E-4   -2.716449417334466E-4   -3.132349885951887E-4    2.041592430731068E-4    6.747753520801730E-1   -5.171273540489875E-2
 4.700000000000000E7    -7.957489811066428E-1    1.891230336379237E-1    1.743277582313754E-4   -3.613062442891663E-4    3.277258337806098E-5    1.842112835922478E-5    6.694167324105528E-1   -5.512888294046241E-2
 4.800000000000000E7    -7.984299594452018E-1    1.922807382448645E-1   -1.126568277138375E-4    5.700892233923469E-5    2.003584177217256E-4    3.224526179678793E-4    6.768795508408108E-1   -5.037702373440201E-2
 4.900000000000000E7    -8.037485952179583E-1    1.948550711842304E-1   -1.200937171772909E-4    2.470687911792451E-4    3.530004137595803E-4    1.640681632524921E-4    6.696126411187078E-1   -5.281669830737684E-2
 5.000000000000000E7    -8.023052490057136E-1    2.048701647591486E-1   -5.222523264608842E-4   -1.814867598166711E-4    4.062422943331643E-4   -2.972653465680368E-4    6.739298287204568E-1   -5.508491558805449E-2
 5.100000000000000E7    -7.946623656062898E-1    2.057742988790001E-1   -1.585808458679108E-4    5.483466308433933E-4    9.131614969406235E-5   -1.219916828251115E-4    6.722894574209369E-1   -5.732962517141282E-2
 5.200000000000000E7    -7.954719245726914E-1    2.052502828697453E-1   -3.985236088065509E-4    2.215585360248282E-4   -1.638155323902318E-4    2.668503266969763E-4    6.695695244061868E-1   -6.112015469353041E-2
 5.300000000000000E7    -7.926139367026396E-1    2.140370803590611E-1    7.600792354584610E-4    2.952808972516012E-4    6.251923156485353E-4    3.121008377211403E-4    6.714437511777019E-1   -6.324075591883771E-2
 5.400000000000000E7    -7.914355326234066E-1    2.204245382255932E-1    5.153656129110894E-4    2.005252634918387E-4    7.389911771948599E-5   -2.794853183133069E-4    6.737358909450242E-1   -5.741776513195913E-2
 5.500000000000000E7    -7.946703394879073E-1    2.239198890163480E-1   -1.151842780722418E-4   -9.228001636821455E-5    2.928154834961708E-4   -1.609051938298057E-4    6.734218728384834E-1   -6.345461585020794E-2
 5.600000000000000E7    -7.887253345517466E-1    2.259490593917868E-1    1.738353152857453E-4    6.301170481321286E-4   -8.603286579106686E-4    3.186212485258827E-4    6.731440580639094E-1   -6.466031151499949E-2
 5.700000000000000E7    -7.851809656417486E-1    2.265668939136093E-1   -5.488787096586287E-4   -2.299875107484458E-5   -6.435503276994058E-4    5.515593406914748E-4    6.689515751352799E-1   -6.588768223255473E-2
 5.800000000000000E7    -7.881252682749006E-1    2.300928537983414E-1    4.426020626494195E-4    2.392700815208153E-4    1.451366304863442E-4    4.233510681175996E-4    6.713355484462644E-1   -6.319883707784864E-2
 5.900000000000000E7    -7.842434342564732E-1    2.384537503009413E-1    3.231643674814663E-4   -3.269647853899494E-4   -4.897423071652716E-4    1.098295473819829E-4    6.719492331475145E-1   -6.497562682314427E-2
 6.000000000000000E7    -7.827885351173614E-1    2.376435240392575E-1    2.016931421794247E-4    3.674586867651468E-4   -5.673835941581373E-4    5.074916065387330E-6    6.701397977381075E-1   -6.314206398348148E-2
 6.100000000000000E7    -7.733070566548926E-1    2.407592953830554E-1   -3.529949446814972E-5    1.494570341027756E-4   -4.594037010066214E-5    3.757694462504876E-4    6.753101303019898E-1   -6.690879288694927E-2
 6.200000000000000E7    -7.827064869673878E-1    2.514455483301028E-1    1.193329230062640E-4    1.467516340356454E-4   -8.384479109167777E-5    7.332576845118247E-5    6.657010321975457E-1   -6.523522023058459E-2
 6.300000000000000E7    -7.768886249010034E-1    2.525533893165743E-1    1.121251611185051E-4    1.202407724706288E-4    4.592240878904059E-4    3.333796873312904E-4    6.723793354489656E-1   -6.963132359006942E-2
 6.400000000000000E7    -7.745004983554926E-1    2.492280982905523E-1    7.324878990481295E-4    6.536978815503065E-5   -1.504089680072478E-4    3.424226569087445E-4    6.737023908278859E-1   -6.929014438118056E-2
 6.500000000000000E7    -7.766116047813576E-1    2.637007311759816E-1   -4.265121177936106E-4   -2.246224960183247E-4    3.323386984502201E-5    4.133606121562806E-4    6.697514031294152E-1   -6.584429158662440E-2
 6.600000000000000E7    -7.771146984478045E-1    2.589164527429363E-1    5.079221745357371E-5    1.071204903170602E-4    2.712018218091843E-4    1.658882745889065E-4    6.674085671636996E-1   -7.116205494657170E-2
 6.700000000000000E7    -7.723375340672676E-1    2.639147427451913E-1   -4.800262216907212E-5   -1.392757630784158E-4    2.636912732107923E-4   -2.903930557401652E-4    6.712569884280841E-1   -7.546962696801920E-2
 6.800000000000000E7    -7.694139244956499E-1    2.697641217115796E-1   -2.523679658502370E-4   -2.441169411620541E-4   -3.080554030894708E-4    1.313546221536903E-4    6.689657299627982E-1   -7.595941535297442E-2
 6.900000000000000E7    -7.732172157216970E-1    2.719496739296660E-1    4.700471579556841E-4   -2.499140707917152E-4    3.438812910033118E-4    5.132761493117400E-4    6.650683467209787E-1   -7.905807655807000E-2
 7.000000000000000E7    -7.676160729157215E-1    2.689332943489853E-1    3.593382925706285E-4   -4.476820332071282E-4    2.422182836994129E-4    3.633774458989710E-4    6.724815141007225E-1   -8.004717770323243E-2
 7.100000000000000E7    -7.649899135938736E-1    2.815780829066071E-1   -3.734506808691944E-4   -3.139689756793887E-4   -6.591761325989560E-5    3.274389891985296E-4    6.706819910899305E-1   -7.830529879885402E-2
 7.200000000000000E7    -7.580489144527398E-1    2.882156628522144E-1   -7.428165766448579E-5   -2.644091494004204E-5   -1.806309748003561E-4   -2.745804751444014E-4    6.657920327174716E-1   -8.010952643528578E-2
 7.300000000000000E7    -7.603753446735474E-1    2.892920479705318E-1    3.641076558440853E-4    1.472011575004516E-4   -2.157841784365854E-4    1.994616644544696E-4    6.669574319020481E-1   -8.167862817204692E-2
 7.400000000000000E7    -7.592718383745708E-1    2.900534838145942E-1    2.359564801268433E-4   -3.751411930620809E-5   -4.195000923778433E-4    8.586728930663812E-5    6.678621272593499E-1   -8.021606569962045E-2
 7.500000000000000E7    -7.590924304307847E-1    2.919675797323146E-1    9.471377372033874E-4   -3.179729848659208E-4    7.023834808993954E-5   -6.503361866608100E-4    6.660735220666623E-1   -8.316937812140227E-2
 7.600000000000000E7    -7.594127957666071E-1    3.029232214634060E-1   -2.991700041120647E-4    4.486801398919475E-4    5.219653395583868E-4    5.507738152451728E-4    6.723999898280665E-1   -7.813252605456653E-2
 7.700000000000000E7    -7.534166598670758E-1    3.001925947757256E-1    8.383998467373495E-4   -2.871401990197760E-5   -1.927351402344115E-4   -3.316905401685191E-4    6.657977744148479E-1   -8.571421861378553E-2
 7.800000000000000E7    -7.554690074388066E-1    3.062253425019064E-1    2.511597572869230E-4    2.321976738702584E-4   -7.485350099588926E-4   -6.704193193345499E-4    6.681207268347729E-1   -9.062474819923390E-2
 7.900000000000000E7    -7.546711937912555E-1    3.047916887255282E-1   -2.705986815800677E-5    3.468410184540217E-4    8.146292873230760E-5   -8.935400565535223E-5    6.652373092456378E-1   -8.367767019837066E-2
 8.000000000000000E7    -7.521208695910555E-1    3.109277115799636E-1    1.191243926785534E-4   -3.255679257093400E-5   -4.719333574489873E-4    5.248807083314688E-4    6.697586520593728E-1   -8.759636799177099E-2
 8.100000000000000E7    -7.481582440518934E-1    3.149194859222134E-1    2.911816229576279E-4    6.222247972390606E-4    4.142211434423088E-4    2.601067464973862E-4    6.633933554136429E-1   -8.937311837004880E-2
 8.200000000000000E7    -7.499649696038782E-1    3.152797206267322E-1   -2.380575749151244E-4    3.830372307672240E-4    4.089929287622837E-4    6.936951826264579E-4    6.671176416197742E-1   -8.908012630301557E-2
 8.300000000000000E7    -7.430220833862127E-1    3.183366777810968E-1    1.049801872808728E-4   -2.253204153886943E-4   -2.397378778502796E-4   -4.073888420460705E-5    6.683987045605342E-1   -8.974645872362787E-2
 8.400000000000000E7    -7.431885996063072E-1    3.251596858284830E-1   -1.602665954357955E-4   -2.029509908687500E-4    3.872534702123400E-5    1.324073428456382E-5    6.681446264337413E-1   -8.955116800703657E-2
 8.500000000000000E7    -7.457769381424195E-1    3.262589130979806E-1    3.825695926222240E-5    4.033986362769894E-4   -6.313467799847492E-4   -2.789481817906939E-4    6.657908148012138E-1   -9.086785447990187E-2
 8.600000000000000E7    -7.367853201483042E-1    3.394212428257181E-1   -6.319442394900564E-4    3.768396206725611E-4   -1.191298251678064E-3   -2.838699370273321E-4    6.679965692722799E-1   -9.388170671541324E-2
 8.700000000000000E7    -7.390995902730204E-1    3.427283591020678E-1    5.247712680601720E-4   -4.205807800524070E-4    1.609834297130410E-4   -4.526220768020299E-4    6.687547511622379E-1   -9.139970673505311E-2
 8.800000000000000E7    -7.331240875740945E-1    3.425801576788429E-1   -4.201706531148973E-4    1.842156435270838E-4   -7.423437083823465E-4    4.931023397717471E-4    6.657061736128455E-1   -9.668682342724387E-2
 8.900000000000000E7    -7.384131189147528E-1    3.434339977817139E-1   -1.679914382215877E-4    1.305926028722092E-4    3.558765116231161E-4    1.699194358618455E-4    6.642494145158081E-1   -9.488634607458468E-2
 9.000000000000000E7    -7.307690745260224E-1    3.549542336548013E-1   -3.354121407708072E-5   -2.285939641236874E-4    3.039542888405386E-4   -3.084595919034309E-4    6.679081338533059E-1   -1.027480970944501E-1
 9.100000000000000E7    -7.279198956305160E-1    3.561094971301341E-1   -2.950427193386607E-4    3.616392145980922E-4    1.976428243575095E-5   -4.326485998697684E-5    6.677027693955875E-1   -1.006740041690706E-1
