#  HZ   S   RI   R     50.00 
! Rohde & Schwarz Vector Network Analyzer 
! Rohde-Schwarz,ZNBT8-20Port,1318700624101681,3.50
! Created: UTC 7/15/2025, 2:09:18 PM
! freq[Hz]                re:S1010                im:S1010                re:S0410                im:S0410                re:S1004                im:S1004                re:S44                  im:S44
 1.000000000000000E6    -8.295844601620178E-1   -1.978201136706043E-3    2.834735930060472E-4   -1.378841383312061E-4    1.082364202723064E-4   -1.955981343920311E-4    5.629417180350694E-1    9.412991487188552E-3
 2.000000000000000E6    -8.250883355618287E-1   -4.872868621338081E-3    3.168116141729446E-6    1.935437615498510E-4   -4.454036904831176E-5    6.151590701069379E-5    5.564275333989837E-1    7.069888332242838E-3
 3.000000000000000E6    -8.263005583462362E-1    2.413520901350659E-3   -3.323500787918647E-4    1.237951743115491E-4    8.859049363731206E-5   -4.724467280779678E-5    5.667713199628378E-1   -1.309572418184068E-3
 4.000000000000000E6    -8.281714663330813E-1    4.182428708270543E-3    1.101535980886649E-4    3.073117690164685E-4   -4.494525255706354E-4   -6.604874950008224E-6    5.587054266615190E-1    2.880134099683639E-3
 5.000000000000000E6    -8.170290523841177E-1    1.622686449510562E-2    1.054082737264552E-4    1.364902198045124E-5   -7.186361044932909E-5   -2.948089325001069E-4    5.604695148398061E-1    1.222757510923982E-3
 6.000000000000000E6    -8.207674935378638E-1    2.262727395917092E-2   -3.741332810704841E-5   -3.781605809716751E-4   -1.814788546096476E-4    1.078796014494680E-4    5.611734052293273E-1    3.744947266560833E-3
 7.000000000000000E6    -8.267711437949830E-1    2.619729325389548E-2   -1.843179547037386E-4    3.027387929326034E-4   -2.440288362588213E-4    2.521990479466562E-4    5.619242053090385E-1   -1.375865904659642E-3
 8.000000000000000E6    -8.184185858933417E-1    2.364125153402541E-2   -5.018787027729555E-5   -4.645770365935897E-4    2.403957013231181E-4   -2.987834224320718E-4    5.590869899239054E-1   -3.235577865874651E-3
 9.000000000000000E6    -8.243772113078653E-1    3.481243264339184E-2    1.462178426130755E-4   -9.568732346632026E-5   -1.877405139008777E-5   -2.180038665300057E-4    5.606966053010286E-1   -3.171808039534931E-3
 1.000000000000000E7    -8.198882274334538E-1    4.393903062680095E-2   -2.839426081629569E-4    3.284631731165973E-5   -3.704057408440135E-5   -9.947299519537153E-5    5.582557071359450E-1   -1.110726632922786E-2
 1.100000000000000E7    -8.138357877228548E-1    5.146825793931318E-2    5.178986107200102E-5    1.160091162522482E-5    5.326436050802100E-5   -3.624145878285882E-4    5.551592600430908E-1   -9.375837420203523E-3
 1.200000000000000E7    -8.276076515966375E-1    4.304422588853796E-2    1.034611680864347E-4    1.062413837365103E-4   -2.838169519711906E-4    2.531395360635295E-4    5.577608036283997E-1   -9.920970018833089E-3
 1.300000000000000E7    -8.247110665318177E-1    5.665863271721263E-2   -5.389947215998431E-5    1.298753587677253E-4   -2.332579797641641E-4   -6.224504151703265E-4    5.541135770193814E-1   -7.784003529467702E-3
 1.400000000000000E7    -8.286722276442602E-1    5.631480613981688E-2   -1.918196478433892E-5    2.733913688284068E-4   -9.217394789740931E-5    3.701369924881067E-4    5.598005469636205E-1   -1.353208407547286E-2
 1.500000000000000E7    -8.216614780632102E-1    6.595939449908497E-2   -5.682932863205525E-5    1.775020868522281E-4    1.079295959816986E-4    7.777076010567116E-5    5.607037620365005E-1   -1.104773386649315E-2
 1.600000000000000E7    -8.276288431572348E-1    6.582893812712924E-2   -2.032543560683208E-4   -1.269601716894558E-4    1.149359761427155E-4    1.941726888207528E-4    5.553986042889009E-1   -1.238557499472696E-2
 1.700000000000000E7    -8.291800541929336E-1    7.518724328005415E-2   -3.427078812980063E-5   -4.560307718605922E-5    2.721403073519425E-4    7.741136796689980E-5    5.604902326438508E-1   -1.662017971010930E-2
 1.800000000000000E7    -8.218632517889081E-1    7.720948697152540E-2   -1.792363106247904E-5   -1.827248041663176E-4   -8.197155497534470E-5   -6.751605366798353E-6    5.579707545936151E-1   -2.198359783640122E-2
 1.900000000000000E7    -8.204925980454870E-1    7.734661702882883E-2   -2.963696832569284E-5   -3.084780735867743E-4    4.078957078120489E-5    3.228547589810323E-5    5.601786762750119E-1   -1.058860997573588E-2
 2.000000000000000E7    -8.179035888414422E-1    8.000007958669220E-2    2.048087035166586E-7   -3.025857591779470E-4    3.962288427853375E-5    1.763892974925664E-4    5.656943302694927E-1   -1.767174918048322E-2
 2.100000000000000E7    -8.233766582606167E-1    9.222077203781440E-2   -3.979619242221253E-5    3.011216623952200E-5   -2.052476701162948E-4    6.963022660898279E-5    5.553422039950097E-1   -2.416099842341430E-2
 2.200000000000000E7    -8.167151978790230E-1    8.985869709167200E-2    1.158469396677331E-4    7.706898742093644E-5    2.464247324693427E-4    7.964550310801033E-5    5.609612041435118E-1   -2.251581400450682E-2
 2.300000000000000E7    -8.199426210532649E-1    9.686908170401740E-2   -4.701298177687103E-6    1.491165098274913E-4   -3.079945706378512E-5    2.578656769548630E-4    5.531873110217845E-1   -1.864264814279423E-2
 2.400000000000000E7    -8.225022184783566E-1    1.011522268471019E-1   -4.675308401604053E-5   -3.767872753823499E-5    1.235026873784497E-4   -2.909705867500074E-4    5.622907033097513E-1   -1.103498011246656E-2
 2.500000000000000E7    -7.992348749387488E-1    1.088633974679464E-1    3.314433720456594E-4    1.945078875234900E-4    2.061363179113380E-5    3.452799082418856E-5    5.548563653766569E-1   -2.740688263908184E-2
 2.600000000000000E7    -8.199539248356090E-1    1.055977934448005E-1    8.021668922858199E-4   -5.280722568179866E-5   -9.499019216109565E-5    8.808341350321984E-4    5.609635126193644E-1   -2.236142818871489E-2
 2.700000000000000E7    -8.207459763738484E-1    1.145301061705908E-1    2.153037221826524E-4   -3.396535316030969E-4   -1.056179117413334E-3   -3.684042852219308E-4    5.603482074455493E-1   -2.453438648909005E-2
 2.800000000000000E7    -8.169804639860422E-1    1.203432967538170E-1   -6.373527063617721E-4    9.981978593760140E-5   -4.726649862541766E-4   -2.934084307490112E-4    5.587535491443598E-1   -2.658468076357172E-2
 2.900000000000000E7    -8.122005239207752E-1    1.230682207191963E-1    3.128891903549401E-4   -1.037642509503115E-4    2.118776160200298E-4   -4.051087346329129E-4    5.602705772727595E-1   -2.302049464950519E-2
 3.000000000000000E7    -8.187694742085980E-1    1.261137301604197E-1    1.221955259999337E-4   -4.122801704085328E-4   -1.786980680546106E-4    3.811991310035283E-4    5.577875925393022E-1   -2.750235758973846E-2
 3.100000000000000E7    -8.122088873165555E-1    1.257847149394044E-1    2.132117366712381E-4    4.376695073515510E-4    3.376401670824877E-5    4.035513346316757E-4    5.562605160225288E-1   -2.714290355190302E-2
 3.200000000000000E7    -8.117805639900598E-1    1.282948468866907E-1   -6.246040154659360E-4   -9.708265145193966E-5    3.360119938470447E-4    3.206830114045455E-4    5.556411128748752E-1   -3.370665036926038E-2
 3.300000000000000E7    -8.103308426776685E-1    1.368666106436147E-1    3.117115289087938E-4   -7.253073431514626E-4   -2.936491269774618E-4    3.634982280981832E-4    5.568580527871702E-1   -3.001276226453251E-2
 3.400000000000000E7    -8.098342854009080E-1    1.371989625463103E-1   -1.346604993203460E-4   -1.081869488857086E-5   -2.359846856796623E-4   -2.582444297139992E-4    5.610271024000332E-1   -2.949840661419566E-2
 3.500000000000000E7    -8.068765850910387E-1    1.416369007682379E-1    1.590525655869616E-4   -1.340642913867048E-4   -6.068348638650815E-5   -7.333402290577434E-4    5.594424352716005E-1   -2.940832524928863E-2
 3.600000000000000E7    -8.139643378985771E-1    1.504961346497933E-1    3.941313893338827E-4   -1.683350320736458E-4   -1.266776701218030E-4    1.388458568044591E-4    5.564640916323680E-1   -3.162870339655977E-2
 3.700000000000000E7    -8.139495744755387E-1    1.496750805248687E-1    2.631982611036710E-4   -4.945298478577667E-4    5.621482237850610E-4    2.462047742454429E-4    5.564039924900199E-1   -3.689046148778586E-2
 3.800000000000000E7    -8.099507208182689E-1    1.539339769982471E-1    2.074455113029832E-4   -2.885804078324792E-4   -3.686630866441075E-4    4.548182340525512E-4    5.605601274725079E-1   -3.454536889882687E-2
 3.900000000000000E7    -8.095406510021207E-1    1.648120930766134E-1   -1.236171904776136E-4    1.832625142499895E-4    7.412733018849000E-5   -4.085137161788735E-4    5.524430508129557E-1   -3.428413554887320E-2
 4.000000000000000E7    -8.074318130501659E-1    1.657431330361067E-1    2.745228728263211E-5    2.381879779482431E-4    4.294749731219480E-4   -7.245430422914670E-4    5.603786779161871E-1   -3.718673259486133E-2
 4.100000000000000E7    -8.093201033992665E-1    1.684196486467089E-1    1.982139635000540E-4   -5.541934972858029E-4    4.807432905334247E-4    2.110901840083663E-4    5.571131969895718E-1   -3.254751056423901E-2
 4.200000000000000E7    -8.076025577793031E-1    1.692237414161697E-1    2.092384966028272E-4   -2.315553852002176E-4   -1.393256436081897E-3   -1.502214211180782E-4    5.555861820859432E-1   -3.253997834764365E-2
 4.300000000000000E7    -7.968851485294578E-1    1.739007676613344E-1   -2.022011086395783E-4    2.748697840353691E-4    5.137039399780186E-4    3.464074670300117E-4    5.524062790355326E-1   -3.631567267925676E-2
 4.400000000000000E7    -7.995600940843672E-1    1.732282214452414E-1    6.689877270992587E-4   -1.597795729035976E-4   -1.098283283709466E-4   -6.258776973617547E-4    5.627098218886363E-1   -4.327916492286521E-2
 4.500000000000000E7    -8.027291501777094E-1    1.794809926168172E-1   -6.062136420208050E-4   -1.521097733830425E-4    7.133831178241416E-4    3.198764206010753E-4    5.555712131256084E-1   -3.844040212866797E-2
 4.600000000000000E7    -7.977108272968007E-1    1.888449176237885E-1    4.002389672175083E-4    4.415426444873534E-5   -1.146375054925523E-4   -4.081993827173399E-5    5.556462633499700E-1   -3.540447378289012E-2
 4.700000000000000E7    -7.973978412512064E-1    1.927141393071511E-1    9.292614889996553E-5    6.270340648538751E-4   -1.214952704639399E-4   -8.217587350620498E-5    5.575840644585260E-1   -4.209752303049612E-2
 4.800000000000000E7    -7.999005313332749E-1    1.892852067576698E-1   -5.970383898531150E-4   -7.322029515634829E-4    5.070166000291969E-4    8.166291711297805E-4    5.604763879209966E-1   -4.010872263533789E-2
 4.900000000000000E7    -7.944859561307835E-1    1.970376021084078E-1   -3.779891016766887E-4    8.355780424684108E-5   -2.645919309461827E-5   -3.159993462221073E-4    5.539815499356985E-1   -4.263437638464451E-2
 5.000000000000000E7    -7.975695062526568E-1    2.072239096959249E-1    4.993279525065194E-4    1.688006583162645E-4    5.066091371723220E-4    9.897230336321210E-4    5.576234653067600E-1   -3.901867266020694E-2
 5.100000000000000E7    -7.887945603370798E-1    2.056298604988279E-1   -2.415232209701668E-4   -7.542329487982828E-5    9.916799624214579E-5   -3.031374092889998E-4    5.574232229010901E-1   -4.115336300880717E-2
 5.200000000000000E7    -7.937366931360755E-1    2.142018213523946E-1    3.022532787132848E-5    4.481228265740888E-4   -2.707566022035334E-4   -6.901412258118329E-4    5.488562205570200E-1   -4.496062802626370E-2
 5.300000000000000E7    -7.932842952195223E-1    2.107389077485091E-1   -3.427245049430011E-4    1.667885674453958E-4    1.660122415594361E-4   -4.257861665142438E-4    5.548390672727859E-1   -4.772293547057770E-2
 5.400000000000000E7    -7.895410369725852E-1    2.184444960421947E-1   -3.592182701495345E-4    1.170858004667182E-4   -1.855600260385067E-4   -3.729149239713068E-4    5.532796647771656E-1   -4.255123884761918E-2
 5.500000000000000E7    -7.885999959788704E-1    2.193655771960508E-1   -2.184238128347228E-4    6.544517605104756E-4    4.313151019269092E-4    7.149818391661696E-4    5.571021588534937E-1   -5.150003283880148E-2
 5.600000000000000E7    -7.864521044737740E-1    2.263499842178994E-1   -7.329287644574382E-5    1.760542208026311E-5    6.288542782878684E-4    1.823989857172779E-4    5.577764829589911E-1   -4.946620015834145E-2
 5.700000000000000E7    -7.841454443722643E-1    2.261476813460794E-1   -3.042403199465794E-4    4.029659335464548E-5    7.836634776300569E-4   -5.909915758205211E-5    5.547362322753544E-1   -5.478455972820498E-2
 5.800000000000000E7    -7.822936276498758E-1    2.292887790467052E-1   -2.136093500268000E-4   -2.721676763176005E-4   -2.534460525035013E-4    3.572342440902365E-4    5.509613731272396E-1   -4.658918489732339E-2
 5.900000000000000E7    -7.873778816673779E-1    2.369961383368561E-1   -4.168624786732078E-5    3.968634169004764E-4   -2.713548577252624E-4   -8.868135709506824E-4    5.550129052468220E-1   -5.103253895980453E-2
 6.000000000000000E7    -7.836985952635440E-1    2.380586186745988E-1    3.955168533417680E-4    5.434112863263653E-4    2.356751343688213E-4   -4.179721521572473E-4    5.570942594900486E-1   -5.320875768557277E-2
 6.100000000000000E7    -7.787987371735596E-1    2.449458822264690E-1    3.005240911806921E-4   -6.173130595228417E-5   -7.824229678714407E-4   -2.464864548084194E-4    5.530115364158836E-1   -5.461352766412284E-2
 6.200000000000000E7    -7.784791738302045E-1    2.496622443475378E-1    2.496079793508209E-5   -2.835566124295740E-4    2.552634061404205E-4    7.173914101777986E-5    5.539220618349678E-1   -5.142178425656879E-2
 6.300000000000000E7    -7.830378730571632E-1    2.520365321976363E-1    6.250999054697071E-5    6.502634685513857E-4   -1.754384650343934E-4    5.364964520601559E-4    5.503567019272956E-1   -5.435771479971207E-2
 6.400000000000000E7    -7.775958967198272E-1    2.558802602054929E-1    1.678930725461855E-5   -1.084365021941032E-4    1.602330935846832E-4    4.776875989349736E-4    5.546262670732114E-1   -5.109764192441080E-2
 6.500000000000000E7    -7.692435623555554E-1    2.648037465830252E-1    5.257608772011844E-4    2.738045331694522E-4   -3.466199137548451E-4    3.122361611172026E-4    5.569493922383039E-1   -5.391000488052487E-2
 6.600000000000000E7    -7.736216143112929E-1    2.612120465438790E-1   -4.835558206798763E-4   -3.717065134482389E-4   -1.016244002512427E-4    1.690191345930197E-4    5.524244766616963E-1   -5.646818352852333E-2
 6.700000000000000E7    -7.736595612093687E-1    2.663268944518285E-1    4.111634491424242E-4   -5.105492872919248E-5    3.134303965522747E-4   -5.803429605200963E-4    5.536172113676608E-1   -5.857843052041095E-2
 6.800000000000000E7    -7.708270063942543E-1    2.662088205575086E-1    1.217538803386817E-4   -6.815551756723206E-4   -3.851538894718021E-5    2.649238046668071E-4    5.498075669221874E-1   -5.249048900574450E-2
 6.900000000000000E7    -7.698499599864440E-1    2.697679822561508E-1    3.316493868024016E-5   -2.193727913369296E-5   -2.917258930763217E-4   -3.754973600360565E-4    5.550262669472681E-1   -5.923397504114709E-2
 7.000000000000000E7    -7.704748799809803E-1    2.768538211752771E-1   -7.275260728773540E-5    6.238028386080388E-5   -3.408226137381592E-4    2.593230085017819E-4    5.568759813184888E-1   -5.986400504965821E-2
 7.100000000000000E7    -7.681860919873258E-1    2.815083384511180E-1   -1.235387905684337E-5    2.438889125580047E-4    5.501871551606061E-4   -8.204030403159849E-4    5.521281464627047E-1   -5.620705334881926E-2
 7.200000000000000E7    -7.654134750533406E-1    2.849269170973046E-1   -2.149118334918409E-4   -1.932454273340695E-4    2.477653845843671E-4    5.481612529686139E-5    5.523343148597563E-1   -6.224573919887399E-2
 7.300000000000000E7    -7.660235457240739E-1    2.867723595625278E-1   -2.094043865839278E-4   -1.401395074888208E-4   -3.046052535138541E-4    2.111153255552001E-4    5.532195179801089E-1   -5.957337026272575E-2
 7.400000000000000E7    -7.609869215153946E-1    2.883124369679402E-1   -2.828015836125474E-4   -3.983728736380214E-5   -2.379944597992208E-4    4.341233599665859E-4    5.537060555752855E-1   -6.264754033550241E-2
 7.500000000000000E7    -7.586756129052299E-1    2.919113958548601E-1   -6.547430685597903E-4    4.325082116749504E-4   -5.649886834969788E-4   -6.676358524982744E-4    5.499867999767420E-1   -6.528874994297643E-2
 7.600000000000000E7    -7.553251744566146E-1    3.003268667419566E-1   -2.948958388535481E-4   -1.128845872433235E-5    3.151661525577734E-4   -4.467606118553517E-4    5.528102692141078E-1   -6.922946992083817E-2
 7.700000000000000E7    -7.553194034568282E-1    2.997566211313822E-1   -2.572990481659785E-4    3.020483207004046E-5    4.516967462848134E-4    2.304343748439971E-4    5.552345450479157E-1   -6.176901122332400E-2
 7.800000000000000E7    -7.522123424886114E-1    3.067592475070966E-1    3.609948081157780E-4   -7.339700683354518E-5    5.782590760183125E-4    4.850485898524097E-4    5.512373279211686E-1   -6.689831270004480E-2
 7.900000000000000E7    -7.518258346327511E-1    3.053984938028417E-1    2.939949183519950E-4   -3.458634755503685E-4   -1.082793105630138E-3    5.101426495132802E-4    5.456867772736330E-1   -7.328791466567385E-2
 8.000000000000000E7    -7.479356499804871E-1    3.112809748228433E-1   -1.524112415528581E-4   -5.840826238225957E-5   -5.008338343890158E-4    8.508945049786824E-5    5.504703485141736E-1   -6.988705151084700E-2
 8.100000000000000E7    -7.512636451346670E-1    3.149368631577240E-1   -1.690445871744201E-4    1.248339353678697E-4    8.635008252860709E-5    1.762313393091521E-4    5.529101131752138E-1   -7.086558291608837E-2
 8.200000000000000E7    -7.495418789791413E-1    3.165495036028842E-1   -3.429870149571422E-5   -3.214861666693203E-4    4.627864859243558E-5    3.465204423593924E-4    5.520113698364767E-1   -6.556834558102416E-2
 8.300000000000000E7    -7.466663897435776E-1    3.205859931868799E-1    7.460722101930210E-5    1.833678008647977E-4    9.466274822620353E-5    2.532457749189721E-7    5.531037464976366E-1   -7.054944798442504E-2
 8.400000000000000E7    -7.454387595096298E-1    3.266371434164522E-1    1.854911503264070E-5    1.375924534745329E-5   -1.147318842985915E-4    7.901102213521095E-4    5.501666233327822E-1   -7.162610629498384E-2
 8.500000000000000E7    -7.419908581645267E-1    3.298749979918765E-1    1.634798374552175E-4    3.403111282516540E-4    6.732333026810027E-4    4.142661373928270E-4    5.490410141385071E-1   -6.826104549116366E-2
 8.600000000000000E7    -7.346433506744723E-1    3.389988696258217E-1    3.752625946993726E-4   -6.566781820573265E-5    3.173900984432557E-5    5.525948050984198E-4    5.495532099222206E-1   -7.334050752437950E-2
 8.700000000000000E7    -7.364301211662462E-1    3.424814534838791E-1   -2.963768710251178E-4    1.012374498985977E-4   -3.182805308537069E-4   -1.426144667652955E-5    5.522203313010596E-1   -7.424857393233679E-2
 8.800000000000000E7    -7.284667526351726E-1    3.453846608758785E-1   -4.295622213241983E-5   -1.857651704348895E-4   -2.683292570189530E-4    2.169215708056332E-4    5.488721383556165E-1   -7.494361994276952E-2
 8.900000000000000E7    -7.323734822107432E-1    3.405451945891555E-1   -2.418109239875107E-4   -3.399474632609024E-5   -2.513845829198210E-4   -9.291189138688052E-4    5.471283822119264E-1   -7.614739108139183E-2
 9.000000000000000E7    -7.321820921178889E-1    3.489105134518714E-1    2.770609792782363E-4   -2.414056863261794E-4    4.145280336782355E-4   -3.055626090390898E-4    5.507456095539972E-1   -8.120691922141673E-2
 9.100000000000000E7    -7.336548677428034E-1    3.567095010033219E-1   -1.738150358682691E-4   -7.280996951298977E-5    3.174811433803290E-4    1.225806214965561E-4    5.509996507984161E-1   -7.945557793180695E-2
