#  HZ   S   RI   R     50.00 
! Rohde & Schwarz Vector Network Analyzer 
! Rohde-Schwarz,ZNBT8-20Port,1318700624101681,3.50
! Created: UTC 7/15/2025, 2:07:48 PM
! freq[Hz]                re:S1010                im:S1010                re:S0510                im:S0510                re:S1005                im:S1005                re:S55                  im:S55
 1.000000000000000E6    -8.215941823581260E-1   -5.704740905979403E-3    2.259922427143698E-4    1.414037970304579E-4   -3.029347631295634E-4   -2.747353673594574E-4    9.714735274745995E-1    2.629186332677497E-2
 2.000000000000000E6    -8.231358609879935E-1    2.166626852986532E-3    5.311062252115962E-5    2.453976623485962E-4    7.148881257163969E-5   -4.892802437094030E-4    9.843053254336910E-1    6.821706291921215E-3
 3.000000000000000E6    -8.273068915986405E-1    1.150103724656801E-3   -1.520827978095362E-4   -7.187174612257023E-5   -1.171956725668665E-4   -6.094182913992391E-4    9.674909155967545E-1    1.382604002104027E-2
 4.000000000000000E6    -8.345706142145473E-1    3.710372075526457E-3   -8.825606978489888E-5   -2.556922194912430E-4    3.792616404870788E-5   -3.940554534261021E-4    9.770767223893705E-1    8.374285299908460E-4
 5.000000000000000E6    -8.221567806667875E-1    1.327431427984204E-2    2.296425444869993E-4    3.285038930540334E-4    9.788342601688023E-5    1.720254447809283E-4    9.704743200291043E-1    2.018118425116843E-3
 6.000000000000000E6    -8.243786722693277E-1    1.864414408782861E-2   -4.143708242571279E-5   -7.785354278665433E-5   -3.006128407707806E-5    1.352588345084626E-4    9.757588179672574E-1   -8.732545463045197E-3
 7.000000000000000E6    -8.376154490733915E-1    2.355639199962511E-2   -4.224454375257263E-4   -1.878466136498235E-4    7.869666222167284E-5    1.186959790060842E-4    9.787762817227705E-1   -1.514533057651731E-3
 8.000000000000000E6    -8.296382528717147E-1    3.392111851003099E-2   -6.081054501110102E-5    2.738686368902604E-4   -3.009470703973714E-4   -7.052390002019115E-5    9.869455344832236E-1   -5.205853355571512E-3
 9.000000000000000E6    -8.271830665631718E-1    3.393379010132877E-2    2.416634415239463E-4   -2.734728873037443E-4    1.959492256934507E-4   -2.671540533399803E-5    9.815459910989260E-1   -1.028690325480563E-2
 1.000000000000000E7    -8.159709334355213E-1    4.532666374840470E-2   -8.074710600530755E-5   -9.451619986445692E-5   -2.812354485624495E-4   -6.138018959676060E-5    9.786831803711399E-1   -1.837045851569190E-2
 1.100000000000000E7    -8.196410798229359E-1    4.842881601037070E-2   -1.637710000096942E-4   -4.815780809775828E-5    1.013593510550355E-4   -1.729755403454789E-4    9.805266600874494E-1   -1.647331249206341E-2
 1.200000000000000E7    -8.161778387461157E-1    4.131879057017602E-2    2.255100607486508E-4   -1.300879823311383E-4   -5.472390969179510E-4   -3.996209804681702E-4    9.692145575143879E-1   -1.421415420465988E-2
 1.300000000000000E7    -8.224591089654595E-1    5.719775295899959E-2   -4.440366431059501E-5    8.122668546887964E-5    5.303860934181469E-5    2.052526640572628E-4    9.808036932924302E-1   -2.292742748873950E-2
 1.400000000000000E7    -8.241401828736249E-1    5.290991693322481E-2   -1.606179986091109E-4   -1.999108340867788E-4    1.521400250891294E-4    1.939343661759180E-4    9.839288579683297E-1   -2.527127868396751E-2
 1.500000000000000E7    -8.251142429322988E-1    6.204611699163524E-2    8.487807745545859E-5    8.104591820053733E-5   -2.979870222899681E-4   -3.672029786149917E-5    9.770579712804850E-1   -1.249953461595103E-2
 1.600000000000000E7    -8.321271707896596E-1    7.506917103311359E-2   -3.117489515526732E-4   -2.918899122636544E-4    1.955524407727567E-4    4.609037980500756E-4    9.802505892418559E-1   -2.926535460619563E-2
 1.700000000000000E7    -8.262662477847865E-1    8.030958007723384E-2    2.653657481461979E-4    4.327946865458208E-4    9.219486652172993E-5    1.801118007152385E-5    9.802872698311577E-1   -2.002153810377555E-2
 1.800000000000000E7    -8.274659245331271E-1    7.246716190704371E-2   -3.260132603560902E-4    2.260495662785829E-4    6.685057567319600E-5    1.866972077973578E-4    9.841281343387693E-1   -3.144427278662191E-2
 1.900000000000000E7    -8.224601368278427E-1    8.207022489651998E-2   -3.275539474307248E-4    1.234272116711654E-4    5.886143968445676E-4   -1.904424564110750E-4    9.790498347901764E-1   -1.960581367546629E-2
 2.000000000000000E7    -8.207544884223420E-1    8.609421171479079E-2    8.462373995196330E-5    4.415240700125539E-4    1.021146099979078E-5    1.426242921401097E-4    9.729270190402726E-1   -2.753096517870203E-2
 2.100000000000000E7    -8.187518810094486E-1    8.469251856240199E-2    3.334235854625193E-6    1.827035666625191E-4   -4.124804026194870E-4    3.302871786188366E-4    9.799345005694314E-1   -3.462184764180176E-2
 2.200000000000000E7    -8.145054651778346E-1    8.333276713534910E-2    2.752946941633147E-4   -1.490399246712353E-4   -1.801155545658473E-4    9.038507540288993E-5    9.814674919129768E-1   -4.315367231261600E-2
 2.300000000000000E7    -8.186723928894002E-1    9.365332105147711E-2   -1.632041590958474E-4    9.010766257198870E-5   -3.460858247623520E-4    2.483106666339945E-4    9.842522174130098E-1   -3.500191898977253E-2
 2.400000000000000E7    -8.071380050215320E-1    1.040749358898160E-1   -1.633596120804233E-4    2.673828981076278E-4    9.771551441813397E-5    5.113856772020507E-4    9.751740473124042E-1   -2.881123744051734E-2
 2.500000000000000E7    -8.022256197319126E-1    1.103705917862336E-1   -1.899784110886466E-4    3.353767223172983E-5   -1.562816866655146E-4   -2.436392169403555E-4    9.807197158266239E-1   -3.355310502330382E-2
 2.600000000000000E7    -8.173165089742873E-1    1.013354232105810E-1   -1.384698471004438E-4   -2.404836225488488E-4   -3.055219384871743E-4   -1.645358129414425E-4    9.723644981246391E-1   -1.430107200343645E-2
 2.700000000000000E7    -8.139731136681919E-1    1.168207831640130E-1    1.027108529700853E-3    9.270829099657648E-4    3.840149932448038E-4   -1.778732742809700E-4    9.728365320187009E-1   -1.290464567814467E-2
 2.800000000000000E7    -8.122664027750280E-1    1.104573036394025E-1   -2.995833088636105E-4    7.482292421810477E-6   -5.366175090695570E-4   -7.226133106217674E-4    9.827915334645905E-1   -1.900704166886278E-2
 2.900000000000000E7    -8.117349867660829E-1    1.141977430353758E-1    3.909619872267862E-4   -9.458219434805882E-5    1.802345245882472E-4    2.478343817679788E-4    9.733397277736815E-1   -1.527193687352085E-2
 3.000000000000000E7    -8.149178940224002E-1    1.203668824473789E-1   -3.499888931550922E-4    3.624565195558499E-4   -1.731987935611018E-4    4.305771307670332E-5    9.707353635181767E-1   -1.935370743285998E-2
 3.100000000000000E7    -8.121782733481351E-1    1.323241020207585E-1    2.674749923857827E-4    1.930796999144784E-4    2.440327256569268E-4   -1.524820531719662E-4    9.750016773088979E-1   -2.126275134180279E-2
 3.200000000000000E7    -8.114050254119932E-1    1.261455011659299E-1    8.008735206538510E-5    1.605813042356733E-4   -4.124397405286968E-4   -7.604948000817786E-4    9.755472669877632E-1   -2.148667804597305E-2
 3.300000000000000E7    -8.113212372068420E-1    1.375209445885723E-1    5.462049485215573E-4   -1.511219438443795E-4    7.643479835298324E-5   -6.267533056129218E-5    9.748318637559750E-1   -2.010039521548481E-2
 3.400000000000000E7    -8.098559645745359E-1    1.361784726456030E-1    2.447102964708842E-4    9.254911027188487E-5   -6.764119267457147E-4    6.258215287953926E-5    9.732709297536855E-1   -2.636599977386034E-2
 3.500000000000000E7    -8.108549334548345E-1    1.443000988322941E-1    1.576225755807321E-4    4.546255652791529E-4    5.171395566204214E-4    1.132214615768473E-4    9.779595149607064E-1   -2.791247441823701E-2
 3.600000000000000E7    -8.099533640206039E-1    1.536507077943242E-1    3.631519856462709E-4   -1.608060251653287E-4    2.568752481712082E-4    9.439929602326089E-4    9.642778480261788E-1   -2.919891482515673E-2
 3.700000000000000E7    -8.095691983589374E-1    1.499792519776248E-1   -8.244151349673049E-5   -1.570127246315387E-4   -1.023647326129395E-5   -4.427345938084603E-4    9.645829608501741E-1   -2.954513356484633E-2
 3.800000000000000E7    -8.082502798028843E-1    1.567535112526556E-1    4.161724888021118E-4   -9.330110605322460E-5   -2.917089973190787E-4    3.650795998862003E-4    9.692310104624541E-1   -3.217882528796934E-2
 3.900000000000000E7    -8.125690552566391E-1    1.596439725518979E-1    4.829046119856993E-4    8.812478550147037E-5   -9.376419160745988E-5    4.568450446562252E-4    9.702487321241094E-1   -3.356522782584081E-2
 4.000000000000000E7    -8.066534681498169E-1    1.633579209692044E-1   -3.932393302724987E-4    9.858589170554119E-5    5.128842886482534E-4   -2.562199424061002E-4    9.707360013979983E-1   -3.095396818317282E-2
 4.100000000000000E7    -8.089987974106690E-1    1.645820900274707E-1   -5.421013264985484E-4    2.846038241895050E-4   -2.582726079008544E-4    6.374038673312148E-5    9.664874181510011E-1   -3.455112999919301E-2
 4.200000000000000E7    -8.043071236067585E-1    1.713800941714580E-1    5.705540714900932E-4    6.375248650193206E-4   -6.049633859767483E-4   -4.010555262293242E-4    9.679311713047675E-1   -3.782772688938632E-2
 4.300000000000000E7    -8.040994136965380E-1    1.759270843932182E-1   -4.780252323057415E-4   -2.554818861830792E-4   -3.779497507208691E-4    2.105026132942903E-4    9.726000384840049E-1   -3.325054767828377E-2
 4.400000000000000E7    -8.011731504555943E-1    1.745217159790644E-1   -4.864468499224628E-4    5.892424374393696E-4   -2.168909638454210E-5   -3.490384341091541E-4    9.661530766760388E-1   -4.392216411451198E-2
 4.500000000000000E7    -8.061718061561741E-1    1.781589781750378E-1   -1.933629055002776E-4   -7.090712116066696E-4   -3.872321082001553E-4    3.929812887906486E-4    9.673786606104651E-1   -4.055867646590540E-2
 4.600000000000000E7    -7.965774825198897E-1    1.926215222622417E-1   -6.327040277937663E-4   -3.649852420237741E-4   -1.893272904484641E-4   -2.878170028041247E-4    9.659553875951652E-1   -4.701742232182166E-2
 4.700000000000000E7    -7.964459428358454E-1    1.893840408087616E-1    4.847729569060647E-4   -1.124588278532920E-4   -4.367153937979153E-4   -5.669297620174325E-5    9.682450332950160E-1   -4.720598443099072E-2
 4.800000000000000E7    -7.991286722584166E-1    1.889616713882214E-1   -1.071747160962008E-3   -5.822195526257010E-4    3.294141015015763E-4    2.207313995425204E-4    9.764167732254444E-1   -3.560028027239139E-2
 4.900000000000000E7    -8.064339407675136E-1    1.955275969648408E-1    3.245037761087248E-4    2.524626247342677E-4    7.419859965078353E-5   -4.529658926625193E-4    9.660470077985946E-1   -4.549844755394476E-2
 5.000000000000000E7    -7.942355049655636E-1    1.986468003165950E-1    4.572509198365544E-4   -2.880122760757739E-4    2.170635490641977E-4    4.350662275647882E-4    9.711055530445332E-1   -4.971004162768487E-2
 5.100000000000000E7    -7.937921169190340E-1    1.998401940427667E-1    3.811569312560087E-4   -2.275413779566397E-4   -1.348648363857178E-4    6.934852842657984E-5    9.680266337478550E-1   -4.478087338935936E-2
 5.200000000000000E7    -7.926733945933280E-1    2.067756629205651E-1    3.557672428119464E-4   -5.060360993374566E-4   -7.413984293245203E-5    3.872836406025936E-4    9.666404909303604E-1   -4.799306807025659E-2
 5.300000000000000E7    -7.905239238430023E-1    2.158227597798567E-1   -1.120454306911665E-4    5.225957121580099E-4    8.562090083354352E-4   -1.482833755825309E-5    9.763014715010204E-1   -5.701557963790830E-2
 5.400000000000000E7    -7.905715186363974E-1    2.196677841863301E-1   -1.192302322130079E-4   -2.328595619787142E-4    7.850010885280797E-4   -6.076704254913859E-5    9.636126043832354E-1   -5.978306011231060E-2
 5.500000000000000E7    -7.937111320902480E-1    2.198305529097888E-1    1.589710930829990E-4    4.690274406975251E-4   -1.649737161745817E-4   -2.126688106676864E-4    9.664631724255959E-1   -5.581782940082994E-2
 5.600000000000000E7    -7.941871650868546E-1    2.234028450607235E-1   -2.774700808767842E-4   -2.860947378242221E-5    1.281433100782373E-4   -3.809355981423713E-4    9.655676861137621E-1   -5.661191609828956E-2
 5.700000000000000E7    -7.858522300238949E-1    2.313203493213634E-1    8.513351826695160E-4   -4.188287308089544E-4   -5.181306596172388E-5   -4.549688797768750E-4    9.661947465554146E-1   -6.702363000409538E-2
 5.800000000000000E7    -7.845227933220172E-1    2.304964820555528E-1   -1.830309070543982E-4   -1.015744812951929E-4   -1.018633212254808E-4    6.327616409734757E-4    9.609331873053920E-1   -6.349002183751346E-2
 5.900000000000000E7    -7.812528564228076E-1    2.391717849603205E-1    4.795502657972637E-5   -1.667018653126951E-4   -2.581747457922174E-4    5.043812648254356E-4    9.717300303133902E-1   -6.935878866865257E-2
 6.000000000000000E7    -7.853022702915181E-1    2.366917556881359E-1   -1.682632468809827E-3    2.727432929582654E-5   -9.601378063978092E-4   -2.558986398110678E-4    9.675361670817120E-1   -6.870344544947275E-2
 6.100000000000000E7    -7.827994362137489E-1    2.389349703158875E-1   -1.450831062464385E-4   -3.123868262816230E-5    2.866786147671923E-4   -3.462727416269194E-4    9.685460844397387E-1   -7.832128637556557E-2
 6.200000000000000E7    -7.759504374838765E-1    2.496126677200601E-1    2.035158726252498E-4    2.593851634774982E-4   -3.695874300575379E-4    1.131950548785802E-4    9.672558422379619E-1   -7.432013432681475E-2
 6.300000000000000E7    -7.714688041410978E-1    2.481705189035394E-1   -1.857998778434308E-5   -3.125041152066088E-5    3.018603232557092E-4   -1.375185839302222E-4    9.704480857575097E-1   -7.839697643419054E-2
 6.400000000000000E7    -7.765639751832759E-1    2.512792527470200E-1   -3.371488781186235E-4    1.020646119298376E-4    2.030320792922401E-4   -5.108880908383470E-4    9.632660837259398E-1   -8.441131233580940E-2
 6.500000000000000E7    -7.729820503711301E-1    2.601231372138245E-1    3.189990096169560E-4    7.562354718220642E-4    3.062484288425492E-4   -4.752992999743780E-4    9.633036708938559E-1   -8.783983384888515E-2
 6.600000000000000E7    -7.750458322515439E-1    2.667309821720336E-1   -2.345411742365596E-4    1.083245064443783E-4    9.044968754513000E-4    1.697762730296728E-4    9.605540534583176E-1   -8.487387776605512E-2
 6.700000000000000E7    -7.697287835246448E-1    2.728444574582035E-1    1.383250128651274E-4   -1.992885516008499E-4    4.863547261661583E-4    6.499301326228505E-6    9.588613372735761E-1   -9.270010425729355E-2
 6.800000000000000E7    -7.715459147278092E-1    2.676449405042141E-1    3.766777650955280E-4   -1.507186571368347E-4   -2.575845700046597E-5   -9.533438702722213E-5    9.690509682682014E-1   -9.441478715974114E-2
 6.900000000000000E7    -7.668437316087717E-1    2.750012024242925E-1    5.195907178142007E-4   -1.375700381455352E-4   -2.831362625636150E-4   -4.330448586386060E-4    9.658126116369888E-1   -8.852774882273091E-2
 7.000000000000000E7    -7.684465988305791E-1    2.755565547476542E-1    3.139466494546295E-4    1.964412258370179E-4    4.403592262275264E-4   -9.192688100750098E-5    9.659395980070815E-1   -9.759720028784256E-2
 7.100000000000000E7    -7.703598287707005E-1    2.828262510054687E-1    3.303366601223294E-4   -3.084580183674529E-4    4.902581618507389E-4    2.621411576947239E-4    9.667546624854438E-1   -9.485674065228492E-2
 7.200000000000000E7    -7.624075824827354E-1    2.830163503443812E-1    6.667852489232364E-5   -3.484431139326566E-4   -3.247319771845966E-4    1.185326314490911E-4    9.617388559682811E-1   -9.438813840981199E-2
 7.300000000000000E7    -7.628126119893486E-1    2.897921939831286E-1    1.365644971197687E-4   -9.432857288900813E-5    2.035269679819340E-4   -8.776180989023848E-6    9.691914513609707E-1   -9.664911953988230E-2
 7.400000000000000E7    -7.596484237640512E-1    2.904476292488917E-1   -4.363982669077138E-4    2.936310002537792E-4   -8.184595935264641E-4    2.021428470006531E-4    9.702907361118225E-1   -9.538898751708139E-2
 7.500000000000000E7    -7.596939056280845E-1    2.923905499125287E-1   -1.916441894840983E-4   -5.618701417270252E-4    4.452264577725223E-5    2.619261421209414E-4    9.640176876602058E-1   -1.040654881132907E-1
 7.600000000000000E7    -7.568858134236441E-1    2.978485233790408E-1   -8.455869782759761E-5    4.734977910002105E-4    1.450240160998377E-5    5.448472093159415E-4    9.557150974679652E-1   -1.050763976666721E-1
 7.700000000000000E7    -7.601468309963250E-1    3.010018001471894E-1    7.430312313650476E-4   -3.933726329938646E-4    8.985165897192746E-5    1.632031250748821E-4    9.619944358081407E-1   -1.044642516962163E-1
 7.800000000000000E7    -7.561182275778453E-1    3.024296927159400E-1    2.038476719441875E-4    3.527025162105675E-4   -4.019457396961246E-4   -2.927066057788504E-4    9.605613955114916E-1   -1.091372690163402E-1
 7.900000000000000E7    -7.541087997812315E-1    3.033337203179720E-1    5.389020067308430E-5    1.166814964710754E-4   -2.674064567690691E-5    2.603614759050443E-4    9.618685907906467E-1   -1.078582663546392E-1
 8.000000000000000E7    -7.487159073693433E-1    3.189867101569059E-1    5.911523272438098E-4    2.174714389959698E-4   -6.181585153221637E-5   -2.733772190236970E-4    9.642684185309602E-1   -1.155512950043390E-1
 8.100000000000000E7    -7.450861799953543E-1    3.125705127799692E-1   -3.087075342492116E-4    3.319770957727462E-5   -1.229303449220977E-3    1.096197561119394E-4    9.561560196070353E-1   -1.070855469386507E-1
 8.200000000000000E7    -7.497215118918455E-1    3.148121870676064E-1   -1.576274990621045E-4    3.677217499576607E-4    3.966468456599826E-4   -1.304418652756186E-4    9.620560345482371E-1   -1.136718364491076E-1
 8.300000000000000E7    -7.441825855007559E-1    3.235122787582866E-1    3.272161817972212E-4   -3.350316844117654E-4   -5.499493702673364E-4    4.003371616049835E-4    9.617685684893501E-1   -1.121906523988717E-1
 8.400000000000000E7    -7.408289202303555E-1    3.258204107984888E-1    2.922787459389333E-4   -1.125974177656425E-4    8.256130411818030E-5    5.720696055621108E-5    9.614219622786268E-1   -1.152484117610714E-1
 8.500000000000000E7    -7.425929118677643E-1    3.307749835063188E-1   -1.682254730045606E-4    1.662987993361981E-4    1.589252262792559E-4    4.899540019027476E-4    9.608697804708896E-1   -1.212937627488144E-1
 8.600000000000000E7    -7.353823568241500E-1    3.348308801067688E-1   -5.253842625596826E-4   -1.460300951571996E-4    3.422546454567375E-4    9.883273495983115E-4    9.636346033378379E-1   -1.218747177255644E-1
 8.700000000000000E7    -7.355401624457542E-1    3.402917881124493E-1   -1.312717591922019E-4    5.552298273366669E-4   -3.200436313345601E-4    4.114216037916766E-4    9.587328798685949E-1   -1.202604650264678E-1
 8.800000000000000E7    -7.338688617436886E-1    3.488334984042031E-1    3.477695716691843E-4   -8.852704066524031E-4   -2.583223940630603E-4    2.715664441758386E-4    9.582838042968584E-1   -1.166167756971129E-1
 8.900000000000000E7    -7.330807698539257E-1    3.435968783984683E-1    1.560638247888868E-4   -6.476958103410064E-4   -3.561359395978291E-4   -8.100499187382770E-4    9.585740793376886E-1   -1.236194269708248E-1
 9.000000000000000E7    -7.313193829801063E-1    3.511439602439659E-1   -9.247167874452523E-5   -4.776752128022975E-5    2.480893330144105E-4    3.201943038057432E-4    9.595215240932607E-1   -1.205358901030742E-1
 9.100000000000000E7    -7.310831292127625E-1    3.546577707517076E-1    7.238460662825798E-5   -2.024678487502675E-4   -6.740876198245805E-4   -5.032022690459276E-4    9.606552624991762E-1   -1.263833765183127E-1
