#  HZ   S   RI   R     50.00 
! Rohde & Schwarz Vector Network Analyzer 
! Rohde-Schwarz,ZNBT8-20Port,1318700624101681,3.50
! Created: UTC 7/15/2025, 2:13:48 PM
! freq[Hz]                re:S1010                im:S1010                re:S0410                im:S0410                re:S1004                im:S1004                re:S44                  im:S44
 1.000000000000000E6    -8.996982064797876E-1   -5.930448625444062E-3    2.977694757447781E-4   -2.431853091821652E-6    1.563334264536080E-4    1.269060175355181E-4    9.693847024879406E-1    1.865556646258807E-2
 2.000000000000000E6    -8.978981691188797E-1   -1.347990508429076E-2    3.262508363272185E-4    2.479237172120327E-4    2.278875366080219E-5    2.661057503900926E-4    9.826468371460206E-1    8.143430632731713E-3
 3.000000000000000E6    -8.999219153619217E-1   -8.478428883795646E-3   -2.271105209509538E-5   -3.005700269237604E-5   -1.145454542013229E-4   -2.653175140250578E-4    9.720190013895984E-1    7.485441729807522E-3
 4.000000000000000E6    -9.046391696248199E-1   -6.486805742212386E-3   -1.237016308318315E-4    2.005488229269740E-4    3.431939774076230E-4   -1.566820266244413E-4    9.766209276619379E-1    1.243235031028963E-2
 5.000000000000000E6    -8.979153173314852E-1    4.039546225697099E-3   -2.584315975176894E-4    2.938198986291445E-4   -9.686824531755499E-5    1.329353565438337E-5    9.784628861077411E-1    3.133816472504037E-3
 6.000000000000000E6    -9.005066946911816E-1   -1.018772905255971E-3   -5.379378215636919E-5   -2.517834795936577E-5    1.334646995798966E-4    6.926018200839662E-5    9.780366385425179E-1   -6.653902808056567E-4
 7.000000000000000E6    -9.081049686898288E-1    2.148148559327921E-3   -1.733122106460376E-4    3.130775094212389E-5   -5.304962463430343E-7   -1.267105848528140E-4    9.872606770740697E-1   -2.167117504664245E-3
 8.000000000000000E6    -8.966081340811111E-1    7.868677094237442E-3   -3.654401175808424E-5    3.702585616467982E-5   -7.831915392444905E-5    2.566295867394416E-4    9.768766233580015E-1   -5.140940046077899E-3
 9.000000000000000E6    -9.058658091599073E-1    1.145607997537951E-2    2.769860157481698E-4    7.063088955421906E-5    1.170680923348442E-4    4.553990237714818E-5    9.727217175072147E-1   -8.137623231516757E-3
 1.000000000000000E7    -8.868253717147601E-1    1.596199882294210E-2   -1.521763221460094E-4   -3.287865151314761E-4    2.234687658446947E-4   -6.425492981279798E-5    9.707561303670273E-1   -1.377808828758246E-2
 1.100000000000000E7    -9.001609689637586E-1    1.366477173734771E-2    4.038881959473593E-5   -4.542272606085703E-5    1.385663639133169E-4    2.314468370337317E-4    9.712950712831678E-1   -1.192701044404511E-2
 1.200000000000000E7    -9.053825657551025E-1    2.470509157497884E-2    3.567794558497499E-4   -1.653017777276940E-4    1.188281932121031E-4    2.046188501510741E-4    9.854763923379625E-1   -1.133597559882141E-2
 1.300000000000000E7    -8.972197532387615E-1    2.318831363820891E-2   -1.939981405218695E-4   -6.597640404655263E-6    1.004747836835443E-4   -1.450032557053891E-4    9.715950798406011E-1   -1.793615946398437E-2
 1.400000000000000E7    -9.057503726814442E-1    2.606584195817365E-2    4.912405646530288E-5   -2.190128126751620E-4   -1.083960020517499E-4   -3.309606136505294E-5    9.735379777515621E-1   -1.955520489512928E-2
 1.500000000000000E7    -9.044106924785478E-1    2.789954344010556E-2   -1.643803080343941E-4   -2.036360389988900E-4   -1.640234753566829E-4    3.968719871047910E-4    9.768194962786327E-1   -3.166936216936214E-2
 1.600000000000000E7    -9.041817233539492E-1    2.612450574735419E-2    1.616384474603669E-4   -3.178630397401533E-7    1.582067938756050E-4   -2.993699077560607E-4    9.717288330068180E-1   -1.932657924303295E-2
 1.700000000000000E7    -9.046600081691111E-1    2.743000834658363E-2    5.996366487573046E-5    2.219812196316384E-4    6.886211276490509E-5   -4.179324140714118E-5    9.766361976309934E-1   -2.932302501185869E-2
 1.800000000000000E7    -9.080655822734592E-1    2.436009700944022E-2   -2.279551021929733E-4    5.543525910656933E-5   -3.017214514696293E-4    3.631728835123719E-5    9.820406895264624E-1   -3.287825327157225E-2
 1.900000000000000E7    -8.994631177973831E-1    3.223758216896933E-2    6.374858953786271E-5   -1.564295986356873E-4   -3.086306478764901E-4    2.073462954830554E-4    9.677609136598105E-1   -2.292025060025740E-2
 2.000000000000000E7    -8.992097883558979E-1    2.751229709359039E-2   -2.355203890611923E-4   -2.737917766145102E-4   -1.012810113790008E-4    6.152807698398056E-4    9.853521660766611E-1   -2.386553897698439E-2
 2.100000000000000E7    -9.029730965618415E-1    3.934713692384099E-2   -1.354715693270861E-4   -1.093568776537634E-4   -3.205762373474186E-4   -1.040740481978840E-4    9.659394598023368E-1   -3.337628840829501E-2
 2.200000000000000E7    -8.957143621960777E-1    3.137440115971116E-2    8.284510430021469E-5   -2.639242400565334E-4   -2.433214067566366E-4    3.207964095346588E-4    9.698788807526900E-1   -3.193177153424649E-2
 2.300000000000000E7    -8.847305056237430E-1    3.200954197215056E-2   -1.203148769214571E-4    1.861119721005130E-4   -2.289493233935437E-4   -5.281074711042096E-5    9.750442330003151E-1   -3.640617346225612E-2
 2.400000000000000E7    -9.071063012219899E-1    3.958137795671469E-2   -1.757037396072021E-4    8.803892811883031E-5   -6.945650541119107E-4    5.951347117574218E-6    9.597331210643909E-1   -2.556613666344545E-2
 2.500000000000000E7    -8.774204659106980E-1    5.009043215143639E-2   -2.467140241175021E-5    2.958138777137597E-4    1.789375091087743E-4   -2.599663046942219E-5    9.799344320443101E-1   -4.747055411667692E-2
 2.600000000000000E7    -9.020457043424995E-1    3.956164310324241E-2   -4.866969507869640E-4   -1.537427335369486E-4    7.286701158106715E-4    6.573573286960756E-4    9.760104285998885E-1   -4.130342477507561E-2
 2.700000000000000E7    -9.031007388214277E-1    4.545997303162546E-2    1.871898831360625E-4   -1.990493345865428E-4    3.281643100906768E-4    2.444449100919123E-4    9.784118920406714E-1   -3.081691030926971E-2
 2.800000000000000E7    -8.908000928538290E-1    3.828792785265461E-2   -6.000633322236565E-4    1.644856564212121E-4   -4.835178904307776E-4   -1.278913119264233E-4    9.694046991694225E-1   -4.319652802331539E-2
 2.900000000000000E7    -8.978377624631475E-1    4.709588347829456E-2   -1.781926119454937E-5   -3.603754432033656E-4    2.706430650356756E-4   -8.217030956763541E-4    9.754927463579546E-1   -4.290976865964747E-2
 3.000000000000000E7    -8.992603000219751E-1    4.872522873250169E-2   -1.319634887879133E-5    1.674201278301860E-4   -5.863518931299170E-4   -3.358958052901657E-4    9.725548517443157E-1   -3.772068537847297E-2
 3.100000000000000E7    -8.955976175186064E-1    5.095623415679657E-2    2.078195063634376E-4   -5.464775191197193E-4    7.766427896789167E-5    3.418065703859243E-4    9.670573608106057E-1   -4.397907371305743E-2
 3.200000000000000E7    -8.951914253678855E-1    4.380168526686563E-2   -2.563430052632673E-4   -7.055228808097540E-5    2.585543611594283E-4   -5.608518448524829E-4    9.782156271431725E-1   -4.689625928752381E-2
 3.300000000000000E7    -9.003119070952725E-1    5.022869074612326E-2   -1.415223810060434E-4    8.029988123908961E-5    8.503128436414575E-4    8.450386736144491E-6    9.673982810004524E-1   -5.104482160409978E-2
 3.400000000000000E7    -8.969160859822454E-1    4.939231338878312E-2    1.525514857953933E-4    2.235936528666828E-4   -1.660741061558159E-5    5.898420421430601E-4    9.699781665031488E-1   -4.358534965680461E-2
 3.500000000000000E7    -8.998232723004161E-1    5.434559655348679E-2    4.462635791566113E-5   -1.661063833097140E-4   -3.862566715659833E-4    1.061263478583771E-4    9.753515230126742E-1   -4.670385563400509E-2
 3.600000000000000E7    -9.024175327549214E-1    5.868204791663491E-2    3.292503220418653E-4    2.387166292895957E-5   -4.398813027942330E-5   -3.414542444304291E-4    9.800789463352041E-1   -5.046581517096635E-2
 3.700000000000000E7    -8.981027123065672E-1    5.482812151450086E-2    6.331034568356191E-4   -5.973636577591817E-5   -1.302278249190021E-4   -3.130413823353864E-4    9.724240486813386E-1   -5.064788694045166E-2
 3.800000000000000E7    -8.967673462169334E-1    6.420716425871910E-2    5.946087810173734E-4   -2.462017446871893E-4   -5.317632031770215E-4    2.072761440069236E-5    9.791976302814430E-1   -4.636023659617402E-2
 3.900000000000000E7    -8.993840744630173E-1    6.067479517954330E-2   -5.744263307224440E-6    3.771311386864111E-4    2.328922781725850E-5   -1.482604570212430E-4    9.745537790878459E-1   -4.802858921444354E-2
 4.000000000000000E7    -8.980009360315002E-1    6.933407794250639E-2    7.124785946811246E-4    1.031062734951172E-3    3.435302282991777E-4    3.060176547435889E-4    9.700221834348398E-1   -5.390413919139826E-2
 4.100000000000000E7    -9.022654808461578E-1    6.223747158601303E-2   -4.445215752723943E-4    6.507111190211076E-4   -6.921394428418247E-4    5.287250233945950E-4    9.704626199446872E-1   -5.106495796451598E-2
 4.200000000000000E7    -8.965812900243217E-1    6.963109884571492E-2   -1.748378509167178E-4   -1.837489089560613E-4    1.057695209300446E-3   -6.086378096524296E-4    9.754216255338978E-1   -4.450966090822422E-2
 4.300000000000000E7    -8.986625651126422E-1    6.952749065517917E-2   -1.503019384397234E-4    8.151109706096357E-5   -3.370610674853977E-4    1.373847280322573E-4    9.747489682120468E-1   -6.001288263120638E-2
 4.400000000000000E7    -8.916979253079736E-1    6.689670766713353E-2   -4.903103509089233E-4    4.689323042236847E-4    2.077646912632365E-6    3.035890168317657E-4    9.750951585552228E-1   -6.528676647512631E-2
 4.500000000000000E7    -8.971626460306519E-1    7.152003664898951E-2    9.824855675748706E-5    8.074617493265281E-4    1.296365540936345E-4   -2.047876287793280E-4    9.664636134824310E-1   -5.844474879830478E-2
 4.600000000000000E7    -8.951913512545320E-1    7.770382411403083E-2    2.508047311064259E-4   -1.358126656025849E-4   -1.470507809128623E-4   -4.801167977612225E-4    9.704865609648733E-1   -5.786594646789942E-2
 4.700000000000000E7    -8.918442089180222E-1    7.538478991319397E-2    8.012166276634456E-5    1.672803422426976E-4    1.376514057976252E-4    3.472225629423974E-4    9.647804471460346E-1   -6.710482269661626E-2
 4.800000000000000E7    -8.959754243573398E-1    7.315365292897248E-2   -5.239946124228926E-4    1.174948226541570E-4    2.072390242445455E-4   -6.559878430044758E-4    9.690125253596704E-1   -6.832076808592420E-2
 4.900000000000000E7    -8.930665206938706E-1    7.666247434662354E-2   -4.257811148295298E-4   -1.363310121942127E-4    8.028153147538200E-4    2.972238211103825E-4    9.687898308542875E-1   -6.354474324359771E-2
 5.000000000000000E7    -8.941914277544533E-1    7.623246939988768E-2   -8.345662299918412E-5   -7.854637735111947E-4   -8.268804249521098E-4    3.607565504601230E-4    9.670131805251009E-1   -6.922848024503994E-2
 5.100000000000000E7    -8.923998774691059E-1    7.780282864745432E-2    7.256340470651575E-4   -4.754609774406416E-4   -3.057607500263567E-4   -1.802184105331595E-4    9.643646387679271E-1   -7.429671080674519E-2
 5.200000000000000E7    -8.919795776552819E-1    7.551181593372429E-2   -9.946801325887244E-5    4.104318213033944E-4    4.742987543151132E-4   -1.729596202000532E-4    9.735844119977428E-1   -7.380445098969188E-2
 5.300000000000000E7    -8.899210624522893E-1    8.043112472041672E-2   -2.124295417155330E-4   -1.034995590515063E-4    1.470707663419128E-4   -4.832655281183756E-4    9.768345375957382E-1   -7.532986117213561E-2
 5.400000000000000E7    -8.890226386986726E-1    8.490700015659715E-2   -1.834604898656407E-4   -2.461014549615432E-4   -3.759207232435482E-4   -7.145825713101288E-4    9.690142475074331E-1   -7.442630888965425E-2
 5.500000000000000E7    -8.899683484941916E-1    8.328157203766950E-2    1.033640774110936E-3    5.590346637066565E-4    1.443578746542186E-4   -4.248584195264940E-5    9.703051489253246E-1   -7.134519445945527E-2
 5.600000000000000E7    -9.001570252331645E-1    8.775692415646115E-2   -5.258922953742414E-4   -1.405443113080046E-5    6.472548921527765E-4    3.789695425666728E-4    9.667237484962629E-1   -7.814921694141513E-2
 5.700000000000000E7    -8.912269904226879E-1    9.047831624111172E-2   -1.973688169076187E-4    7.433150575581677E-4    2.549569630276809E-4   -2.381965008280389E-4    9.682202268728838E-1   -7.634762710015257E-2
 5.800000000000000E7    -8.897440355365476E-1    8.754689642767229E-2    1.068017417933779E-4   -1.690557316323819E-5   -3.241370402755020E-4   -2.890344612419234E-4    9.648136851817896E-1   -8.051804744296404E-2
 5.900000000000000E7    -8.945010976815853E-1    9.087340943045732E-2   -3.643057236907208E-5   -8.646138909746661E-6   -2.029244234589957E-4   -4.449846610442464E-4    9.657389716720223E-1   -7.976762889080291E-2
 6.000000000000000E7    -8.923784112410323E-1    8.916926202733666E-2   -2.979918248169426E-4    6.323549407391287E-5    2.041164686349057E-4    2.300289307400435E-4    9.637635759236304E-1   -7.559082605576067E-2
 6.100000000000000E7    -8.870324118500627E-1    9.142381325595728E-2   -4.412804441191157E-4    3.423109002727721E-4    3.814465226988437E-4   -6.036459215088474E-4    9.687932399007052E-1   -8.592343144816422E-2
 6.200000000000000E7    -8.900888296747934E-1    9.674925049813841E-2    3.124990994681754E-4    2.321810471447044E-4   -7.095798919115187E-4    8.282718570401042E-5    9.605960694715315E-1   -8.291701564321113E-2
 6.300000000000000E7    -8.923219812114529E-1    9.811653993640773E-2   -4.247715181327327E-4   -4.032202892217912E-4    9.510238538383204E-5    6.815768057759682E-4    9.620608089505320E-1   -8.800562847041159E-2
 6.400000000000000E7    -8.866559026838071E-1    9.933400493723428E-2   -7.271972315113346E-4    3.514991782080824E-4    3.048749536594367E-4    1.235710795036219E-4    9.689966087588210E-1   -7.987770603779110E-2
 6.500000000000000E7    -8.913352270620252E-1    9.659288924572192E-2   -2.499623756001350E-4    5.571647196788910E-5    1.980555256241575E-4   -7.577755064744616E-4    9.626980986437834E-1   -8.930986432398230E-2
 6.600000000000000E7    -8.927656322526456E-1    9.597929705822268E-2   -2.480141526253024E-4    4.981268893569251E-4    1.782257713733132E-4   -3.905019545416296E-4    9.585582061915827E-1   -8.514611839077335E-2
 6.700000000000000E7    -8.880963089927937E-1    1.039582634675894E-1    1.847143160376327E-4    4.091499605602349E-4    2.150146283199155E-4   -4.534670300750173E-4    9.667037964500863E-1   -9.072565905968168E-2
 6.800000000000000E7    -8.846559364400955E-1    1.044718236786363E-1    2.591208947993261E-4    7.716088203702953E-4   -3.724251185884176E-4   -8.169695820272753E-4    9.682918602599493E-1   -9.106964281517124E-2
 6.900000000000000E7    -8.877628779917878E-1    9.921245451649950E-2   -2.881173850547115E-4    5.609145721815033E-4   -3.000960358403969E-4   -7.233574196188097E-4    9.698274823306069E-1   -9.058592603581414E-2
 7.000000000000000E7    -8.900472681846936E-1    9.989484421859485E-2   -4.556187436509015E-4    2.487291196461680E-4   -3.115128317927347E-4   -4.587961926225564E-4    9.606784650325164E-1   -9.416962109381014E-2
 7.100000000000000E7    -8.839433430135554E-1    1.079935188583231E-1   -3.452955071712417E-4    1.293718123735262E-5    6.407086117448407E-4    4.032589846031616E-4    9.636577467639798E-1   -9.005474375447776E-2
 7.200000000000000E7    -8.843530189314098E-1    1.089827614693158E-1    7.231451874975886E-5   -1.715113638423784E-4   -3.251251411740847E-4   -6.734201147185864E-4    9.678137995175480E-1   -9.193080482178724E-2
 7.300000000000000E7    -8.905375952924312E-1    1.046299449566885E-1   -5.293158543597631E-4   -1.629391659605889E-4   -5.751431812713999E-4    3.809406701751691E-4    9.615319041597133E-1   -9.772907016872327E-2
 7.400000000000000E7    -8.870774125852379E-1    1.111348403979349E-1   -2.838546863556418E-4    1.318237651977053E-4   -4.657882556009704E-4   -2.971573281479773E-4    9.683025144684648E-1   -9.388519779567615E-2
 7.500000000000000E7    -8.829463643747425E-1    1.126020818992695E-1   -5.007508111820059E-4   -4.526582309146769E-4   -4.191079590996449E-4    2.513613790893381E-4    9.584406821128426E-1   -1.000433417342635E-1
 7.600000000000000E7    -8.879581346929264E-1    1.136171633840889E-1    8.863337117788669E-4   -1.314445096429034E-5   -5.920133862457152E-4    3.086388634736591E-4    9.613192185578753E-1   -1.005430330575144E-1
 7.700000000000000E7    -8.865148510708931E-1    1.144712368540497E-1   -2.113059026209233E-4    2.805884551535029E-4    1.824539880521545E-4    2.384806400625083E-4    9.612928090386338E-1   -1.008819491672353E-1
 7.800000000000000E7    -8.839627111077298E-1    1.181831003639700E-1   -2.740852188352897E-4   -8.702177166177231E-5   -1.845329119099608E-4   -6.674624275876569E-5    9.577625045552673E-1   -1.030029440228428E-1
 7.900000000000000E7    -8.855566690998162E-1    1.121792052723200E-1    6.663982657411406E-5    4.544598805958082E-4    1.774623418546257E-4   -4.262731047634731E-4    9.593248389390676E-1   -1.108390065121600E-1
 8.000000000000000E7    -8.868051003366934E-1    1.217406420683693E-1   -2.033240321357469E-6   -3.298096513292610E-4   -1.421752659988917E-4    7.216069968453442E-4    9.617407223496682E-1   -1.058126734256125E-1
 8.100000000000000E7    -8.827089295708814E-1    1.177714027208165E-1   -4.037403528684716E-4    2.272505457305252E-5    2.784208106200722E-4    6.511281946187613E-4    9.594399664259957E-1   -1.094133432381778E-1
 8.200000000000000E7    -8.872228727985471E-1    1.263843838013359E-1   -8.567908909690820E-5   -2.335245804458965E-4   -4.541357062853606E-4   -5.685715105034710E-4    9.601874780700577E-1   -1.096617889693862E-1
 8.300000000000000E7    -8.804286797801140E-1    1.207916519863475E-1   -5.809342919065533E-5    3.290315326877487E-4   -4.800529711769288E-4    4.195757155059090E-4    9.612950568376083E-1   -1.099087058435333E-1
 8.400000000000000E7    -8.880861898706907E-1    1.228860331609748E-1    4.721657788685001E-4   -6.188142254894169E-4   -1.655801915477804E-4    1.294558296970422E-4    9.631983206682144E-1   -1.111897455904249E-1
 8.500000000000000E7    -8.830138588787331E-1    1.202377568726171E-1   -2.896735514960592E-4   -4.268459309524845E-6    9.009037229593185E-4    6.191485435448588E-4    9.570782189648798E-1   -1.121735357336858E-1
 8.600000000000000E7    -8.852259617641589E-1    1.297252381982008E-1    3.086621705046770E-4   -1.295434583172827E-4    2.621187037704458E-4    3.055473423109413E-5    9.579835383878860E-1   -1.110365656521435E-1
 8.700000000000000E7    -8.824627895139292E-1    1.325747037813892E-1   -3.505268494845667E-4   -1.173121413281277E-4    6.616461083520828E-4    4.801031904162211E-4    9.632668335430702E-1   -1.110020309583086E-1
 8.800000000000000E7    -8.824160403037350E-1    1.350861806692600E-1    4.748460985063652E-4   -2.567949743812114E-4    7.187510209923408E-4   -4.617553803012162E-4    9.528897154194708E-1   -1.156754143022333E-1
 8.900000000000000E7    -8.830501136271496E-1    1.288433729185954E-1   -1.018291668249918E-4    6.833576015206831E-5   -2.187648694760588E-5    7.718180253044729E-4    9.563247846337767E-1   -1.198514948015142E-1
 9.000000000000000E7    -8.854294684556124E-1    1.376857187165333E-1    3.120452367530074E-5   -6.091196523108293E-5    5.716156713737248E-4   -2.479164540661735E-4    9.618440145350540E-1   -1.199812155708929E-1
 9.100000000000000E7    -8.843225338526411E-1    1.335528867629587E-1   -6.891864152984295E-4    4.643174950754008E-4    6.056407345640258E-4   -7.983704818434367E-5    9.583432204833263E-1   -1.204887604080890E-1
