#  HZ   S   RI   R     50.00 
! Rohde & Schwarz Vector Network Analyzer 
! Rohde-Schwarz,ZNBT8-20Port,1318700624101681,3.50
! Created: UTC 7/15/2025, 2:07:07 PM
! freq[Hz]                re:S1010                im:S1010                re:S0610                im:S0610                re:S1006                im:S1006                re:S66                  im:S66
 1.000000000000000E6    -8.320057122269119E-1   -1.530781332170837E-3    1.050163832154850E-4    2.448204370702003E-4    1.092574117683060E-4    1.683790691476262E-4    9.698771392377711E-1    1.617233310012814E-2
 2.000000000000000E6    -8.183767872515125E-1   -1.461180942824708E-3   -1.159700876237374E-4   -1.343139946226035E-4   -3.996098491183909E-5    3.437506348283879E-4    9.943844305717110E-1    1.745298476275557E-2
 3.000000000000000E6    -8.249344351604637E-1    1.190095904773250E-3    5.971132630411647E-4   -7.195419835388805E-5    6.395761955479008E-5   -1.723160714306335E-4    9.714347695454898E-1    1.307382848607611E-2
 4.000000000000000E6    -8.350006515842768E-1    2.177277176586517E-3    2.228398426120795E-4    2.427480357877330E-4    9.445999275094826E-5    4.716936939823968E-5    9.788924973083588E-1    8.283933010122594E-3
 5.000000000000000E6    -8.194024986075884E-1    9.293266371165801E-3   -2.178963820071619E-4    5.766941802464797E-5   -1.373645855016499E-4    9.430875028905383E-5    9.685020890421946E-1   -8.424223980480649E-4
 6.000000000000000E6    -8.277960185519473E-1    1.703440435660779E-2    8.597919783557084E-5    8.466328636685076E-5   -7.935938459580041E-5    3.496487296116507E-6    9.692905749378568E-1   -5.659127243746211E-4
 7.000000000000000E6    -8.331479506293306E-1    2.454642433072116E-2   -4.131169125770937E-5    7.639310940400823E-5    1.709000571356515E-4   -7.016492965066056E-5    9.721142820720904E-1   -4.298407186121598E-3
 8.000000000000000E6    -8.232041627474544E-1    2.809887009799816E-2   -5.041410387453365E-4   -5.141830544562452E-4   -3.110387865578393E-4   -1.133848030442348E-4    9.708772799555677E-1   -6.185376159816474E-3
 9.000000000000000E6    -8.196170115524913E-1    4.125573268542339E-2   -3.602235576078072E-5    1.543447719751013E-4    7.232656101457652E-5    9.489426001207406E-5    9.765162023567018E-1   -1.581066253308063E-2
 1.000000000000000E7    -8.139233156751932E-1    4.552671547228593E-2    5.917913013715758E-5    1.725180701865128E-4    1.038392679983905E-4   -1.359291759195523E-4    9.659926677262581E-1   -1.752156665864284E-2
 1.100000000000000E7    -8.109089251201468E-1    4.795733049965074E-2   -3.281917810123776E-4   -5.128343787160122E-5   -9.880791417892205E-5    5.405772568026763E-5    9.799432632463504E-1   -1.108757639776624E-2
 1.200000000000000E7    -8.195794916065886E-1    3.256151832984645E-2    4.489776796092794E-4   -3.351023208185929E-4    2.251797445342549E-4   -6.304639942865886E-5    9.755237375600783E-1   -2.109327099423309E-2
 1.300000000000000E7    -8.140154348564440E-1    5.408866008327640E-2   -5.731618788502550E-5    2.968369035344986E-4    1.782732666946792E-4   -1.696350027499660E-4    9.751430763540913E-1   -2.188349728825506E-2
 1.400000000000000E7    -8.296899440363013E-1    5.856689985745998E-2    2.701265745929509E-5   -7.672198324958481E-5   -5.380192663772141E-5    9.905526610939687E-5    9.836098514983274E-1   -2.321361689707945E-2
 1.500000000000000E7    -8.173057116625789E-1    5.689766832779124E-2   -2.732657877006519E-4    1.119965836979222E-4    8.483947532229595E-5    2.675286234327424E-4    9.786874895332930E-1   -1.903443842675250E-2
 1.600000000000000E7    -8.212036304158290E-1    6.834724945853625E-2    1.999119491230721E-4    1.663474155040291E-4   -2.493368597813960E-4    2.038222513419123E-4    9.769856887911105E-1   -2.039777397391036E-2
 1.700000000000000E7    -8.238235863272186E-1    7.756621570999624E-2    1.304156077710655E-5    3.224701237825062E-4    1.259002073834950E-4    3.139341818274778E-7    9.724750612737617E-1   -2.640743290064401E-2
 1.800000000000000E7    -8.215656988688382E-1    7.424401454312418E-2    7.382645340025221E-5    5.133991763385394E-5   -9.759558787132915E-5   -3.171950321705222E-5    9.759355406419125E-1   -2.582631833909128E-2
 1.900000000000000E7    -8.184290635048193E-1    8.275957309209572E-2   -2.810752156628574E-6   -2.770001019209429E-4    2.809897649364012E-4   -1.277634748445898E-4    9.783081921976492E-1   -2.460061874803088E-2
 2.000000000000000E7    -8.190824620816775E-1    8.802055916932940E-2   -4.404683456981770E-5   -7.825092804696460E-5   -5.656724975775670E-4   -1.006803473392934E-4    9.836873739601728E-1   -2.249298622983874E-2
 2.100000000000000E7    -8.228575963083469E-1    9.246642378138338E-2    3.275217297395396E-4    2.567994846156668E-5    7.368101225295591E-4   -2.604251038139115E-4    9.659038871921366E-1   -3.476661327120480E-2
 2.200000000000000E7    -8.187118088795040E-1    9.106206225070321E-2   -1.027387890082156E-4    2.976265818006892E-4    2.627658331987660E-4    4.847969427359582E-6    9.705064671793013E-1   -3.975651595874920E-2
 2.300000000000000E7    -8.140817481336977E-1    9.320512683178014E-2   -3.639161857863857E-4    2.634440085404335E-4   -2.156881041880999E-4   -2.715651609194007E-5    9.693730313505100E-1   -3.879239382253689E-2
 2.400000000000000E7    -8.174579295576160E-1    1.026035472983136E-1   -2.788932186751177E-4   -1.385011695947122E-4   -2.291041265838047E-4   -1.042228539732161E-4    9.797010689184797E-1   -4.701409298064381E-2
 2.500000000000000E7    -8.047123202327028E-1    1.132437638520052E-1   -3.258653212842137E-4   -1.824338451159710E-4   -2.478551720497424E-5   -1.773927085840855E-4    9.757829622362152E-1   -5.133637744587617E-2
 2.600000000000000E7    -8.155854191286751E-1    1.070701304313937E-1   -1.986207371728841E-4    7.881737138604201E-6    2.506749778506926E-4    1.472384753657821E-4    9.744347174988709E-1   -4.084277528334077E-2
 2.700000000000000E7    -8.141961565665869E-1    1.131723615690816E-1   -6.436235316847963E-5   -2.176373542251945E-4    2.149101895469699E-4   -4.608324564111816E-4    9.786491761892653E-1   -5.077063620664955E-2
 2.800000000000000E7    -8.157902772731906E-1    1.119559797919834E-1   -2.593363937486594E-5   -3.107645885837416E-4    4.627438042045283E-4    1.460194174844645E-4    9.843363433323392E-1   -3.502311409154393E-2
 2.900000000000000E7    -8.121527226926349E-1    1.156245570403820E-1    1.842152871640448E-4    2.329970673616128E-4   -5.293933956714049E-5    1.346344421120876E-4    9.704566122938002E-1   -4.278312631275361E-2
 3.000000000000000E7    -8.181711688461424E-1    1.238963764931000E-1    4.233050438207311E-4    2.474414270986354E-4   -3.677054960596755E-4   -3.871281126959162E-4    9.741710754740761E-1   -4.109670039167983E-2
 3.100000000000000E7    -8.109049036015183E-1    1.224799812682711E-1    1.882205275943533E-4    2.426498125438690E-4    5.933997687804824E-4   -5.064318187047855E-4    9.649505966046463E-1   -4.502385472599142E-2
 3.200000000000000E7    -8.136892813184302E-1    1.287766795473404E-1   -8.339570329135801E-4   -2.726622379171733E-4    4.375166449355503E-4    9.568689581716411E-5    9.768885787136873E-1   -4.637863955986467E-2
 3.300000000000000E7    -8.099814556762749E-1    1.332950800018178E-1    1.215738250660843E-4   -3.588941907507813E-4   -1.925569963318169E-4    3.985967122517540E-4    9.743701986235462E-1   -4.910552490386787E-2
 3.400000000000000E7    -8.114458789446256E-1    1.354177050722392E-1    1.596288712339654E-4    2.484888609118259E-4    6.162418986408891E-4    3.032190392418681E-4    9.699902238990750E-1   -5.038609735824141E-2
 3.500000000000000E7    -8.095596373126936E-1    1.468469800230584E-1   -7.499650169682707E-5    2.726170822534644E-4   -1.087104832210660E-4   -9.737688288924911E-5    9.649559364509003E-1   -4.889409908490575E-2
 3.600000000000000E7    -8.116131964100682E-1    1.482955354549556E-1    2.391554130076244E-4    1.305517163353583E-4   -1.690400579872732E-4    1.915956198834838E-4    9.786748839687376E-1   -5.080357920999483E-2
 3.700000000000000E7    -8.097911415086283E-1    1.500121588887603E-1   -9.906015184433883E-4   -1.217346568674678E-4    9.539535987002910E-4   -4.707991514790144E-4    9.725672883509349E-1   -4.780299341007083E-2
 3.800000000000000E7    -8.083224743100331E-1    1.514487802201432E-1   -6.610430544664367E-4   -9.500750338268769E-4    2.443623354390692E-4    1.526497169157119E-4    9.739774790400150E-1   -5.635765580167334E-2
 3.900000000000000E7    -8.053630620951686E-1    1.588702836532550E-1   -8.519520550299771E-4    2.064100788828222E-4   -1.348048381642753E-4    4.138609322168595E-4    9.741267826907103E-1   -5.834714809990001E-2
 4.000000000000000E7    -8.025289976299170E-1    1.619327190959910E-1    5.412218718324742E-4   -7.257677781295173E-4   -1.130413611827304E-4    5.010316940165365E-4    9.729809167138356E-1   -5.734538387536375E-2
 4.100000000000000E7    -8.088063463400380E-1    1.611929733377357E-1    1.422558171827667E-3    2.935703467317959E-5   -1.597261650723767E-4   -3.231353038139664E-4    9.660482113184831E-1   -5.981394177623914E-2
 4.200000000000000E7    -8.059753542789533E-1    1.735957878991413E-1    6.157004026555724E-4    4.699521859003181E-4   -7.108105794803075E-4   -4.637313163982933E-4    9.630886328309024E-1   -6.151568219921438E-2
 4.300000000000000E7    -8.067392827875696E-1    1.776535474168635E-1    4.834805548533510E-4   -8.129801446021417E-5   -9.976309750280803E-5   -1.366501897980871E-4    9.691856367591588E-1   -6.621290538630231E-2
 4.400000000000000E7    -8.039342482571081E-1    1.795997107023541E-1   -3.268961163057768E-4   -2.730784958426699E-4    3.778215159866422E-4   -3.606986680187968E-4    9.645794271753726E-1   -5.833221612012084E-2
 4.500000000000000E7    -8.053347630713228E-1    1.829889423633091E-1    4.365108386169204E-5    2.402958628673463E-4    9.640733351562547E-4    3.615368139463683E-4    9.743893645276787E-1   -6.031465635420768E-2
 4.600000000000000E7    -7.937699112232853E-1    1.850380276029488E-1   -4.124095484090998E-4   -6.724854124073778E-5    3.395716632498986E-4    3.567421813983594E-4    9.724786339022610E-1   -6.456513672263005E-2
 4.700000000000000E7    -8.008583075299625E-1    1.914922080657762E-1   -2.285803926818723E-6    1.192339865650066E-4   -1.720989238377887E-4   -4.580936974985204E-4    9.626860844860442E-1   -6.651304299525469E-2
 4.800000000000000E7    -7.966652945821719E-1    1.878707157017450E-1   -1.912674135968409E-4   -2.430708824675288E-4   -5.074175165353191E-4    8.365965352135038E-5    9.602027032568808E-1   -6.379625811199280E-2
 4.900000000000000E7    -8.010825027807430E-1    1.982427888515668E-1    3.126500410384277E-4    9.218502103515180E-4    2.132658089501589E-4    5.894727608716439E-4    9.636918409443774E-1   -6.875945834687000E-2
 5.000000000000000E7    -7.981300955071027E-1    2.039831643005904E-1   -5.238716527734013E-5   -8.287363512223125E-4   -2.988960318872199E-4   -4.903781834905089E-5    9.702021926053638E-1   -6.517004923761199E-2
 5.100000000000000E7    -7.947050516717364E-1    2.049255861641860E-1    4.572296261332089E-5   -2.254348052336470E-4   -6.396507513426837E-4    1.837742430906781E-4    9.688141704082356E-1   -7.302952565297678E-2
 5.200000000000000E7    -7.887291164276076E-1    2.074733128165814E-1   -1.074441372564304E-3   -5.149668037294764E-4    1.422435639413616E-4    2.150581341170464E-4    9.627767699383786E-1   -7.417177025111242E-2
 5.300000000000000E7    -7.865359975373497E-1    2.118973323514980E-1    5.919387971795873E-4    7.760384297940541E-4    3.232014630873153E-6    8.502281018558794E-5    9.653579110064084E-1   -7.877019269368597E-2
 5.400000000000000E7    -7.905921237146265E-1    2.152862485703330E-1   -8.264013342249521E-4   -1.137412868405166E-4   -4.140494410193051E-4    3.291602186659097E-4    9.680144168948445E-1   -8.091867339593675E-2
 5.500000000000000E7    -7.886519101003784E-1    2.223709474244236E-1    4.533253078967479E-4    7.420324080134392E-4    3.827037383439466E-5    1.107069313457861E-4    9.633347595909389E-1   -7.528546242468555E-2
 5.600000000000000E7    -7.941303082323758E-1    2.283087521801491E-1    5.036118919737565E-4    7.485630885465495E-4   -4.576149133362265E-5   -5.709262291350702E-4    9.658918114775462E-1   -7.747511631395330E-2
 5.700000000000000E7    -7.859508388166428E-1    2.269503281229792E-1    3.053433433177456E-4    1.539698355317736E-4    2.447402578038908E-4    5.157230019824469E-5    9.576966576949972E-1   -7.917679963872246E-2
 5.800000000000000E7    -7.824804315687380E-1    2.279054738328564E-1   -1.050829894351321E-3    7.816981149114255E-4   -3.477275933679474E-5    1.504686930405995E-4    9.625005061435649E-1   -8.168277715417079E-2
 5.900000000000000E7    -7.848142475390619E-1    2.351097517451677E-1    6.597109718534617E-4   -1.876931947782550E-4    4.084256505103339E-4   -2.578442739678018E-4    9.665965368514781E-1   -8.780162155643768E-2
 6.000000000000000E7    -7.842742410720677E-1    2.418985936300166E-1    2.131136974449695E-4   -2.326640393263924E-4   -2.369156427895518E-4    3.085682957230804E-4    9.649120638090951E-1   -7.569520244748200E-2
 6.100000000000000E7    -7.746660767678778E-1    2.408605754667369E-1    5.916288937882376E-4   -5.237399900874579E-5    2.387009966036899E-4   -6.010466979114139E-4    9.628235484712663E-1   -8.451012100876908E-2
 6.200000000000000E7    -7.806182687463473E-1    2.467140574041987E-1   -2.567965687256010E-4   -4.512446337551236E-4   -4.384113323935683E-4   -4.923019425624438E-5    9.566905102054633E-1   -9.222373082826406E-2
 6.300000000000000E7    -7.758465355152058E-1    2.501833683317390E-1   -1.229202191830992E-5    1.270003365348789E-3    6.684531000406273E-4    2.366543375137557E-4    9.665474308617966E-1   -8.978949161890029E-2
 6.400000000000000E7    -7.797676726618334E-1    2.557193945922450E-1   -4.179810240125089E-4    7.292064240076621E-5   -9.780808345355708E-5   -5.584618008348918E-5    9.587156960839641E-1   -9.303776804207686E-2
 6.500000000000000E7    -7.762359552196919E-1    2.641132124478539E-1   -1.047874451156724E-3   -6.044198395137794E-4    2.027553746075690E-4   -3.280918366062549E-4    9.591376434612986E-1   -9.305082086988309E-2
 6.600000000000000E7    -7.759626621981229E-1    2.631350941099986E-1    9.636320623126158E-4   -3.486870965959377E-4    6.197635060073198E-4    2.046634489830166E-5    9.611044887774579E-1   -9.547362290997639E-2
 6.700000000000000E7    -7.760810689671440E-1    2.641292460439005E-1   -6.808813131326823E-4   -3.836360957831477E-4    4.999050948016533E-4    1.361477133459460E-4    9.625573864847863E-1   -9.158970268334433E-2
 6.800000000000000E7    -7.697061816324525E-1    2.688360820264741E-1    3.573067214509817E-4    2.611860910778249E-4    8.317606884077963E-5   -4.997839943157410E-4    9.629063627083048E-1   -9.405875014500438E-2
 6.900000000000000E7    -7.721314513185445E-1    2.741878629872206E-1   -2.587835076708269E-4   -5.240077534132128E-4    4.794398268532212E-4   -5.563724038591888E-4    9.587913149483770E-1   -9.808193392093376E-2
 7.000000000000000E7    -7.704810219273412E-1    2.786708395600111E-1    8.926716896827314E-4   -1.465833847548186E-4   -3.638974414753401E-4    1.250661972778645E-4    9.618991925485296E-1   -1.019287370634018E-1
 7.100000000000000E7    -7.724065190004809E-1    2.830520295956217E-1    1.599534821563450E-5    4.948526805638506E-4   -4.635575715677989E-4    1.068327470640903E-4    9.662777348995738E-1   -1.022709808931848E-1
 7.200000000000000E7    -7.613727509460501E-1    2.900119677581696E-1    2.105822030240106E-4    5.995964098928911E-5   -6.529015003696166E-4    2.761076353883649E-5    9.635911187770243E-1   -9.827551440229022E-2
 7.300000000000000E7    -7.610587189058849E-1    2.853350241824105E-1   -7.085167706623542E-6   -4.163199864822475E-4    2.153775848681579E-4    1.016381784714386E-5    9.624485302467374E-1   -1.038788867811702E-1
 7.400000000000000E7    -7.587001047817407E-1    2.943460795032456E-1   -1.633093912086583E-4   -2.380290987551905E-4   -1.396718312113286E-4    3.282691331532257E-4    9.618796495856895E-1   -1.060071971803799E-1
 7.500000000000000E7    -7.590815483197991E-1    2.934905870667721E-1   -8.592731107475563E-4   -5.039317527287767E-4   -3.979285201508486E-4   -1.278905320188366E-4    9.642550718123077E-1   -1.087039280825800E-1
 7.600000000000000E7    -7.585545532357820E-1    3.044497732408705E-1   -3.643113024584283E-5    1.163498427551690E-4   -3.658911911330471E-4    2.574288380691403E-5    9.602746235673434E-1   -1.027974900915538E-1
 7.700000000000000E7    -7.569108842194961E-1    3.055786485437707E-1    2.464702797115228E-4    3.152412881068083E-4   -2.370001343130657E-4   -1.181790104198751E-5    9.594240403693620E-1   -1.056895629741408E-1
 7.800000000000000E7    -7.537232491095732E-1    3.012793775457532E-1   -5.661421586524533E-4    1.619958932453009E-4   -3.281862002895897E-4   -1.297712955384445E-4    9.623997585256092E-1   -1.101109926191683E-1
 7.900000000000000E7    -7.508203244172599E-1    3.083880368793614E-1   -6.754876155484946E-4    7.950109978049435E-4   -9.997019140046336E-5    4.255568863894569E-5    9.572721794373957E-1   -1.131380798032346E-1
 8.000000000000000E7    -7.494671932996584E-1    3.129625922979238E-1    2.076986256975937E-4    2.117648863494649E-5   -2.585880363141527E-4   -3.801741991790796E-4    9.571633649273482E-1   -1.073421088896873E-1
 8.100000000000000E7    -7.455430323485236E-1    3.134592761450015E-1   -1.562086956373702E-5   -6.974513073225246E-4    4.356334770190064E-4   -4.247242762535073E-5    9.592186640127313E-1   -1.079518341824798E-1
 8.200000000000000E7    -7.512933551446228E-1    3.194650508882989E-1    5.610176630988779E-5    6.289416481890949E-5   -3.615971743543104E-4    3.368243918231252E-5    9.612908710162906E-1   -1.105356253345790E-1
 8.300000000000000E7    -7.435590739487659E-1    3.193808815649179E-1   -4.243374248123199E-4   -2.637062955882604E-4    5.713251990039122E-4   -1.769511515500608E-4    9.569430997216165E-1   -1.178606144264740E-1
 8.400000000000000E7    -7.399019167939903E-1    3.272582387749670E-1   -2.435202784089714E-4    3.925146215595604E-4    5.415768825982709E-4    1.271998182572122E-4    9.623915912610729E-1   -1.172669605412062E-1
 8.500000000000000E7    -7.453559674961924E-1    3.303361437578309E-1    1.457799884449972E-5    3.117926666262144E-4    1.181798102478984E-4   -2.999183566721725E-4    9.577488466862589E-1   -1.126795384977798E-1
 8.600000000000000E7    -7.347051635434438E-1    3.315559874166190E-1   -2.816393089725502E-4    3.466500157657167E-4   -4.469920095861897E-4    1.949318474188602E-4    9.557831459346730E-1   -1.202088849910886E-1
 8.700000000000000E7    -7.378692152241459E-1    3.418894896162454E-1    1.277251294991886E-4    1.718538565758080E-4    2.740293426495840E-4   -7.729745662855376E-5    9.570354727038723E-1   -1.163059880917938E-1
 8.800000000000000E7    -7.319251777315577E-1    3.429099079974314E-1   -2.159378445099216E-4    1.186244548695510E-4   -2.432638348097142E-4    4.799066070239748E-4    9.590889586021558E-1   -1.193228076557077E-1
 8.900000000000000E7    -7.344781985618821E-1    3.422683835337035E-1    2.873185718461283E-4    1.954007269391020E-4    1.682195743588791E-4    5.471053628048877E-4    9.579595594436894E-1   -1.225628886852174E-1
 9.000000000000000E7    -7.262985260071161E-1    3.488939002302855E-1    6.737041909657488E-5    3.671699118074623E-4   -7.646907614292042E-4    4.707385006316390E-4    9.533900093662401E-1   -1.274592518354706E-1
 9.100000000000000E7    -7.307163827214533E-1    3.526525482215344E-1   -1.311153250019611E-4   -5.936839152842103E-4   -8.324904142795174E-4   -7.256136597381119E-4    9.625297240201073E-1   -1.272525051954440E-1
