#  HZ   S   RI   R     50.00 
! Rohde & Schwarz Vector Network Analyzer 
! Rohde-Schwarz,ZNBT8-20Port,1318700624101681,3.50
! Created: UTC 7/15/2025, 2:11:38 PM
! freq[Hz]                re:S1010                im:S1010                re:S0410                im:S0410                re:S1004                im:S1004                re:S44                  im:S44
 1.000000000000000E6    -9.038201936466672E-1   -6.549078029710773E-3   -1.212998567275149E-4   -5.400290341580687E-5   -1.324100810307908E-4    2.285250796338316E-4    5.572976721757035E-1    1.172784034974044E-2
 2.000000000000000E6    -9.055599832501899E-1   -1.561958167220370E-2   -1.935224672805688E-4    3.754615900428790E-4   -4.187689518051566E-5    2.064156147346482E-4    5.506857491948358E-1    4.449370440904003E-3
 3.000000000000000E6    -9.130437220617370E-1   -5.812178507037219E-4    4.118320603637846E-4   -6.461969620137392E-6   -1.433531024631789E-4   -2.604877905060550E-4    5.574834932714883E-1    8.629706090193328E-3
 4.000000000000000E6    -9.047116979934797E-1   -1.021721199792139E-2   -1.319748369178357E-4    2.812356590425411E-4   -1.041636545995773E-4    8.078109397655627E-5    5.654924485175497E-1    1.782861626316056E-3
 5.000000000000000E6    -9.020050454199462E-1   -3.020600929369766E-3   -2.828469521448898E-4   -3.164665331603118E-4    1.910445754250551E-4   -2.703497022866744E-4    5.564766488222217E-1    3.260841251783216E-3
 6.000000000000000E6    -9.054636603042859E-1   -2.493096561988178E-3   -1.709476714803059E-4    4.214324977228166E-5    5.105068556122801E-5   -2.212749190040840E-5    5.621325687534684E-1    6.092995853377907E-4
 7.000000000000000E6    -9.065951065502917E-1   -7.557806987560055E-4    6.628812217083465E-6   -2.959706807501990E-5   -2.756153267027843E-4    1.528954243552326E-4    5.617466108122299E-1    9.093041239587210E-4
 8.000000000000000E6    -8.992046681945548E-1    1.184209210819760E-2    2.466225519149532E-4   -3.187451156702669E-4    2.044562323135304E-4    2.493249503136797E-5    5.604732996024308E-1   -1.546897481606155E-3
 9.000000000000000E6    -9.067159564888440E-1    9.356495156954053E-3   -7.784318565656349E-5    7.428864575195475E-5    1.782778257212300E-5   -2.011001746896896E-4    5.594217316821432E-1   -3.525915481105731E-3
 1.000000000000000E7    -8.912930652946724E-1    1.339441466275640E-2    2.835236839012132E-4   -1.525977061015339E-4   -2.649730381959459E-5    2.267466851869626E-4    5.611372318753804E-1   -7.919650581800546E-3
 1.100000000000000E7    -9.032900180878028E-1    1.730131300746116E-2    1.185336231757908E-4   -7.578569816335357E-5    8.959949048192001E-5    5.593934546666992E-5    5.542013578141118E-1   -9.063617408692213E-3
 1.200000000000000E7    -8.987261461699979E-1    9.022630442816886E-3   -5.667768067399836E-5    1.239788595032122E-5   -3.194504742946078E-4   -2.211556167001343E-4    5.632976488210986E-1   -1.011865990521090E-2
 1.300000000000000E7    -8.961436192357888E-1    2.827750827039520E-2   -6.085624670010806E-5   -1.150398376854732E-4    7.594696946746436E-5   -3.199086302166438E-5    5.613562113259625E-1   -1.676948840315372E-2
 1.400000000000000E7    -9.090858956409729E-1    1.902158320706778E-2    1.235277905734910E-4    1.069388750787478E-4    2.682370530840919E-4   -1.352525443145050E-4    5.652715691883595E-1   -1.546246227551337E-2
 1.500000000000000E7    -8.968076372219737E-1    1.879171315579421E-2   -7.570218680932388E-5   -2.420773964530796E-4    8.556387961750859E-5    3.924489616370620E-5    5.623287953925727E-1   -1.080866001535235E-2
 1.600000000000000E7    -9.033413364890641E-1    2.128810448471149E-2    1.560102069771857E-4   -1.081394449577205E-4   -2.088004439656555E-4   -3.828512155943238E-5    5.594572284749803E-1   -1.832725399108918E-2
 1.700000000000000E7    -8.997435383531667E-1    2.489461175820063E-2    1.285953623495932E-4   -3.450115073815927E-5    2.530598696513635E-4    2.664096055673234E-4    5.564142679904067E-1   -1.592907827545238E-2
 1.800000000000000E7    -9.046732416706065E-1    2.565498813130260E-2   -9.287349594423006E-5   -2.691839422241408E-5    2.901640310397930E-4    1.263353369950475E-4    5.573508472543782E-1   -2.140529344842025E-2
 1.900000000000000E7    -9.005128072292752E-1    3.154798523192848E-2    1.480707820058501E-4    2.630628022352860E-4   -4.658542249256525E-5   -1.730955007273751E-4    5.574079868038874E-1   -1.489250076857740E-2
 2.000000000000000E7    -9.002179013995509E-1    3.044015436975363E-2   -2.397018809424000E-5    1.460740540368540E-4   -2.135577779709032E-4    3.275206744938830E-4    5.649648369242637E-1   -1.680670161092485E-2
 2.100000000000000E7    -8.996440575973281E-1    3.766456557840428E-2    3.780211320459900E-5    1.325387303514447E-4    1.036773857403699E-4    4.672080998409499E-5    5.565325853234008E-1   -2.499751184867601E-2
 2.200000000000000E7    -9.082571669722140E-1    2.811525500440647E-2   -1.877346359099605E-4    4.011258678697344E-4    2.700971927983949E-4   -3.717583154446792E-4    5.587665896919470E-1   -1.261496215063281E-2
 2.300000000000000E7    -8.873096089455731E-1    3.304183242700551E-2    1.446434771894241E-4   -1.746173210976682E-4   -1.704535422874839E-4    1.601867962100390E-4    5.470796652661695E-1   -1.014831750973708E-2
 2.400000000000000E7    -8.908511775674364E-1    4.996365102661147E-2    1.089007015735105E-4    9.476828821757981E-5   -1.599375787503184E-4   -2.723734585350215E-4    5.579156159968226E-1   -2.106256344925257E-2
 2.500000000000000E7    -8.912514752602638E-1    3.911995329622295E-2   -1.850189404794938E-4    2.302319752893623E-5    4.832241793022703E-4    8.337636468356367E-5    5.527881977779211E-1   -2.156303638903419E-2
 2.600000000000000E7    -9.024095902533518E-1    3.818575069164867E-2   -7.493128240035755E-4    4.873065196234884E-4   -2.524589226255707E-4    5.791888020469215E-4    5.608192393789749E-1   -2.879318504343070E-2
 2.700000000000000E7    -8.996892838307270E-1    5.145639990761853E-2   -5.285326335271687E-4    1.057863708112283E-4    9.845910481523202E-4    1.942070768516029E-4    5.595009990696914E-1   -2.628340120603006E-2
 2.800000000000000E7    -9.020912164033889E-1    4.633025559775458E-2   -1.284677812151296E-4   -9.600736582918271E-5   -9.762787550112349E-5    2.460811162816225E-5    5.543308870909804E-1   -2.631827329806987E-2
 2.900000000000000E7    -9.016223760252320E-1    4.697115298523225E-2   -3.122346063270442E-4   -4.288812632263983E-4   -3.827378583982005E-4    1.131054566465046E-3    5.589158347585811E-1   -2.821558921891543E-2
 3.000000000000000E7    -9.015620277213809E-1    4.378611138357275E-2    5.704843259255201E-6   -3.527966743875446E-4    4.606915340517079E-4    3.877068582381593E-4    5.532129742381036E-1   -1.864415046294078E-2
 3.100000000000000E7    -8.974965016798659E-1    4.679960259771190E-2   -1.199614666381266E-4   -2.209526898760040E-4   -4.229236265640763E-4   -7.116065619770970E-4    5.560121870161893E-1   -2.607412341876841E-2
 3.200000000000000E7    -8.977109346636144E-1    4.922073080360925E-2   -1.624038035582949E-4    2.109327610710072E-4    1.840393451339531E-4    7.103670966383794E-5    5.591778085309390E-1   -3.654290135747825E-2
 3.300000000000000E7    -9.039203674862680E-1    5.354142304353950E-2    2.400030186166667E-4    3.425529781118417E-4   -3.636634373882932E-4    9.275672787709464E-4    5.578801394416139E-1   -2.861435264146458E-2
 3.400000000000000E7    -9.028260869425037E-1    5.064195685299209E-2    2.251169013234941E-4   -6.677667175636103E-7   -5.659845942589661E-4    1.982466075215804E-4    5.577790182533312E-1   -3.034468020560966E-2
 3.500000000000000E7    -8.974260464110271E-1    5.257561155710597E-2    1.998457720639259E-5   -1.809752506192031E-5    1.831423879326288E-4    3.131666936741384E-4    5.531309171629644E-1   -3.368818088501999E-2
 3.600000000000000E7    -9.034111315055016E-1    5.140702614938938E-2    2.168183861787755E-4   -2.781540175586109E-4   -2.750817510864644E-4    6.597889105215388E-4    5.596721767472628E-1   -2.905764841389935E-2
 3.700000000000000E7    -8.984867178132159E-1    5.516574129171297E-2    2.009556895981776E-5    1.359342456572610E-4   -1.556050759170374E-4   -2.922439203428918E-4    5.564066822666154E-1   -3.381537642171264E-2
 3.800000000000000E7    -8.997207624557267E-1    5.738915065058359E-2    1.977115454769889E-4   -2.924828459597334E-4   -2.152247524410195E-4    6.937071044618180E-6    5.545989169057248E-1   -3.216237775224108E-2
 3.900000000000000E7    -8.985998750374415E-1    5.869361913500633E-2    1.759175963756564E-4    4.262502563035578E-4    4.897115887413336E-4    5.222082511868096E-4    5.589640034804609E-1   -2.745114425850859E-2
 4.000000000000000E7    -8.986781756837630E-1    5.887437186440921E-2   -1.710043480665023E-4    1.937002226235148E-4    7.063576763540007E-4    1.408138531034179E-5    5.627667456779896E-1   -3.925408020103004E-2
 4.100000000000000E7    -9.038615687080137E-1    6.107834827593053E-2    2.221827553450830E-5   -3.789730367718389E-4   -1.639661357780877E-4    8.016396591646588E-4    5.540902597883554E-1   -3.506475717948163E-2
 4.200000000000000E7    -9.007789781916532E-1    6.707390269870349E-2    3.320706709269647E-4    1.410788611434872E-4   -2.908034495392045E-4    4.556613599576862E-4    5.595588494428235E-1   -3.309815111109370E-2
 4.300000000000000E7    -8.972630334272730E-1    7.098475562303937E-2   -2.787612587199321E-4    6.588438266322556E-4    6.129359003200108E-4   -4.523867892282218E-4    5.556802032925054E-1   -3.892592734887346E-2
 4.400000000000000E7    -8.958621881401870E-1    6.679769483924523E-2    2.376364122225738E-5   -3.931036102409774E-4    5.780552688985287E-4   -7.769902009056591E-5    5.560791199940800E-1   -3.926635482098358E-2
 4.500000000000000E7    -8.971540376908907E-1    6.453599857080872E-2    2.439172995201071E-4   -5.730421908172287E-4    7.101544622687180E-4   -4.293131615684419E-4    5.508670105276076E-1   -4.090034704464816E-2
 4.600000000000000E7    -8.954733515821518E-1    7.446362156370652E-2   -4.802140688507319E-4   -4.894509187500320E-4    3.002617805984480E-4   -2.964167475116399E-5    5.606445342419110E-1   -3.958975922574944E-2
 4.700000000000000E7    -8.962881588256302E-1    6.832546287055717E-2    1.750679739814301E-4   -2.009132702611928E-4   -7.318158809318445E-5   -4.221502019385077E-4    5.531094587470247E-1   -4.079166967712301E-2
 4.800000000000000E7    -8.965738107223747E-1    6.719576774934874E-2    3.804161112433299E-5    2.324616444300439E-4   -1.835500464027333E-4   -1.593905393798322E-4    5.534553071734476E-1   -4.381416726605911E-2
 4.900000000000000E7    -8.994202583830040E-1    6.795063301920401E-2    3.052441232098860E-4   -2.730760925429742E-4   -9.446055785964678E-5   -1.419653853120736E-5    5.529986142698489E-1   -4.021293762481936E-2
 5.000000000000000E7    -8.980535092261557E-1    6.944643036148519E-2   -3.230539151657757E-4   -1.837072356837273E-4   -5.580606480799344E-4    2.869077186059751E-4    5.534851183450746E-1   -4.485866381629001E-2
 5.100000000000000E7    -8.949871038076397E-1    7.190811248610791E-2    1.961630975110381E-4   -5.014857411338398E-4    4.557007147361221E-4   -4.087870983881869E-4    5.568013699703190E-1   -4.550756559001670E-2
 5.200000000000000E7    -8.976950014280560E-1    7.568828449431139E-2    1.253218679996674E-4   -2.978569536145222E-4    4.868245966271572E-5    5.941350260066326E-4    5.558044005555706E-1   -4.553477596669832E-2
 5.300000000000000E7    -8.934971209279678E-1    7.644194963488349E-2    1.050624520002737E-4    1.354656276192658E-4    6.573333220536028E-5   -2.982225478579724E-4    5.540336797996477E-1   -4.718724523652508E-2
 5.400000000000000E7    -8.967899537273680E-1    7.754135079743890E-2    2.098848420447465E-4    6.253490491580572E-4    7.776517061345736E-4    3.592152778512945E-4    5.592472630478643E-1   -4.947969776701665E-2
 5.500000000000000E7    -8.942543178457243E-1    8.148184509993388E-2   -8.389459110591006E-4   -3.066881999337023E-4   -6.741188146063247E-4    4.322072651475517E-4    5.561690534744244E-1   -5.444446047972977E-2
 5.600000000000000E7    -9.036529176917011E-1    8.263616403698015E-2    1.814568528147936E-4   -4.314604325398761E-4    1.459022028374536E-4    4.379303935703046E-4    5.567301850202308E-1   -4.613275109582640E-2
 5.700000000000000E7    -8.943134933201716E-1    8.127774622374379E-2   -1.351921864619770E-4    3.596519209628407E-6    2.448946590012765E-4   -5.808586879161997E-4    5.538022463808906E-1   -4.907045730243807E-2
 5.800000000000000E7    -8.902539553061489E-1    9.006275758754653E-2   -3.590275423025668E-4    9.024439269021137E-5    6.542224824529351E-4   -7.378795673573983E-5    5.527053205063801E-1   -4.439600379602351E-2
 5.900000000000000E7    -8.962393284502729E-1    8.249441349090002E-2   -3.692402007477043E-4    1.430911576842293E-4    3.240910277286255E-4   -1.915974993346786E-4    5.596643485880620E-1   -5.060975623470516E-2
 6.000000000000000E7    -8.958338420328749E-1    8.115679112003520E-2   -2.305441180097814E-6    5.125760129339439E-4    3.896288421060292E-5   -2.023083784394997E-4    5.508566594838648E-1   -5.108131257139571E-2
 6.100000000000000E7    -8.931999244618051E-1    8.975557732428431E-2    1.269941891897790E-5   -1.794993076346848E-4   -1.678410923172763E-4    5.290191766475496E-4    5.513884601370479E-1   -5.157201386707572E-2
 6.200000000000000E7    -8.908834854960954E-1    9.353194585310481E-2   -2.035680927425144E-4   -4.557786557452058E-5   -2.097114545277269E-4   -3.046374972198219E-4    5.517905892305810E-1   -5.067914222404093E-2
 6.300000000000000E7    -8.926911055588341E-1    9.026015205284796E-2    5.547282130463382E-4   -2.190155091605442E-4   -9.466001319957913E-5   -1.015928377826914E-4    5.564355857146329E-1   -5.095218496283444E-2
 6.400000000000000E7    -8.934419225556506E-1    8.714170342129302E-2    1.195360593211370E-4    1.284534711688043E-4   -2.080532621411902E-4    4.063893172450860E-4    5.519035467745935E-1   -5.621003106075855E-2
 6.500000000000000E7    -8.900949390623838E-1    9.389445456995396E-2    3.225009773409582E-4    2.039357698444441E-4    3.458967378188276E-5    8.254723881411714E-4    5.505588318783916E-1   -5.865273402604632E-2
 6.600000000000000E7    -8.867493906696577E-1    9.519033444140997E-2   -1.469946766887294E-4    3.534555072236571E-5   -5.321772037899008E-4    7.679841308301214E-4    5.541373354630658E-1   -5.327276917490663E-2
 6.700000000000000E7    -8.927912736846942E-1    9.195592270061616E-2   -5.832559709289711E-5   -3.204981258304207E-4    1.639839740730392E-4   -4.825501056892254E-4    5.501928701685012E-1   -5.901013768956587E-2
 6.800000000000000E7    -8.909676581732128E-1    9.382799078984137E-2   -4.795735408298759E-4   -5.053120563400723E-5    2.194272281088637E-4    3.556674486106783E-4    5.539812540717904E-1   -5.633462794050596E-2
 6.900000000000000E7    -8.927957509955449E-1    1.006953327382991E-1    1.605957617376056E-4    1.701834644809674E-4    1.798391536404691E-5    2.837208632144574E-4    5.528390852856258E-1   -5.922213970937406E-2
 7.000000000000000E7    -8.908364912223684E-1    9.479203315573914E-2    6.466361024113761E-4    4.648503574851620E-4    8.788158929759775E-4   -6.321459186158399E-4    5.527780569939643E-1   -5.743888015811594E-2
 7.100000000000000E7    -8.993126277088050E-1    9.918654118579873E-2   -4.121866484014866E-5   -5.127772227951425E-4   -2.170193235867639E-4    7.778950407566145E-4    5.538407809645887E-1   -6.275649496990897E-2
 7.200000000000000E7    -8.880391306819032E-1    1.007422026476593E-1    1.190646065034436E-4    1.624301467566299E-4   -6.826145187393036E-4    4.391916965113062E-4    5.544708452259918E-1   -6.618013845523939E-2
 7.300000000000000E7    -8.917558079982951E-1    1.019746026382148E-1   -6.647915670650285E-4   -2.181873985835070E-4   -5.532052446518438E-4   -2.837429788218683E-5    5.505243843433709E-1   -6.086473015166090E-2
 7.400000000000000E7    -8.869854321068977E-1    1.011194204220496E-1    2.700023031718638E-4   -1.295881853916571E-4   -3.803083938321324E-4    6.795812559126731E-4    5.525917451931960E-1   -6.308017473257231E-2
 7.500000000000000E7    -8.927807050371160E-1    1.018067216859717E-1   -1.050925663923429E-4   -4.925433061812822E-4    2.774144131818969E-4    6.254045756424382E-4    5.467983876397533E-1   -6.448235163425224E-2
 7.600000000000000E7    -8.896997641559250E-1    1.106190179272570E-1    2.796926884946532E-4   -6.804413324944566E-4    7.541703063232058E-4    2.101928578712493E-4    5.494827738524245E-1   -6.171290252762456E-2
 7.700000000000000E7    -8.937057915244779E-1    1.063467686532230E-1    9.387480619683305E-5    5.565047855173196E-4   -7.928803051675960E-5   -1.097623572013421E-4    5.524959934191270E-1   -5.883775207132845E-2
 7.800000000000000E7    -8.900078995180841E-1    1.120025245034129E-1    7.212644061949095E-4    9.334221905415446E-5    3.649614657829623E-4   -2.685814068223985E-4    5.528688789164500E-1   -6.656171012417841E-2
 7.900000000000000E7    -8.867241148065489E-1    1.134542997416636E-1    4.986048257230269E-4   -1.722388980454454E-4    1.149071035313624E-3    1.350454974757660E-4    5.488557657060866E-1   -6.644789927657190E-2
 8.000000000000000E7    -8.913963983161215E-1    1.132803925871206E-1    3.673705052589387E-4   -1.230092712187255E-5   -2.904346974114468E-4    4.537246903691235E-5    5.514747785064734E-1   -6.603744849271771E-2
 8.100000000000000E7    -8.852445606225262E-1    1.125261613323071E-1    3.402030721266543E-4   -1.497369805864236E-4    4.305013245614029E-4    2.725319159004700E-4    5.512773036556731E-1   -7.091099430780001E-2
 8.200000000000000E7    -8.898771222299184E-1    1.105306410952377E-1   -1.034566378905762E-4   -3.282080409523132E-4    1.981526191004283E-5    4.417760716633648E-5    5.515977526289979E-1   -6.917692702045405E-2
 8.300000000000000E7    -8.874868143726109E-1    1.171687027719218E-1   -1.868840382999523E-5    1.057814291687438E-4   -6.548971598238785E-4    9.424294005271579E-5    5.529359530069724E-1   -7.354464024711201E-2
 8.400000000000000E7    -8.841968779755575E-1    1.147755083751355E-1    3.533027616101254E-4   -2.945167818807036E-4   -2.535214672375486E-4   -4.627139724901474E-4    5.517150779256978E-1   -7.310948708108202E-2
 8.500000000000000E7    -8.874796930869367E-1    1.115933969836538E-1    4.476109961659484E-4   -1.112609321493934E-4    5.141180925645364E-4    2.512389172314822E-4    5.534126890461800E-1   -6.719193694622073E-2
 8.600000000000000E7    -8.836169023401758E-1    1.237244601238103E-1   -1.685680536745519E-6    2.934502893976874E-4    2.577016895487367E-4    3.379361349864897E-4    5.514144979958111E-1   -7.149672607811842E-2
 8.700000000000000E7    -8.904641792936392E-1    1.197983102754564E-1    4.016174883673220E-4    1.905554808199272E-4    2.746200003466484E-4   -2.966767217799259E-5    5.506806698264916E-1   -7.173878663882552E-2
 8.800000000000000E7    -8.902529706440568E-1    1.255278072750151E-1    7.217015969876941E-5   -5.839593845656135E-4    3.232707134620093E-4   -7.892063768483917E-4    5.454830729492819E-1   -7.357559853462002E-2
 8.900000000000000E7    -8.865467798568513E-1    1.237761600066373E-1    3.752561340413604E-4    1.215559854475810E-4    8.242489610979438E-5   -4.319027729865324E-5    5.469431080154769E-1   -7.522172677668305E-2
 9.000000000000000E7    -8.854776654069246E-1    1.218120429112748E-1   -2.348544894410066E-4   -5.892024652269907E-4   -6.906572443287843E-4    8.840706594467387E-4    5.501022847619818E-1   -8.012895504234262E-2
 9.100000000000000E7    -8.865499461213899E-1    1.292371942383317E-1   -3.971850758003149E-5   -2.504709995485138E-4   -4.044910380595038E-4    1.164119625549398E-4    5.485902375228049E-1   -7.522241413337381E-2
