#  HZ   S   RI   R     50.00 
! Rohde & Schwarz Vector Network Analyzer 
! Rohde-Schwarz,ZNBT8-20Port,1318700624101681,3.50
! Created: UTC 7/15/2025, 2:08:02 PM
! freq[Hz]                re:S1010                im:S1010                re:S0510                im:S0510                re:S1005                im:S1005                re:S55                  im:S55
 1.000000000000000E6    -8.202416713736830E-1    3.612267550224538E-3    7.246243057455507E-5   -3.183331818796442E-4    7.172935964641744E-5   -1.729281570301478E-4    5.559136723121255E-1    1.768380822363170E-2
 2.000000000000000E6    -8.173950782013505E-1    5.443217447005011E-4    7.171201007099958E-5    3.107918422882591E-4    9.722992786060024E-5    1.285209569362122E-4    5.617380019809253E-1    6.435322857434504E-3
 3.000000000000000E6    -8.295441046164819E-1   -2.237743251618660E-3   -3.818231538994506E-5   -5.983864793866538E-5    5.886062433681111E-5   -1.493300171735981E-4    5.608144209944947E-1    7.988555995119769E-3
 4.000000000000000E6    -8.359817413364035E-1    3.929145917082886E-3    5.823862666267455E-4   -4.108703176395408E-4    2.874544098566888E-4   -1.425417164461487E-4    5.554821480998164E-1    6.398938651412524E-3
 5.000000000000000E6    -8.144025115851221E-1    1.228554860006629E-2    5.021344407568795E-5   -3.601993013406569E-4   -1.763761517194305E-4   -5.161866346571806E-5    5.545866086546742E-1    3.459060490031903E-3
 6.000000000000000E6    -8.265775762102173E-1    1.925882501378789E-2   -6.675737264611386E-5   -7.458801575991015E-5   -1.978906479279544E-4    7.140543832305727E-6    5.613149864029522E-1    4.411242455253254E-3
 7.000000000000000E6    -8.321366469878225E-1    2.031465768908140E-2   -2.195741263090580E-4    2.477465004260603E-4    1.152336061368711E-5    2.035273757529955E-4    5.621542208481937E-1   -2.303698849476300E-3
 8.000000000000000E6    -8.188062254873777E-1    3.274407729836089E-2   -2.793782478953705E-4    1.419962907191491E-4    1.415907045652955E-4    9.427191659013996E-5    5.602454338556087E-1   -4.463797399254306E-3
 9.000000000000000E6    -8.331188772828586E-1    3.090991123132097E-2   -4.112193244203083E-4   -2.869370780489932E-4    2.207026360112022E-4   -2.491207034466717E-4    5.588542954806859E-1   -7.092804802811456E-3
 1.000000000000000E7    -8.253920794446050E-1    5.134505691941369E-2   -1.841305971616480E-4   -1.644320634148876E-4    7.228267310427730E-5    6.194941680381668E-5    5.557550750814202E-1   -4.393774814259549E-3
 1.100000000000000E7    -8.285091817219670E-1    4.270218494037754E-2    1.551707424429695E-4   -2.137662012949758E-4   -1.428543904640151E-4    5.119995767707581E-5    5.627261371191619E-1   -5.451162873605104E-3
 1.200000000000000E7    -8.256068206334339E-1    4.445220275970371E-2   -3.001578702281282E-4   -2.410445500559565E-4    1.195248825367259E-4   -2.407634664601624E-4    5.579750504942881E-1   -7.060332895153641E-3
 1.300000000000000E7    -8.147202029553818E-1    6.077736620917257E-2    1.222936855930716E-4    1.737804620091517E-4    2.330305559047110E-4   -2.279216256576544E-4    5.660704970388166E-1   -1.788966461695484E-2
 1.400000000000000E7    -8.223557032548764E-1    6.799518657189423E-2    3.436251275877463E-4    3.509955798576821E-4    2.954398286436706E-5    2.944368206401954E-5    5.567648750501140E-1   -1.392189704413172E-2
 1.500000000000000E7    -8.221993993768253E-1    6.634227891860893E-2   -3.587993643774047E-5    2.197847143956716E-4   -7.036765728961320E-5   -2.159820839235604E-4    5.624923086885690E-1   -1.499156365512844E-2
 1.600000000000000E7    -8.280574073249850E-1    7.105478459915537E-2   -7.937253932559454E-5   -1.484982958164749E-4    4.895038029730911E-4   -1.191114863854257E-4    5.630737564673501E-1   -2.103381544050533E-2
 1.700000000000000E7    -8.241910836327503E-1    7.895605335958129E-2   -1.237147018151829E-4   -2.768083968514214E-4    3.691073661341258E-4    2.113206407327816E-5    5.622829138216990E-1   -1.238505125089157E-2
 1.800000000000000E7    -8.232710990934363E-1    7.060678196835581E-2   -3.684863523561968E-5   -2.401148174356170E-4   -7.149452562104771E-5   -2.855533146315213E-4    5.605961028173422E-1   -1.905000467901702E-2
 1.900000000000000E7    -8.150135731088551E-1    7.887972106201814E-2   -1.041432039460617E-6   -8.877564556063792E-6    8.194571233494945E-5    2.454348441948970E-4    5.561318039599240E-1   -2.236722052511922E-2
 2.000000000000000E7    -8.191661997744271E-1    9.018092529084151E-2    3.579634832941257E-5    2.768167033549501E-6    3.992331997212986E-5   -6.747277380973583E-5    5.637076283370167E-1   -2.496739183380140E-2
 2.100000000000000E7    -8.232258743801829E-1    9.162856142668425E-2   -2.201633200607355E-4    1.398268499764934E-4   -1.684037698286174E-4    2.951584907530699E-5    5.587597479840034E-1   -2.627507882896676E-2
 2.200000000000000E7    -8.174381242693461E-1    9.318176606171112E-2   -7.728357690047288E-5   -1.920144619183571E-5    8.054431824374553E-5   -2.984311018717581E-4    5.603928480018243E-1   -1.911477529968179E-2
 2.300000000000000E7    -8.182827619826906E-1    9.126470358420172E-2    3.586804495025414E-4    1.156769699435549E-4   -1.362818501152541E-4    2.284677281841912E-5    5.588329259636300E-1   -1.203042328620037E-2
 2.400000000000000E7    -8.257558236126984E-1    1.009545759080688E-1    7.800923681449699E-5   -1.630868350826993E-5    8.296433475417588E-5    1.995210317355388E-4    5.590410165231715E-1   -1.956408939967806E-2
 2.500000000000000E7    -8.091588374226618E-1    1.026666942197155E-1    1.383690914658650E-4    6.376570715812952E-5   -2.484724113235813E-4    1.910533190160848E-4    5.682977200568557E-1   -2.833086271307833E-2
 2.600000000000000E7    -8.130357335226354E-1    1.054815973409891E-1   -1.298563335564939E-4   -1.058769095686247E-4    1.215524237668113E-4    1.175643402709060E-6    5.571838517259567E-1   -8.444592278088955E-3
 2.700000000000000E7    -8.177362218898847E-1    1.163270430974387E-1   -1.481888462122674E-4   -6.247743856886266E-4   -9.971491569036080E-5    3.388756604429265E-4    5.629366930253703E-1   -1.542076002671970E-2
 2.800000000000000E7    -8.151365582452995E-1    1.150868618074468E-1   -1.864256963542752E-5    1.898667097584701E-4   -1.753570886021657E-4   -1.834188673818140E-4    5.606511754550464E-1   -1.286930069832153E-2
 2.900000000000000E7    -8.137975062651315E-1    1.275423175080726E-1   -5.287934621548368E-4    1.682825489301258E-4    7.121196983066578E-4    2.169989277814424E-4    5.611905004154204E-1   -1.437315179643018E-2
 3.000000000000000E7    -8.162098037336932E-1    1.256686757430292E-1   -4.860984513769618E-4    4.948766571430958E-4    2.559469669356738E-4   -1.410511513227990E-4    5.577890502284618E-1   -1.405172864614980E-2
 3.100000000000000E7    -8.175623481035276E-1    1.196275844379606E-1    2.265369407452764E-4   -2.014651371060966E-4   -1.131084517457440E-4    6.594527394395820E-4    5.563864006300974E-1   -1.413304937170812E-2
 3.200000000000000E7    -8.114355621746476E-1    1.267724034004166E-1   -5.838009850144154E-5    1.583682790964156E-4    4.656457780920892E-4   -2.202620017738474E-4    5.583342759489623E-1   -1.594349233811615E-2
 3.300000000000000E7    -8.125053229679101E-1    1.370409582653007E-1    5.286571971180898E-4    4.840551691205558E-5    1.697357344511751E-5   -4.755553020257346E-4    5.577656433410435E-1   -1.377530152894987E-2
 3.400000000000000E7    -8.099501117181267E-1    1.408287063035693E-1   -2.450999767978459E-4    4.279035019543431E-5    3.609974785212818E-4   -8.113160504641448E-5    5.584884647632368E-1   -1.669216038078021E-2
 3.500000000000000E7    -8.107892646508174E-1    1.462650493687269E-1    4.714600719499024E-4   -6.058803485010819E-4    6.293169912372741E-5    9.267933423823522E-4    5.588829848578193E-1   -1.511045224045000E-2
 3.600000000000000E7    -8.156205413677579E-1    1.492109907056492E-1    4.396288710136013E-4    8.866171304724158E-5   -2.455582069063528E-4    4.926446373808403E-4    5.534712547679832E-1   -2.401888732483850E-2
 3.700000000000000E7    -8.088347023048903E-1    1.488574086033177E-1   -3.668256227500745E-4    4.564200521012014E-4   -4.724509933136280E-4   -4.317166169641590E-4    5.570558106219518E-1   -1.541148585636381E-2
 3.800000000000000E7    -8.080384565809922E-1    1.516899837355401E-1    4.890733248203580E-5   -2.015080607307432E-4    8.330470881984174E-5    3.256911838247467E-5    5.547247156885415E-1   -1.824941102051799E-2
 3.900000000000000E7    -8.119944430504907E-1    1.591109005187618E-1   -2.119028533382441E-4   -9.464079607998012E-5   -7.769764047584189E-5    3.359864546567719E-4    5.558423238513585E-1   -2.181614702951148E-2
 4.000000000000000E7    -8.084413886379251E-1    1.621725780565111E-1   -1.109738433506586E-4    1.223242734108108E-4   -2.608297028608810E-5   -8.346327593400928E-4    5.518688052477413E-1   -1.361181707741134E-2
 4.100000000000000E7    -8.043492871122522E-1    1.698445805578532E-1   -6.932495926894233E-5    6.656527410721133E-5    2.271427775632883E-6    3.819933543013798E-4    5.554553780419855E-1   -2.244600212389355E-2
 4.200000000000000E7    -8.062663485887597E-1    1.690672526756783E-1    5.430515884501995E-5   -1.217070881856219E-4    5.545960102452172E-5   -1.047871001253421E-4    5.545664448362863E-1   -2.397871544148779E-2
 4.300000000000000E7    -8.064316999099462E-1    1.728470615203699E-1   -8.105086144337211E-5    7.393319145141984E-4    1.751961774714822E-4   -6.037552432504745E-4    5.586059439405497E-1   -2.718980706757505E-2
 4.400000000000000E7    -8.064457510260458E-1    1.772239594444765E-1   -1.363142884687420E-4    2.475370229417107E-4   -4.313202985045620E-4   -3.100482964052344E-4    5.590800649984367E-1   -2.452242225106689E-2
 4.500000000000000E7    -8.030863566936843E-1    1.838352676353474E-1   -3.251764874780896E-4   -1.024210698539114E-4   -2.226113239680126E-4    3.734032224105738E-4    5.521833498290525E-1   -2.092521323189820E-2
 4.600000000000000E7    -7.977851603973969E-1    1.879018503994757E-1   -1.377972499426142E-4    4.600280082341656E-5    8.027381043072303E-5    5.374032385785357E-4    5.522055062409357E-1   -2.822197614448101E-2
 4.700000000000000E7    -8.018220761504271E-1    1.932816258172096E-1    2.090026648959618E-4    5.123889568237434E-5    1.292235562307481E-5    3.809941562606961E-4    5.592962876551096E-1   -2.910238562728673E-2
 4.800000000000000E7    -7.983317229927200E-1    1.883264446671581E-1   -2.656057257463347E-5    1.794992314301978E-4   -8.949869961591369E-5   -9.509873583680444E-5    5.597416971712917E-1   -2.523512607625902E-2
 4.900000000000000E7    -8.021668560085529E-1    1.958845218514222E-1   -3.850067508596388E-4   -4.807660381723323E-4   -2.253574231982543E-4   -1.290307868500810E-4    5.521836209326456E-1   -2.945395361135872E-2
 5.000000000000000E7    -7.958783920006832E-1    2.019761659210105E-1   -4.893286941168213E-4    3.427281840450870E-4    7.031568439024950E-5    5.607665240349346E-4    5.553615538858495E-1   -2.991780540916223E-2
 5.100000000000000E7    -7.900572466747086E-1    2.057115820699241E-1   -6.808761908909093E-5    1.947019155493034E-4    2.337682160895613E-4    1.846522062000708E-4    5.521435497319880E-1   -3.370398253959003E-2
 5.200000000000000E7    -7.909791102014311E-1    2.092862163423281E-1    1.276184970674650E-4   -1.353108162363520E-4    1.876910528564104E-5   -1.193669549230584E-4    5.514213489323208E-1   -3.452732555741221E-2
 5.300000000000000E7    -7.892917382197168E-1    2.195859348043803E-1    2.794794445807811E-4    2.753073729752573E-4   -7.229296730672291E-4   -7.588147461402717E-5    5.579646732362995E-1   -3.722859041750869E-2
 5.400000000000000E7    -7.855648825882591E-1    2.198086660003401E-1   -3.627458322123019E-4   -2.307491146961714E-5    3.737953690576761E-4    7.976343337402116E-5    5.529510273016918E-1   -3.806517118673444E-2
 5.500000000000000E7    -7.896529270496544E-1    2.209116879423896E-1    2.221202322283331E-4   -1.720115560010801E-4    1.311736762262117E-4    7.098747041589693E-5    5.509325433080012E-1   -3.797551641901248E-2
 5.600000000000000E7    -7.870137162088668E-1    2.257872036646732E-1   -3.037813877602634E-4   -1.909820416538947E-4   -2.713508297192505E-4   -2.068328661321250E-4    5.555924507764209E-1   -3.990993039773993E-2
 5.700000000000000E7    -7.858834791415626E-1    2.261588653341747E-1   -5.079624518313735E-4   -4.091922646551440E-5   -3.422082227965867E-4    6.235627806155588E-4    5.524590141545220E-1   -4.326352076326304E-2
 5.800000000000000E7    -7.852288151654064E-1    2.293179553104966E-1   -7.794720850671577E-6    7.708381162511093E-5    8.637212277820070E-5    5.836110590330904E-4    5.571746095669442E-1   -4.220001982199386E-2
 5.900000000000000E7    -7.883007699487785E-1    2.341696060499976E-1   -1.848925323744927E-4    2.183921256354874E-4    4.971344651552309E-4    4.426829364717597E-5    5.550572157907094E-1   -4.436876479960140E-2
 6.000000000000000E7    -7.830549915193515E-1    2.353632714385866E-1    2.771155345071678E-4   -4.260240952894074E-4   -3.500232988851444E-4   -7.625483917071754E-4    5.547780705829342E-1   -4.637070673150052E-2
 6.100000000000000E7    -7.776297009513379E-1    2.408181637762114E-1   -1.898459395004486E-4   -1.143146456754581E-4   -6.562833296399079E-4   -1.167908550108948E-4    5.503754239765994E-1   -4.763983627091849E-2
 6.200000000000000E7    -7.818078797115972E-1    2.496562171945421E-1   -8.593814553745165E-5   -5.577349398537913E-4    3.946165020463829E-4    2.885122700650039E-4    5.564038048674628E-1   -4.899225183678429E-2
 6.300000000000000E7    -7.758579748790650E-1    2.549522992196500E-1   -1.051429130891471E-5   -2.962965001734111E-5    3.430459314545307E-5   -1.095254597106957E-4    5.527451011993477E-1   -5.109608659598912E-2
 6.400000000000000E7    -7.743168145541298E-1    2.513228177352247E-1    1.638266455930245E-4   -4.174436308346182E-4    2.482473149972618E-4    3.092867625628734E-4    5.532535069037484E-1   -5.544552591620254E-2
 6.500000000000000E7    -7.745034564417950E-1    2.624361773143170E-1   -2.558576601522110E-4    2.791128151891904E-4    8.492011402961747E-4    3.730403023488843E-4    5.534208842946829E-1   -5.382500205197783E-2
 6.600000000000000E7    -7.711991215424581E-1    2.630701850933227E-1    2.307490119728820E-4    5.180042689403738E-5    6.107351743860084E-4    4.221065368303352E-4    5.510611637579073E-1   -5.574965191219936E-2
 6.700000000000000E7    -7.733307734345872E-1    2.683332691170536E-1    1.816556305061588E-4    1.285300229013944E-4   -7.243496482243831E-4   -5.862473774572675E-5    5.526468878848455E-1   -5.617110885916782E-2
 6.800000000000000E7    -7.688684085707367E-1    2.693254886048543E-1    2.138356327548288E-5   -2.244619700640131E-4    8.942164260977512E-4    7.496720735946036E-4    5.557609378552061E-1   -6.018812687282294E-2
 6.900000000000000E7    -7.671170161154315E-1    2.726811737824929E-1    4.814478354056619E-4    2.346153327433949E-4   -4.853737685742779E-4   -2.635687083819108E-4    5.530418604882238E-1   -6.018263800886334E-2
 7.000000000000000E7    -7.698947823543353E-1    2.760609233285029E-1    2.359056758059541E-4   -3.190501650418998E-4   -9.530232044149682E-4    7.643391423301448E-4    5.515336182705265E-1   -6.066041133023645E-2
 7.100000000000000E7    -7.693529202631648E-1    2.835161231015976E-1    5.934095264515352E-4   -4.691147003391366E-4    1.869876570624606E-4   -4.526065311454185E-5    5.562311148161611E-1   -6.156665523891099E-2
 7.200000000000000E7    -7.648284902320913E-1    2.868959123914743E-1   -1.078258087152144E-4    1.405562063114261E-5    7.734577795098182E-4   -3.882435529113568E-4    5.545642666503264E-1   -5.824627172634804E-2
 7.300000000000000E7    -7.668412824259012E-1    2.868899502879607E-1    1.900048729027044E-4   -9.233603866912159E-5    1.190900600887213E-4   -3.526243414426131E-5    5.520596938954394E-1   -6.308383146755268E-2
 7.400000000000000E7    -7.610487301524074E-1    2.948583068235059E-1   -4.611024795510426E-4   -2.036488800680727E-4   -1.346405253528800E-4    1.716027683228907E-4    5.492795372434551E-1   -6.247814819871544E-2
 7.500000000000000E7    -7.583933847051123E-1    2.898796798348935E-1    7.771150249482127E-5   -4.926118821346799E-5    6.858718899726393E-4   -3.046480319961265E-4    5.509870180365405E-1   -6.455445264913946E-2
 7.600000000000000E7    -7.561717004197728E-1    3.031214094656688E-1   -3.805729946257152E-4   -3.879161794738527E-4    3.638313519292022E-4    3.877240689306717E-4    5.494220225930588E-1   -6.780509136639964E-2
 7.700000000000000E7    -7.586782948823668E-1    3.041137656340538E-1   -4.408110743311541E-4    1.948745167809233E-5    3.907962769675272E-4    1.942735150554609E-4    5.517217381630001E-1   -6.507431917116971E-2
 7.800000000000000E7    -7.582257588189284E-1    3.073078914836895E-1    4.505268466323794E-5    7.954888135049681E-5    1.024056723616152E-4    5.500998291730049E-4    5.517725288241986E-1   -6.787947286891617E-2
 7.900000000000000E7    -7.533136223541235E-1    3.068921043877350E-1    1.668564380963694E-4    3.738794409650177E-4   -3.257198871166435E-4   -4.374623864764414E-4    5.495364064233689E-1   -7.055250329623598E-2
 8.000000000000000E7    -7.522518176062230E-1    3.173557261834077E-1    1.349816809386925E-4    1.634654862671781E-4   -2.066120346505184E-4   -1.033503266899164E-4    5.514565140035685E-1   -7.119288195467076E-2
 8.100000000000000E7    -7.488956072447803E-1    3.144006765229349E-1    5.148179158487702E-4   -2.380349797144543E-4   -1.341124125133806E-4    1.572120694412167E-4    5.541572616077532E-1   -7.122738842996734E-2
 8.200000000000000E7    -7.474600183881777E-1    3.143434191941264E-1   -4.058400678671074E-4    2.470625589821853E-4   -1.551938923641257E-4   -4.863856998273481E-4    5.523683488961763E-1   -6.822041884726862E-2
 8.300000000000000E7    -7.448833273336387E-1    3.222623195407451E-1    2.908016793533047E-4    1.161837492030880E-4   -4.393693788841958E-5    3.674552313892485E-4    5.521008245755794E-1   -7.523822252583121E-2
 8.400000000000000E7    -7.477063311604063E-1    3.272704135196276E-1    3.513293808533677E-4    1.347830520875572E-5    1.738437588400237E-4   -2.387465473749593E-4    5.524875321286992E-1   -7.169996056809524E-2
 8.500000000000000E7    -7.413245577307380E-1    3.272879175778338E-1   -5.036019248727512E-4   -2.359194934289464E-4    6.542940288669279E-4   -3.953534625473515E-4    5.496847319781627E-1   -7.427068015140466E-2
 8.600000000000000E7    -7.355479192657328E-1    3.368794013025448E-1    1.525712076240787E-4    3.561758221963580E-4    8.518342109297065E-5    3.113168373901318E-4    5.496172352463295E-1   -7.839372234655884E-2
 8.700000000000000E7    -7.374420941568266E-1    3.388272157449653E-1    3.127208884904093E-5   -5.498385160738277E-5    7.501994260161397E-4    9.145382665522956E-5    5.541047677652754E-1   -7.357301033441917E-2
 8.800000000000000E7    -7.336929413801051E-1    3.456140746291071E-1   -1.281779230468310E-4    1.176874472057149E-4   -3.331247376482816E-4    4.522172169008054E-4    5.505664236802686E-1   -7.520139115427002E-2
 8.900000000000000E7    -7.321691737930788E-1    3.487870960899424E-1    2.391406671382174E-5    1.363558986465494E-5    4.568588391008506E-4   -1.796309418190640E-4    5.571771342004371E-1   -7.924611256281547E-2
 9.000000000000000E7    -7.339738893360774E-1    3.505636216811342E-1   -2.865980375678300E-4    1.364263255067883E-5   -8.644856964296397E-5   -1.196683497884086E-4    5.494915024280526E-1   -8.136139194069117E-2
 9.100000000000000E7    -7.324063184347990E-1    3.566437888347077E-1    4.419500087034985E-4   -1.085045035017955E-4    2.959918566356783E-4   -1.458770246674091E-4    5.543092132591523E-1   -7.866916758557403E-2
