#  HZ   S   RI   R     50.00 
! Rohde & Schwarz Vector Network Analyzer 
! Rohde-Schwarz,ZNBT8-20Port,1318700624101681,3.50
! Created: UTC 7/15/2025, 2:12:36 PM
! freq[Hz]                re:S1010                im:S1010                re:S0510                im:S0510                re:S1005                im:S1005                re:S55                  im:S55
 1.000000000000000E6    -8.958937230196062E-1    1.626076828917798E-3    3.286215267913306E-4   -8.673102589071352E-5   -1.411302780207761E-4    9.882783549863856E-5    9.784074943377593E-1    2.707178166097352E-2
 2.000000000000000E6    -8.924630454674017E-1   -1.863147477906584E-2    1.911323154046688E-4    3.789084675137407E-5    1.937323025369973E-4   -2.384326123751037E-4    9.747998921304153E-1    6.943586578228069E-3
 3.000000000000000E6    -8.996482085627483E-1    3.060567768284865E-3    6.422377925777490E-5   -3.050201070622998E-5   -2.975928325111142E-5    1.603520234470949E-4    9.788126667856317E-1    1.865016567243258E-2
 4.000000000000000E6    -9.125434307645622E-1   -3.298977000780477E-3    1.047527598677708E-4    1.290930355855505E-4    1.696002885239321E-5    2.755674308403913E-4    9.792801852611411E-1    1.825037096520085E-3
 5.000000000000000E6    -9.027679800179041E-1    1.543570224998068E-4   -1.204343666406429E-4    1.062771501959252E-4    2.578358487682699E-4   -2.041019398436374E-4    9.788523893443535E-1    7.315034504753785E-3
 6.000000000000000E6    -9.016276929749382E-1    7.062035340318314E-3    7.146814521820722E-5    3.535594415523364E-4    2.400960515424090E-4   -1.554890648319645E-4    9.732913884773491E-1   -2.797347939143201E-3
 7.000000000000000E6    -9.119439736089910E-1   -1.455647183742767E-3   -2.669399998678441E-4    5.291420483900677E-5    1.563640606858495E-5   -1.447048336680965E-4    9.755107782628082E-1   -9.206116138938391E-3
 8.000000000000000E6    -8.981624404878107E-1    1.294761245163865E-2   -1.068021376617878E-4   -1.342413570066506E-4   -1.602511629232238E-5   -3.271535143542007E-5    9.857043446378411E-1    1.382113403444411E-3
 9.000000000000000E6    -8.986910637799916E-1    8.530237191055152E-3    2.594317632948479E-4   -5.285271558388259E-5    2.145225859162034E-4   -8.306377063459536E-5    9.829491162830478E-1   -1.316341999314821E-2
 1.000000000000000E7    -8.900526287079799E-1    1.328002432381047E-2    3.541240377052061E-5   -4.196016903856915E-4   -3.308003226515446E-4    3.076350148064928E-4    9.745248596220012E-1   -9.506154576194614E-3
 1.100000000000000E7    -8.962080990753338E-1    2.097379282883945E-2    9.296467744494271E-6    1.015179176303172E-4    1.481889799339006E-5   -2.019004068553819E-4    9.799821462704554E-1   -1.913965178259634E-2
 1.200000000000000E7    -8.945714728597259E-1    7.600100838624269E-3    6.688363943771529E-5    1.336851512075937E-4   -1.142087002141065E-4    1.472093000125471E-5    9.799375204636357E-1   -1.604722636033762E-2
 1.300000000000000E7    -9.089251762044803E-1    2.557864861561778E-2   -5.372749815290446E-5    1.065946139339450E-4   -1.704310817889238E-4    8.165860444811459E-5    9.816894061511056E-1   -1.906874409200621E-2
 1.400000000000000E7    -8.970614590139396E-1    2.097622466104538E-2    2.657677627131423E-5   -3.934057738407329E-4   -2.819608475347442E-4    1.151636509536575E-4    9.779793711680627E-1   -1.893699466369323E-2
 1.500000000000000E7    -9.022741867367029E-1    2.677512168386862E-2   -6.907356485800016E-5    5.526427664744452E-5   -1.795392515343125E-4   -1.601248629936528E-4    9.772930280547535E-1   -1.514575845353463E-2
 1.600000000000000E7    -8.979874649720291E-1    2.597776879067061E-2   -1.173185462927670E-4   -2.863950563969972E-4    6.906805469189669E-5   -7.164978216201616E-5    9.826813259227392E-1   -3.425232863078261E-2
 1.700000000000000E7    -8.994688488756971E-1    2.946446185462855E-2   -1.777728900812406E-4   -8.831705935224179E-5    5.849897831695111E-5   -1.242589076489799E-4    9.841052379442081E-1   -2.403148979827850E-2
 1.800000000000000E7    -9.000992402652738E-1    2.860539239605631E-2   -2.656990199730293E-5    1.765781278139999E-4    2.450261360887448E-4    4.610509210915142E-4    9.782351040744619E-1   -2.859974720111728E-2
 1.900000000000000E7    -8.992750576439937E-1    2.976676306342933E-2    1.315479378621120E-4   -2.881132206425750E-4    3.490064832251315E-4   -2.884540295017092E-5    9.842112207973578E-1   -1.848449497962401E-2
 2.000000000000000E7    -8.939671097974260E-1    3.351880082153666E-2    4.657556331545066E-5    8.358681690956835E-5   -5.336411760534002E-5   -3.598670970312558E-4    9.712685689546398E-1   -2.766581864182128E-2
 2.100000000000000E7    -9.054770399927652E-1    3.124498870294573E-2   -4.327434168588939E-5   -1.000394331262687E-4    9.002766083623871E-6    1.212067914957931E-4    9.781148061214644E-1   -4.038031923028274E-2
 2.200000000000000E7    -9.088012983153888E-1    2.761258482471463E-2   -6.226105320377424E-6    1.691890581784912E-4    2.458753373096629E-4    1.008342665949877E-4    9.789837091066351E-1   -3.966614631809391E-2
 2.300000000000000E7    -8.969034854702242E-1    3.857824756313601E-2    2.991334002145868E-4    2.231664916446407E-4    1.375402261345044E-4    9.344975786686566E-5    9.758542691991733E-1   -3.795109473248749E-2
 2.400000000000000E7    -8.949897377502347E-1    3.364279128213753E-2    6.093692156382289E-4    1.911147067621268E-4   -4.114822704879039E-4   -1.777572926874304E-4    9.913282416514718E-1   -2.903932177160027E-2
 2.500000000000000E7    -8.837332579167571E-1    3.429944144969670E-2    7.103258430680335E-5    9.626472024551075E-5   -4.435925236752395E-4    8.421262573285235E-5    9.820495403681599E-1   -4.552386713673479E-2
 2.600000000000000E7    -8.983418584682391E-1    4.263686266462390E-2   -8.583564722875293E-4    1.464917824082276E-4    2.901157041639556E-4    5.518378638530381E-5    9.728800889698115E-1   -1.425744886675929E-2
 2.700000000000000E7    -8.993871450926515E-1    3.928464442411508E-2    1.333986483461395E-3   -3.494110398631214E-4    8.388318901030051E-4   -3.979075622453148E-6    9.722781418152545E-1   -2.089377460977115E-2
 2.800000000000000E7    -9.003639678019431E-1    4.598695473520784E-2   -9.556517197220809E-4    8.478160877951698E-5   -4.872874638991073E-4   -1.903734801740278E-4    9.738798969292517E-1   -1.709620309462648E-2
 2.900000000000000E7    -8.946266385445186E-1    4.724276193917254E-2   -2.280139025499958E-4    1.217911823289952E-4    7.108599990664349E-5   -2.219291085611853E-4    9.724919912328902E-1   -2.284255148233022E-2
 3.000000000000000E7    -8.977013192320686E-1    4.932729399565233E-2   -9.147779127604215E-4    6.224466312523812E-4    7.355558642238420E-5   -4.141627843502550E-4    9.664322479841903E-1   -1.739250532785504E-2
 3.100000000000000E7    -8.986393673926099E-1    5.100102418131185E-2   -3.283944479353794E-4   -3.063994907656743E-4   -1.281177586922269E-4   -3.630797694616429E-4    9.753131664346830E-1   -2.006927962456366E-2
 3.200000000000000E7    -8.937730862256829E-1    4.902192341628359E-2   -8.457568816619941E-4    7.750670447113161E-4   -2.135691698463374E-4   -5.492086594295629E-5    9.710832949381681E-1   -2.061589490768310E-2
 3.300000000000000E7    -8.918545169647126E-1    5.372235138687979E-2    1.550723721014371E-6    7.881776005306283E-5   -9.452365035395884E-5    2.384802834602217E-4    9.721445251150003E-1   -2.483178581702173E-2
 3.400000000000000E7    -8.983870513170898E-1    5.113568129242922E-2    1.491950277538360E-4    3.924764609108368E-4    9.392486142490824E-5   -4.030896728644178E-4    9.684202840708295E-1   -3.327801514345612E-2
 3.500000000000000E7    -8.962710278301457E-1    5.559928805533468E-2   -1.394609268033845E-4    1.930823866323211E-4    4.953142020839603E-4    2.787182224801591E-4    9.708333090859828E-1   -2.662058900588505E-2
 3.600000000000000E7    -9.028341813380759E-1    5.830454599360661E-2   -9.929928101932504E-4    3.009530577333261E-4    7.594316028050076E-4    5.624079058805677E-4    9.726410339286589E-1   -2.997051194285040E-2
 3.700000000000000E7    -8.964750891979709E-1    5.743618877433389E-2   -5.179178987178007E-4   -3.262070300819287E-4    1.960424632987925E-5   -1.009039903593728E-3    9.708455106593862E-1   -3.319554919330789E-2
 3.800000000000000E7    -8.984611446070705E-1    6.197380810798896E-2    5.003919163810253E-4    5.353671721467407E-4    3.112546814787350E-4    8.462033771978116E-4    9.640535436970243E-1   -3.120533973227234E-2
 3.900000000000000E7    -8.946401509449406E-1    6.051154047710461E-2    5.988493209996910E-4   -4.589093008802413E-4   -4.211968825291889E-4   -8.531850448006610E-5    9.730212282573356E-1   -2.734637837907803E-2
 4.000000000000000E7    -8.942492581089925E-1    6.793066088439075E-2   -1.147399632900382E-4   -4.482171708605172E-4    2.035636551692294E-5    3.323703861957629E-5    9.714793612924025E-1   -3.451386672255852E-2
 4.100000000000000E7    -9.001815743082837E-1    5.885538993502552E-2    9.593818673179447E-5   -3.623466347705499E-4   -1.667663022757870E-4    2.689249823952974E-4    9.681850555919060E-1   -3.581372916891738E-2
 4.200000000000000E7    -9.024226476561509E-1    7.060465341247520E-2   -7.179853769716268E-5   -1.229300855298126E-3   -2.951147068113609E-5    5.895271002199765E-4    9.782228069898887E-1   -3.536152942181510E-2
 4.300000000000000E7    -8.964753040523142E-1    7.163227922291984E-2    1.063045578685331E-3   -1.686207278931509E-4   -4.130183202771340E-4   -3.574803123213021E-4    9.683839042448638E-1   -3.701785477816851E-2
 4.400000000000000E7    -8.902035069102284E-1    6.718296022871224E-2    2.280258026362762E-4   -5.079608465042964E-5    4.166691575767822E-4    9.639458144512947E-5    9.682149208293939E-1   -4.086284906452591E-2
 4.500000000000000E7    -8.948253615823876E-1    6.854312690647411E-2    7.753264926064129E-4    2.640509319637556E-4    3.065984760160247E-4   -4.707237464231788E-4    9.710352223370264E-1   -3.954763890503243E-2
 4.600000000000000E7    -8.916515841493802E-1    7.711765489344660E-2    2.977989829999745E-4   -5.276391717367879E-5   -5.324412706116813E-4    8.064698012466650E-5    9.652817946706816E-1   -4.227967348330165E-2
 4.700000000000000E7    -8.910650646682928E-1    7.312556237542932E-2    1.024204147425753E-3   -7.131254755654601E-4   -4.818545073942777E-4    4.017739542982695E-4    9.713584189705320E-1   -4.309201544616131E-2
 4.800000000000000E7    -8.916881566688878E-1    7.235277034179247E-2   -8.564419198344143E-4    4.763437938866983E-5    2.308858343158750E-4   -3.717860781189615E-4    9.667847179630110E-1   -4.404303383533519E-2
 4.900000000000000E7    -9.004677943646862E-1    7.422248483492888E-2    7.185192712624507E-4   -1.840353516995521E-4    3.507351189674684E-4    2.330925344457833E-4    9.668189266730459E-1   -4.374475896110151E-2
 5.000000000000000E7    -8.964550963984240E-1    7.852171258301867E-2    6.405979728052906E-4   -6.246798461453624E-5   -1.301639015516800E-4    6.917635752389341E-4    9.691184897516202E-1   -5.230391019080026E-2
 5.100000000000000E7    -8.897536823080894E-1    7.921507678555639E-2   -7.225033907041767E-4   -9.886500338226584E-5    4.832327000067593E-4    5.590521414482139E-4    9.655821205976052E-1   -4.523816257284937E-2
 5.200000000000000E7    -8.911733701458862E-1    7.766432946918758E-2   -1.195869208001635E-5    5.092207658038917E-4    1.091577847753960E-4   -2.802910324453451E-4    9.648914681030416E-1   -5.237012079204048E-2
 5.300000000000000E7    -8.979061047928233E-1    8.679452723960063E-2   -5.158846307133946E-4    5.065327783048962E-4    2.163630016172293E-4   -7.820493875258567E-4    9.707593319257043E-1   -5.626240080317917E-2
 5.400000000000000E7    -8.894788246513575E-1    7.984592800309820E-2   -1.010323508358813E-4   -7.854877018324244E-4    1.079969814232362E-4   -2.034724312657036E-4    9.686373935971491E-1   -5.523717136352588E-2
 5.500000000000000E7    -8.923599368524903E-1    8.319673744729178E-2    1.506218280865149E-4    4.694165657361677E-4   -5.295984680597028E-4    7.737991437073814E-4    9.601761986114523E-1   -6.429277016291519E-2
 5.600000000000000E7    -8.965599747743844E-1    9.030784426622049E-2    1.325549259513671E-4    3.804498373541159E-4   -9.757083160673286E-5    6.512422712572881E-4    9.650826147480847E-1   -5.837640854586388E-2
 5.700000000000000E7    -8.877556748618347E-1    9.087265946947766E-2    8.726811194685659E-5    6.944445393310713E-5   -1.648868093775577E-5   -9.124340082547330E-5    9.728791835738977E-1   -7.020747726064759E-2
 5.800000000000000E7    -8.876421644897136E-1    8.590716325895684E-2   -7.116144776871298E-4    3.277377656795069E-4   -3.200084234275655E-4   -8.812284973489357E-5    9.691926364445247E-1   -6.837064842730849E-2
 5.900000000000000E7    -8.872534283299678E-1    9.298943881329330E-2   -5.202950728217863E-5   -2.276202834344994E-4   -6.295243287892109E-5   -7.653228594828651E-4    9.659923082073189E-1   -6.651970378626194E-2
 6.000000000000000E7    -8.929761606195468E-1    9.090409461713153E-2   -1.455930133883442E-4    2.330644044716607E-4    1.349885379541734E-4   -1.854135019937220E-4    9.666031014814246E-1   -7.050628662040544E-2
 6.100000000000000E7    -8.923193545423018E-1    9.089794069950759E-2    1.143227757424580E-3    2.537473566891082E-5    1.967834097707755E-4   -8.392684098591820E-5    9.687289456689048E-1   -7.408506619981366E-2
 6.200000000000000E7    -8.927853078019616E-1    9.430131077550975E-2    2.003134758063799E-4    1.478813233445305E-3    8.977337111471166E-4    1.736346703785529E-5    9.667586320082120E-1   -7.601654347857736E-2
 6.300000000000000E7    -8.919860830722173E-1    9.691327741183763E-2    6.220076333606797E-5   -3.855248851398392E-4    1.884451767049611E-4   -5.410982377801908E-4    9.633506396630638E-1   -7.974582151548849E-2
 6.400000000000000E7    -8.960205104769747E-1    9.954639227459761E-2   -3.117558567760712E-4    8.690855708349231E-5   -1.613672735824938E-4   -1.386838573749601E-4    9.678324454527774E-1   -7.854122241313814E-2
 6.500000000000000E7    -8.845204136418772E-1    9.872984999868867E-2    3.077577458620632E-4   -3.940467412696825E-4    4.813034635798824E-5   -9.905991934614697E-4    9.566379304452911E-1   -8.621064860218830E-2
 6.600000000000000E7    -8.914356104137866E-1    1.001393947170471E-1   -2.071472116562945E-4   -4.554103219536635E-4    1.263889881811392E-5   -2.499714913378437E-5    9.632068363290043E-1   -8.867785009570020E-2
 6.700000000000000E7    -8.889052011811290E-1    9.740719940523883E-2   -4.479115417732922E-4   -5.515720609287031E-5    2.304918521334897E-4    6.907704185764177E-4    9.627683597254013E-1   -8.972546274352614E-2
 6.800000000000000E7    -8.908858364074322E-1    1.052795346142723E-1   -1.678395846291414E-4   -2.618047524355912E-4    8.983844550651214E-6   -7.174028470001120E-4    9.663299608513612E-1   -9.614953274360097E-2
 6.900000000000000E7    -8.929232816879747E-1    1.024978944989640E-1   -5.784487446852091E-5    1.739697482745997E-5   -1.885881563109996E-4   -2.920457616256042E-5    9.725788421459243E-1   -9.304758795670294E-2
 7.000000000000000E7    -8.913404333530454E-1    1.025644414778089E-1   -3.046776663973743E-4   -5.729160433106383E-4   -8.342324390742642E-5    3.568918821685413E-5    9.633195862921183E-1   -9.649744339452454E-2
 7.100000000000000E7    -8.917853872630498E-1    1.095349408111281E-1    2.455889630339513E-4   -6.430376816714801E-4   -1.281781476231003E-4    6.343077528706091E-4    9.676864769181075E-1   -9.112296828324819E-2
 7.200000000000000E7    -8.885703016085028E-1    1.108213724929833E-1   -1.023237576569232E-3    4.298229384879595E-5    2.980365136301057E-4    1.478992954683170E-4    9.660753402925895E-1   -9.630147906069364E-2
 7.300000000000000E7    -8.865970428809976E-1    1.081318871089917E-1    1.253882370434336E-4    1.398824913533825E-4   -2.642954579198465E-4    1.493107410260782E-4    9.662264453137196E-1   -9.966553963102813E-2
 7.400000000000000E7    -8.878456862833456E-1    1.075739121636418E-1   -1.951769303209122E-4   -3.910178097356793E-4   -3.683992869123800E-5    3.043399997364384E-4    9.667938901157823E-1   -9.887084388895670E-2
 7.500000000000000E7    -8.893206767851047E-1    1.097081600764253E-1   -1.895773979714302E-4    6.220679061179384E-4   -5.246437190582144E-4   -8.948870765251167E-4    9.633106937682766E-1   -1.039441781558510E-1
 7.600000000000000E7    -8.909541570208076E-1    1.152106395760992E-1   -3.333959073729519E-4    4.789806507465163E-4   -2.208496910116726E-4   -7.036577046082739E-4    9.639592035255649E-1   -1.058366442224779E-1
 7.700000000000000E7    -8.871385066448773E-1    1.151805595496874E-1   -1.927865166975404E-4    9.059837000490139E-4    1.688367685467149E-4   -3.580080561885101E-4    9.622006227952636E-1   -9.692325425729467E-2
 7.800000000000000E7    -8.831652983965995E-1    1.156122042562848E-1   -7.626043567690947E-4   -1.434424732585156E-4   -2.884912599847342E-5    1.170286773245450E-6    9.589222390204132E-1   -1.111082603623591E-1
 7.900000000000000E7    -8.842629545358165E-1    1.200065241348213E-1    6.621102789705436E-5   -3.392091234156699E-4   -3.802627184523259E-4   -1.494981711401883E-5    9.585810972254873E-1   -1.083132028226515E-1
 8.000000000000000E7    -8.902033446227618E-1    1.201730654449375E-1    4.574360105615020E-5    1.413843058043947E-4    6.817056832342967E-4    1.844539935929284E-4    9.640396483812993E-1   -1.120414544029298E-1
 8.100000000000000E7    -8.806223766593121E-1    1.203560986449908E-1    4.099099186382226E-4   -6.566852432934001E-4   -4.334752234186334E-4   -9.034781675562049E-4    9.617726887370845E-1   -1.100410266220816E-1
 8.200000000000000E7    -8.829867351371451E-1    1.215713712441798E-1   -4.181170499017262E-4   -1.777616443838130E-4    2.393592810903790E-5   -2.424154223331552E-4    9.599119767609754E-1   -1.096608348516409E-1
 8.300000000000000E7    -8.833444701193105E-1    1.223557080442669E-1    5.743354179227544E-4   -9.563882024231623E-4    5.886116542984434E-4    4.151401034666142E-4    9.643136476612318E-1   -1.144706938293077E-1
 8.400000000000000E7    -8.875630577271484E-1    1.209584714486994E-1    8.659999129503169E-5    5.828315182025819E-5    2.810962965176320E-4   -4.582542550224354E-4    9.615555865490799E-1   -1.114597643606421E-1
 8.500000000000000E7    -8.842444379664830E-1    1.211871097497195E-1    3.353995938478282E-5   -2.608079800302653E-4    8.817987878173623E-5    1.579502635485799E-4    9.557306795092676E-1   -1.172502119196039E-1
 8.600000000000000E7    -8.812116714798437E-1    1.234522000328154E-1    2.659633715851227E-6   -3.356601294359452E-4   -2.927753732995930E-4   -5.003690426457960E-4    9.604543586628559E-1   -1.218637586922048E-1
 8.700000000000000E7    -8.875165388772935E-1    1.276121339903691E-1   -7.105272827743887E-4   -1.647924129985443E-4    9.824968327213520E-5    4.411337592665199E-6    9.597808032750543E-1   -1.171423270894536E-1
 8.800000000000000E7    -8.813232548301224E-1    1.294491557733263E-1   -3.209107767850625E-4   -1.108679949851148E-3   -6.345496048702022E-4   -4.109986610311648E-6    9.562211285698566E-1   -1.183009544006522E-1
 8.900000000000000E7    -8.819482087219834E-1    1.259583845400877E-1    4.648895929063019E-4   -2.901742600992805E-4   -2.271474781504198E-4   -8.485757001286676E-5    9.604933279964100E-1   -1.192187796234961E-1
 9.000000000000000E7    -8.848668137866182E-1    1.365356781689484E-1   -1.409216771826212E-4    8.102885866811625E-5   -9.096403793663627E-4   -8.255263222645216E-4    9.596742966679114E-1   -1.194902335947306E-1
 9.100000000000000E7    -8.823237924208600E-1    1.335044903793678E-1   -2.780125409660153E-4    6.700807764549413E-4   -1.167540850563272E-4   -2.976627716870101E-4    9.597106845581167E-1   -1.296238977354067E-1
