#  HZ   S   RI   R     50.00 
! Rohde & Schwarz Vector Network Analyzer 
! Rohde-Schwarz,ZNBT8-20Port,1318700624101681,3.50
! Created: UTC 7/15/2025, 2:12:04 PM
! freq[Hz]                re:S1010                im:S1010                re:S0610                im:S0610                re:S1006                im:S1006                re:S66                  im:S66
 1.000000000000000E6    -9.018756364977517E-1    2.188283514099453E-3    1.763704227224660E-4    1.610615201544471E-4    1.928341326301483E-4   -3.625205156128370E-5    9.710581854317535E-1    1.310289330127801E-2
 2.000000000000000E6    -8.965052138152115E-1   -1.700209414823625E-2    1.390035568465235E-4   -1.618193436912117E-4    3.455983943295825E-4    1.169359045172777E-4    9.818075160589224E-1    1.683555172779553E-2
 3.000000000000000E6    -9.042464357966185E-1   -2.996180787848897E-3   -2.944328740758783E-4   -1.936884050362865E-4   -3.883523604458406E-5   -3.000706166483984E-4    9.820767943626396E-1    1.477455116459967E-2
 4.000000000000000E6    -9.060383432304902E-1   -7.501804889843618E-3    4.435953622300259E-4   -5.079332332421834E-5    1.494741481141432E-4    8.163817127810749E-5    9.733494292103704E-1    5.332082292216743E-3
 5.000000000000000E6    -9.021210966483411E-1   -3.386269675699128E-3   -1.168985650561725E-4   -1.607864398725130E-4    8.201278269700503E-5    3.536886426773957E-5    9.729743751472146E-1    1.474447715472734E-4
 6.000000000000000E6    -8.951872787092695E-1    3.769420345449283E-3   -6.071080239288102E-6   -3.397139731341591E-4    1.790042025731575E-4   -1.318459837598443E-4    9.751231935202047E-1    1.097634123241507E-3
 7.000000000000000E6    -9.067609247881384E-1    8.849956200579812E-3   -8.173559301577008E-5    4.331525204785582E-4    2.581236123308804E-4   -1.051695633796569E-4    9.759706444769800E-1   -1.106692610367499E-2
 8.000000000000000E6    -9.047607251647377E-1    1.588673337204062E-2   -4.519412702443637E-5    5.085684009809630E-5   -5.477561580759844E-5   -1.875913919068551E-4    9.715567122433870E-1   -6.282395154979142E-3
 9.000000000000000E6    -8.996415559121949E-1    1.184790781616893E-2    3.377600318860205E-4    1.076726137079555E-4   -2.350931597154154E-4   -2.075571077128947E-4    9.721641310143576E-1   -1.370774570037693E-2
 1.000000000000000E7    -9.015334284207905E-1    1.438257849818225E-2   -1.965576688161623E-5   -2.665469207625915E-4   -9.389783758464590E-5    8.847407707851659E-5    9.701097331230413E-1   -1.353840819343458E-2
 1.100000000000000E7    -9.018026634121353E-1    2.241894860125277E-2    2.414918999616063E-4    3.350799965222529E-4    2.838496285902123E-4    3.139342442019351E-4    9.825549612076715E-1   -1.850624310312122E-2
 1.200000000000000E7    -9.011123156039190E-1    2.516315321804733E-2   -7.950029647415085E-5   -6.911463276218320E-5    2.411220714250151E-4    2.962180648777064E-4    9.789135431994123E-1   -1.889360017791907E-2
 1.300000000000000E7    -8.963306889666394E-1    2.421209450864884E-2   -5.306964891031601E-5    4.330682563209227E-5    2.569006788227717E-4   -3.912150499952197E-4    9.775310027520084E-1   -2.602360325093090E-2
 1.400000000000000E7    -8.997848917950633E-1    2.471392737926811E-2   -1.294139535909599E-4   -1.978866925014776E-5    2.261538411600519E-4   -2.275356972218977E-4    9.824982685354904E-1   -2.596229098971379E-2
 1.500000000000000E7    -8.977004112084204E-1    2.454258993948259E-2    3.391259304963549E-5   -2.071421257445315E-4    6.282493053863988E-5   -4.101057187753072E-4    9.777813468652068E-1   -1.808411997051228E-2
 1.600000000000000E7    -9.005216621090684E-1    2.355365990027463E-2   -7.016718052339332E-5    2.970776982672173E-5    7.696466546868369E-5   -2.387843401974572E-5    9.799158002683207E-1   -2.165991234278086E-2
 1.700000000000000E7    -9.046227453144149E-1    3.114791708195615E-2   -2.868542006599701E-4   -4.327194827430539E-4    1.487104132898786E-4    9.652304191549646E-5    9.727876172808622E-1   -3.222595881342093E-2
 1.800000000000000E7    -9.065236854549129E-1    2.769670231580815E-2   -2.155193108496956E-4    3.099614487112468E-4    3.135076854537572E-4    1.465743971690841E-4    9.749339534349712E-1   -2.842413991437535E-2
 1.900000000000000E7    -9.042456296003336E-1    2.788211166040171E-2    5.828875044396718E-4    2.828016782907886E-4    1.398733960062570E-4   -1.878745616874250E-4    9.786049569030624E-1   -2.744315888931222E-2
 2.000000000000000E7    -8.987825506413859E-1    3.222104363899541E-2   -2.258858068933565E-4    2.036472647729420E-4    4.487821845084522E-4    7.275064060495120E-5    9.790669986459839E-1   -2.254507731194626E-2
 2.100000000000000E7    -8.979787649553610E-1    3.300852759911860E-2   -1.093782318455227E-4    1.563975786656760E-4    1.493418852811471E-4    1.362759807490918E-4    9.681919919567606E-1   -3.520770733961945E-2
 2.200000000000000E7    -8.989194405683308E-1    2.538210478786430E-2    8.431662556629597E-5    3.772704077804647E-4    1.517329358628615E-4   -1.902215268900450E-4    9.721501917882087E-1   -3.391248363310180E-2
 2.300000000000000E7    -8.990929805797307E-1    3.323152944966389E-2   -2.778393645312970E-4   -2.643439713167540E-4    1.012819761848522E-4    1.945504024808497E-4    9.705658128762862E-1   -4.247365521152348E-2
 2.400000000000000E7    -8.870482865951853E-1    4.032765725710161E-2   -7.143433929295730E-5    1.176967846799423E-4   -1.697662056365737E-4   -9.707495286097067E-5    9.810755244016719E-1   -3.521805504664392E-2
 2.500000000000000E7    -8.913184900357350E-1    3.737935736755985E-2   -2.723190954658002E-4    3.200031755859762E-5    1.629876289163213E-4    2.273901840628126E-4    9.764705200056533E-1   -5.155600552726794E-2
 2.600000000000000E7    -8.992233884131958E-1    3.104393547511196E-2   -1.115031366914218E-4    5.779025897401232E-4    6.111194827252737E-4    4.207879761010968E-4    9.685356464199161E-1   -4.620641968953742E-2
 2.700000000000000E7    -9.045253803301680E-1    4.616902518872892E-2   -7.708225971834917E-4    8.136485177391413E-5    7.190979951409144E-4   -1.125122009303610E-4    9.759666004087698E-1   -4.785381795838520E-2
 2.800000000000000E7    -8.961733354865729E-1    5.340683779362960E-2   -4.179894157286654E-4   -4.216944972485236E-4   -9.670701204725954E-4    7.130489959440864E-5    9.849712742840114E-1   -3.971932107961287E-2
 2.900000000000000E7    -8.951376230991395E-1    4.382974126843914E-2    1.655970196044573E-5    7.034391669558272E-4    5.494967683414966E-5   -1.219236050370848E-4    9.730934052739733E-1   -5.208265245022114E-2
 3.000000000000000E7    -9.015440524850673E-1    4.641863024375801E-2   -3.004951117918833E-4   -2.008888244443221E-4    3.751210396491600E-5   -2.039890500986162E-4    9.757531263547280E-1   -4.504195784347724E-2
 3.100000000000000E7    -8.954818464739723E-1    4.482386312285311E-2   -1.018997919199917E-4    5.658955439921961E-4   -2.123846356928827E-4   -2.105706574332001E-4    9.704513756004429E-1   -4.868623559223238E-2
 3.200000000000000E7    -8.994227717990292E-1    4.782642441911009E-2   -5.882461989552684E-4   -1.072207706573480E-3   -2.847694504738633E-4   -2.664756691858160E-4    9.756830831885948E-1   -4.440338940225923E-2
 3.300000000000000E7    -8.946669876326638E-1    5.828850646195220E-2   -4.894648165269688E-5    2.359372593159422E-4   -5.435040973011709E-4    2.544843468304229E-4    9.744107097556748E-1   -4.932498803697059E-2
 3.400000000000000E7    -8.975443848262720E-1    5.112282134525556E-2   -1.627088278391608E-4   -4.419067698130099E-4   -4.564486089855522E-4   -5.881549859006955E-4    9.725122940763431E-1   -5.499339088845980E-2
 3.500000000000000E7    -8.933336735855739E-1    5.338741029855152E-2   -1.322216149334606E-4   -2.735315226128602E-4    6.639559378739662E-4    3.132541784510297E-5    9.676868566529965E-1   -5.364599210995800E-2
 3.600000000000000E7    -8.975657238316687E-1    6.267515949106546E-2   -2.733078612622962E-4    1.801641161732823E-4    3.254895378153152E-5   -2.157507719357990E-5    9.686868941855477E-1   -5.381232797655390E-2
 3.700000000000000E7    -8.953788540655980E-1    5.380617574655529E-2    4.397658803048893E-4   -4.090949891386461E-4    1.376484040393982E-4    1.392057478412641E-4    9.728916585168924E-1   -4.791396599738508E-2
 3.800000000000000E7    -8.917364323296233E-1    5.996236138139976E-2   -3.830148806386082E-4    6.417089585711962E-4   -2.422868458889086E-4    9.323179961795634E-4    9.732119052470032E-1   -6.247153324976740E-2
 3.900000000000000E7    -8.934765679370170E-1    5.629443073423617E-2   -5.451144399168895E-5    9.116101768025194E-4   -3.813091265063108E-4   -7.058380062801041E-4    9.731497741145395E-1   -6.255792946076402E-2
 4.000000000000000E7    -8.961634885644598E-1    6.485138408596151E-2    2.364489320393311E-4   -8.795822380023772E-4   -1.325753954511455E-4    5.035233700026354E-4    9.710609259276077E-1   -5.843161801035946E-2
 4.100000000000000E7    -8.996890836740998E-1    6.225722312508061E-2    1.467016971809709E-4   -3.739078230040868E-4   -1.343852920148292E-4    9.684563022734243E-6    9.651778742945756E-1   -5.726740654360172E-2
 4.200000000000000E7    -8.944541046149974E-1    6.291441225563162E-2    1.907195528918247E-4    1.351068959190429E-4    2.779172518428299E-4    3.578951393579989E-4    9.660353515204284E-1   -6.490823576178859E-2
 4.300000000000000E7    -8.960141482700985E-1    7.340231689441835E-2    1.847317783836932E-4    2.300997183632830E-4    3.796423739273236E-4   -1.707585209777676E-5    9.678874259412463E-1   -5.817186101605182E-2
 4.400000000000000E7    -8.907005358011743E-1    6.406830204018639E-2    6.389767059149505E-4   -6.225882643230749E-4   -2.379993038941995E-4    5.311594339154510E-4    9.669021114680854E-1   -6.061852447239997E-2
 4.500000000000000E7    -8.943192135064088E-1    6.257445880255244E-2    1.678402910082879E-4   -9.011505848687137E-5    1.476223094602152E-4   -2.846234945434390E-4    9.728028434341202E-1   -6.036081513252632E-2
 4.600000000000000E7    -8.916445280594039E-1    7.281859505912643E-2    7.937694145598933E-5    6.724946417297299E-4    1.390942930401997E-4    1.814047682389434E-4    9.677731873012231E-1   -6.479246667456084E-2
 4.700000000000000E7    -8.911732738638748E-1    7.591675241586326E-2   -2.404750981184759E-4   -1.873260922547926E-4    4.048606760532808E-4   -6.113072919443634E-4    9.659035346701383E-1   -6.960595633482448E-2
 4.800000000000000E7    -8.917304035853332E-1    6.515147257891490E-2    1.947979449977915E-4   -2.021107445800889E-4    2.151206768581410E-5    2.937489607848621E-4    9.661171326984703E-1   -6.247663963490905E-2
 4.900000000000000E7    -8.954128208921533E-1    6.918477661655416E-2    2.998951521258124E-4   -3.185073274364493E-4    1.480915896860401E-4   -8.101291368120408E-4    9.617968014543093E-1   -7.874236623781683E-2
 5.000000000000000E7    -8.975822948590113E-1    8.000252419347335E-2    8.495528029242371E-5    6.441149364589221E-4   -1.649935428866003E-4   -9.685827798798582E-5    9.712909652612172E-1   -6.401790358757460E-2
 5.100000000000000E7    -8.892388142267768E-1    7.815301444769232E-2    1.682558356081793E-4   -5.818715259826163E-4   -1.057259858745355E-4    8.220485386908297E-4    9.649417885456465E-1   -7.626439869108194E-2
 5.200000000000000E7    -8.936082877321551E-1    8.044195873359770E-2    3.847840298315418E-5   -3.941095593883297E-5    9.917180013963048E-6   -5.276345366046358E-5    9.645046271387949E-1   -7.620192482793323E-2
 5.300000000000000E7    -8.966440536666890E-1    8.396933153362783E-2   -6.989163522381753E-4   -2.690243705925994E-5   -3.754920134345480E-4   -4.564487136119441E-4    9.677088323698332E-1   -8.071748276168436E-2
 5.400000000000000E7    -8.931455260429541E-1    8.167998132167817E-2    6.313825512170464E-4    1.780326662745481E-4    1.815627636382599E-4   -2.350395255897173E-4    9.643752022492006E-1   -7.878177207616403E-2
 5.500000000000000E7    -8.898323391004423E-1    8.396127541141259E-2   -1.184765869442305E-4    7.792813640632596E-4    2.374374739821052E-4    7.984886041031172E-5    9.626116945662750E-1   -7.505282223855009E-2
 5.600000000000000E7    -8.943988638490230E-1    8.490622555483560E-2    1.080522692910312E-3   -4.946527737954839E-4    3.908101455273927E-4   -4.653148086010965E-4    9.669621512059210E-1   -7.469377592788697E-2
 5.700000000000000E7    -8.907418457131328E-1    9.230775834449895E-2   -2.782854891594441E-4    1.085656137420937E-3    2.652905719028891E-4   -5.368120128537028E-4    9.608046567172118E-1   -8.190886081649118E-2
 5.800000000000000E7    -8.864946687948642E-1    9.643404742133438E-2    7.082378434665389E-4   -1.106004089342996E-3   -1.054300220364451E-4    1.221937719095867E-4    9.667990066591888E-1   -7.401462191931094E-2
 5.900000000000000E7    -8.902153875458159E-1    9.441077824015823E-2   -3.171652673228198E-4    6.524814543145929E-4   -4.625037589822375E-4    1.225214739969913E-4    9.668025581240667E-1   -9.092150465072782E-2
 6.000000000000000E7    -8.912609766461377E-1    9.006950973670781E-2   -8.228054707796157E-4   -2.584309304590013E-4    6.431270146429292E-5    3.008775042968258E-4    9.633039711706689E-1   -8.218160821289881E-2
 6.100000000000000E7    -8.898564468061831E-1    9.601491682913407E-2    8.266673750682950E-4   -2.464651176688528E-4   -1.283313053581606E-4   -3.854174057579027E-4    9.611213024007190E-1   -8.661649671908217E-2
 6.200000000000000E7    -8.910912966522668E-1    9.737106953027121E-2    2.305648166109592E-4   -6.492340749887593E-5    2.282254536601431E-4    2.689067752859184E-4    9.635844188557353E-1   -9.141884556228493E-2
 6.300000000000000E7    -8.912616995662668E-1    9.675158875559467E-2    3.693600400691735E-4   -1.069568425912196E-4    1.761549256689240E-5    5.065513803478045E-4    9.654496577565566E-1   -1.002619525837248E-1
 6.400000000000000E7    -8.905548667154185E-1    9.404010506146385E-2   -5.393642757562824E-4   -2.960957717130275E-4    2.742240377332428E-4   -5.787903128835508E-4    9.599643195161234E-1   -9.600375838520062E-2
 6.500000000000000E7    -8.885307195827509E-1    1.040895636795568E-1   -3.932391778416718E-4   -1.336569397560890E-4   -5.117267995525031E-4   -3.079868230327745E-4    9.639443022150925E-1   -9.393178172000723E-2
 6.600000000000000E7    -8.879470136584345E-1    1.010451840478586E-1   -3.612560809109628E-4    3.533500172491132E-4   -2.307279712053483E-4    1.319906428211559E-4    9.593758092838286E-1   -1.010727151062771E-1
 6.700000000000000E7    -8.904285297014408E-1    1.011913295156761E-1    5.922283379421237E-5    1.349750987384149E-4    5.476880349180287E-4    5.771583656692370E-4    9.594820395104166E-1   -9.815787548732484E-2
 6.800000000000000E7    -8.877920953624030E-1    1.019285237854155E-1    1.532851510831743E-4    6.846253047776352E-4    2.219540857062125E-4   -2.423194631990254E-4    9.604062146365786E-1   -9.486483241896226E-2
 6.900000000000000E7    -8.884309822006272E-1    1.042110784513017E-1   -5.894107176672441E-4   -3.022378983689642E-4   -4.007933372895058E-4    4.034670526616200E-4    9.632301505385940E-1   -9.999677787463952E-2
 7.000000000000000E7    -8.876864346410984E-1    1.085946153838414E-1   -4.540627376007394E-4   -4.354287820620558E-4    4.463464862498693E-4   -1.024874423341667E-4    9.599952769877106E-1   -1.000354286636318E-1
 7.100000000000000E7    -8.898065518671012E-1    1.048146782346932E-1   -6.773489022518257E-4   -6.175462206962700E-4    2.297507214475991E-4    2.131799761223862E-4    9.624870410149320E-1   -1.091425250942014E-1
 7.200000000000000E7    -8.851577039759404E-1    1.125353366835437E-1   -6.554301911704022E-5   -4.347727884388748E-4    3.440037837334906E-4    1.999251838007372E-5    9.621800375613320E-1   -1.063096945722360E-1
 7.300000000000000E7    -8.853287603198345E-1    1.054278074880675E-1    4.461903528904188E-4   -1.062748301830538E-4   -1.475208153851808E-4    1.791384602284532E-4    9.599040233728201E-1   -1.048339225717024E-1
 7.400000000000000E7    -8.880739415964697E-1    1.130447664188628E-1    3.023986046759002E-4   -3.518824249285445E-4   -3.346825783136039E-4   -1.564037042512077E-6    9.598947095943677E-1   -1.006659814936678E-1
 7.500000000000000E7    -8.897238081353881E-1    1.122717966199461E-1   -1.992150409589982E-4   -6.765703175058496E-4    1.635551784941777E-4    1.021607342766671E-4    9.560746251875977E-1   -1.115463630259495E-1
 7.600000000000000E7    -8.876074570893697E-1    1.146159564372985E-1    3.609170077004445E-4    5.265519659399883E-4   -2.939611480006140E-4    6.534376388269332E-4    9.569695046996504E-1   -1.071569900569530E-1
 7.700000000000000E7    -8.928454584280859E-1    1.172680814174204E-1    8.038123863381512E-4    7.043560687163773E-5    4.635389274542253E-4    3.803849200940889E-4    9.628380144572238E-1   -1.082197487443148E-1
 7.800000000000000E7    -8.847223017404695E-1    1.170765822762261E-1   -6.964217909125807E-5    2.538291480244928E-4    4.203439296916989E-4    4.435794206379906E-4    9.611200751159852E-1   -1.104397845234009E-1
 7.900000000000000E7    -8.869583643590339E-1    1.182234917013390E-1    4.303841292947170E-4    2.544569423823420E-4   -2.059452612149313E-5    4.826206558358576E-4    9.610524340403247E-1   -1.159238114847466E-1
 8.000000000000000E7    -8.884425766590723E-1    1.212028885266468E-1    5.775368032264441E-4    1.172522156770903E-4    7.667765257984780E-4    5.038514842920825E-4    9.598753436395250E-1   -1.161887963483874E-1
 8.100000000000000E7    -8.816119086396803E-1    1.188770536835802E-1    4.821789411835545E-5    3.489782697868176E-4   -4.620828484217947E-4   -8.282302237965273E-5    9.553790692311190E-1   -1.152669758488095E-1
 8.200000000000000E7    -8.879807852361223E-1    1.189660214294966E-1   -1.059972083304123E-4   -2.833232164653622E-4   -7.483442627381575E-4    7.223706269224676E-4    9.598187710101062E-1   -1.144712803820768E-1
 8.300000000000000E7    -8.848089271485070E-1    1.184917817247784E-1   -6.459645489566735E-4   -1.774446586218282E-4    3.470635982926771E-4   -4.630651490639153E-4    9.579284604464071E-1   -1.169746024436248E-1
 8.400000000000000E7    -8.851285588441880E-1    1.162543158253375E-1    9.155696531288474E-4   -5.736197265700272E-4   -1.312494892079138E-4   -7.720985102126491E-4    9.616399949588837E-1   -1.224441487609484E-1
 8.500000000000000E7    -8.841029053578311E-1    1.218389295024579E-1    1.293497947119694E-4   -5.857443105462494E-4    6.687446195343541E-4    1.269781504080103E-4    9.565771198454101E-1   -1.154426541228150E-1
 8.600000000000000E7    -8.755441215209545E-1    1.328347615560598E-1   -4.090717220390543E-4   -4.513056930463141E-4    6.856223988398047E-4    2.483701657497826E-4    9.543080639747648E-1   -1.165403168111042E-1
 8.700000000000000E7    -8.855431865485783E-1    1.348430095462659E-1    3.698718512167721E-4   -2.575133981522719E-4   -5.370676150502542E-4    1.244256546889856E-4    9.577612995846096E-1   -1.276275324520002E-1
 8.800000000000000E7    -8.849830543293135E-1    1.339731151314622E-1    3.742212630999506E-4   -5.597573769835372E-4    4.997899265977354E-4   -4.321964902377868E-4    9.585918683216482E-1   -1.241976377186498E-1
 8.900000000000000E7    -8.832706678603999E-1    1.316158954895045E-1   -1.634105381289797E-4    2.042684531664711E-4    1.163327563698342E-4   -3.896295281054203E-4    9.526574615802641E-1   -1.253573091391112E-1
 9.000000000000000E7    -8.845160326824856E-1    1.318601811980682E-1    1.043436875023847E-3    8.758330652098080E-5   -9.029755139729220E-5   -2.484026357427778E-4    9.568631641658416E-1   -1.294059949244971E-1
 9.100000000000000E7    -8.820904777669345E-1    1.362527831816726E-1   -3.006985352629708E-4    5.144400746480099E-4   -7.206809180295778E-4   -6.464859913561989E-4    9.613240309621855E-1   -1.329598080212875E-1
