#  HZ   S   RI   R     50.00 
! Rohde & Schwarz Vector Network Analyzer 
! Rohde-Schwarz,ZNBT8-20Port,1318700624101681,3.50
! Created: UTC 7/15/2025, 2:13:12 PM
! freq[Hz]                re:S1010                im:S1010                re:S0310                im:S0310                re:S1003                im:S1003                re:S33                  im:S33
 1.000000000000000E6    -8.995705001565518E-1   -8.321162975241481E-3    2.273386304961454E-4   -1.374667088591078E-4   -1.610738766203478E-4   -1.875791824348962E-4    9.705792769278434E-1    8.004217592930891E-3
 2.000000000000000E6    -8.980550781402791E-1   -6.618756570515822E-3    1.771641124600331E-4    1.878578436348088E-5   -2.264755013356497E-4   -1.429097155435755E-4    9.695685948495054E-1    1.076247258864591E-2
 3.000000000000000E6    -9.010945019629230E-1   -6.402016655276705E-3    2.920456868769026E-4    2.273526276754464E-4    1.928173094791536E-4    3.984534516456945E-4    9.686281322454489E-1    1.365843058015593E-2
 4.000000000000000E6    -9.077874751512111E-1   -4.111118981769308E-3   -1.094810227871930E-4   -2.691723666010617E-4   -2.150853728653373E-4    7.134273946334023E-5    9.775561628457869E-1    1.294546420845192E-2
 5.000000000000000E6    -8.923742027924573E-1   -1.410057726599836E-3   -1.103373966853544E-4   -4.918036173416364E-5   -3.754778729140949E-4    5.819476017428483E-5    9.773334630294713E-1    3.160360630080408E-3
 6.000000000000000E6    -9.079902590291613E-1    5.024875260171814E-3   -1.251032911842315E-4    2.344281813090008E-5   -1.407557233458815E-4    3.200972256757934E-4    9.796390240241374E-1    2.211721965765636E-3
 7.000000000000000E6    -9.074166874367612E-1    5.386665743835910E-3    2.553789328268828E-4   -1.756293046089618E-4   -3.000145052566133E-4    1.858795912548228E-4    9.846466833928536E-1   -8.176784899330330E-3
 8.000000000000000E6    -9.042147483966755E-1    1.215460644335258E-2   -5.776482906947357E-5    2.253470598790756E-4    1.327383569884614E-4    4.761054242438338E-5    9.840022550038087E-1    9.886154261170184E-3
 9.000000000000000E6    -8.895198206207550E-1    1.943961716318610E-2   -4.107973871584292E-5    3.509712489378419E-4    3.502259534955119E-4    4.190822019919553E-5    9.812900281944489E-1   -1.060150926728010E-2
 1.000000000000000E7    -8.870980205057437E-1    2.285458752543074E-2    1.258392934895688E-4   -1.901532320635896E-5    1.529735042480089E-4    4.339878004832016E-4    9.907203520985834E-1   -1.938410164808511E-2
 1.100000000000000E7    -9.011139750404670E-1    2.524550066778879E-2    8.533338297411370E-5    6.595317784301157E-5    1.567208939112513E-4    3.120367714944522E-4    9.759713701816023E-1   -2.036852067354793E-2
 1.200000000000000E7    -8.986952742845554E-1    1.743602309873346E-2   -3.283908706680826E-4   -2.476081227994710E-4    3.730702223306467E-4    1.868066969871271E-4    9.696663546486627E-1   -1.664742213717708E-2
 1.300000000000000E7    -9.004071831055120E-1    3.782459244839022E-2    3.211689388606812E-5   -2.737301046964303E-5    1.518386405803791E-4   -2.371198286556352E-5    9.751353601793513E-1   -1.717424161301117E-2
 1.400000000000000E7    -9.008043929029630E-1    2.007415315620494E-2   -2.382227101933189E-4    1.640718605697584E-4   -2.493679197978614E-4   -2.585069153046571E-4    9.851859440254478E-1   -2.498915671811684E-2
 1.500000000000000E7    -8.944473809469476E-1    2.172398784720811E-2    2.779313413768795E-4    1.631447127542316E-4    2.977435066742540E-4    1.408108345328879E-4    9.849358294973087E-1   -2.007592353756271E-2
 1.600000000000000E7    -9.047799880899700E-1    2.656135678420515E-2    5.022224925114423E-4   -8.707435360391180E-5    7.637161772543443E-5   -2.443104426832390E-5    9.734182516452502E-1   -1.961223633392723E-2
 1.700000000000000E7    -9.024827009990845E-1    2.653878685844295E-2   -2.700369959622795E-4   -8.721923325225557E-6   -8.472463238138223E-5   -2.585253226003136E-4    9.794087100457698E-1   -1.978801674622024E-2
 1.800000000000000E7    -9.067222533993210E-1    2.816298040519991E-2   -1.769400882165947E-4   -1.888793107889587E-5    9.229333601211184E-6   -1.800703239483054E-4    9.835865906614337E-1   -2.339678917505190E-2
 1.900000000000000E7    -8.977508012134021E-1    3.116365974329246E-2    2.617033535389373E-4   -9.612269421469464E-6   -3.041174858692508E-4    1.460187221013811E-4    9.762018603891608E-1   -3.293571477295516E-2
 2.000000000000000E7    -9.011489038541377E-1    3.333408781301118E-2    2.283839040567548E-4    4.855725060661604E-5   -1.209435241906508E-5   -1.752817714797243E-4    9.744395680906131E-1   -2.872887361830527E-2
 2.100000000000000E7    -9.024016012086310E-1    3.436404280527337E-2    2.239139249987578E-4   -1.646290394302242E-4   -2.416956237771830E-4   -2.361572436445800E-4    9.777166174280374E-1   -2.630155867096929E-2
 2.200000000000000E7    -8.990059578495772E-1    2.845901341781285E-2    1.393865609869130E-4    3.129128163926175E-4    2.020143637662008E-4    1.061866358384660E-4    9.856158982414479E-1   -2.400627178182153E-2
 2.300000000000000E7    -8.937348422011890E-1    3.393268268531768E-2   -6.539713935716951E-5    4.095050593571074E-5   -2.594646365714569E-4   -3.343912130383859E-4    9.800662848225814E-1   -4.300786582379815E-2
 2.400000000000000E7    -8.886911462523841E-1    4.573549771383642E-2    1.406076665847975E-4    6.378677278047864E-5   -1.735870807895730E-4    4.674383926235893E-5    9.682928948453868E-1   -2.199668566845229E-2
 2.500000000000000E7    -8.872755854737472E-1    4.684215198487760E-2   -1.341898896961480E-5   -2.506657216369396E-4    3.286181301982861E-4   -3.799759659770474E-4    9.648020723511609E-1   -3.316002896645565E-2
 2.600000000000000E7    -8.947990752098323E-1    4.147944671799008E-2    7.837536231528403E-4   -3.808413648669006E-4   -9.107116169891459E-5   -2.237298542316569E-4    9.722228756180448E-1   -3.632836056748392E-2
 2.700000000000000E7    -9.039217210086971E-1    4.600272418230886E-2    5.559139327826346E-4   -3.312619911008876E-5   -4.581592703430746E-4   -7.382713672147360E-5    9.805159034669406E-1   -4.118456968584568E-2
 2.800000000000000E7    -8.950608235598780E-1    4.769662792594163E-2   -1.776337838414317E-4   -2.901252507565127E-4   -3.862914762511984E-4   -7.258066554938688E-4    9.748375167465415E-1   -2.743556330886884E-2
 2.900000000000000E7    -9.001371310741069E-1    4.940403246522923E-2    2.447740101551469E-4    6.991010110565798E-5   -1.697592900309462E-4   -2.544963830227450E-4    9.839234674743506E-1   -4.231848158037939E-2
 3.000000000000000E7    -9.014364673132330E-1    4.751647927603434E-2   -3.081120620833401E-4    7.911789114423045E-4   -9.490039355249381E-4   -4.652308646202990E-4    9.737734961265150E-1   -5.392145842571410E-2
 3.100000000000000E7    -9.007569786278153E-1    4.383301786212579E-2   -1.502190533879460E-4    3.154686345033940E-4    1.873610078088837E-4    8.262021921369635E-4    9.694079887836917E-1   -4.269278939941776E-2
 3.200000000000000E7    -8.957710384748649E-1    4.712776979086571E-2   -9.094869714191666E-4   -2.591057125258685E-4   -1.055627241306630E-3    1.523139361010879E-4    9.668121199292252E-1   -4.730726151489487E-2
 3.300000000000000E7    -8.967377281207672E-1    5.501384397204866E-2    1.486222420216042E-4    2.434550171339229E-4    3.498936479903749E-4   -1.899947550231426E-4    9.726826690335332E-1   -4.701298325905778E-2
 3.400000000000000E7    -8.937522088217795E-1    5.128595992552785E-2    2.719638021485491E-4   -3.402362101146748E-5    8.829234329005601E-5   -2.817885630520926E-4    9.818675371712037E-1   -4.471526779182421E-2
 3.500000000000000E7    -8.965539185864568E-1    5.776894418190986E-2   -3.728630506359534E-4   -2.793564207576644E-4    2.300107036761500E-4    2.501147234410492E-4    9.762569085813857E-1   -5.141096712305803E-2
 3.600000000000000E7    -8.999352914895145E-1    5.688410968936559E-2    2.711169727854397E-4    3.787436322104271E-4    1.025509256371495E-4    7.189963388450913E-4    9.715557906423316E-1   -5.257418330856566E-2
 3.700000000000000E7    -8.985042614399020E-1    5.748700607936209E-2   -3.930587075136421E-4   -6.457307874756812E-4    2.559991016819976E-5    2.269043818012935E-4    9.730456867410406E-1   -5.300557785663036E-2
 3.800000000000000E7    -8.926563670304846E-1    5.794900196593275E-2   -2.417380029182802E-4   -5.658835273341031E-4    7.502102867933115E-5    2.270314760312038E-4    9.708010568314852E-1   -5.075472814410235E-2
 3.900000000000000E7    -9.007933320774726E-1    5.735132573219026E-2    3.228916646955314E-4   -3.532256096858349E-4   -4.430126779086459E-4   -4.803149194314186E-4    9.787404609549486E-1   -5.375393000848075E-2
 4.000000000000000E7    -8.939242310538784E-1    6.441873378183464E-2   -6.242168452667068E-4    1.854752553193180E-4   -6.281922480134296E-4   -1.515066599220882E-4    9.771840966620080E-1   -5.763698617831313E-2
 4.100000000000000E7    -8.968819247017019E-1    6.636764105180080E-2    3.506832578288928E-4   -3.392507278328901E-4   -2.046500437958823E-4    4.280828046751339E-4    9.716863481370591E-1   -5.308423541279680E-2
 4.200000000000000E7    -8.976667080905671E-1    6.411501587768773E-2    2.379632318495678E-4    7.220068304567958E-4   -2.595033124288724E-4    6.776443425643269E-4    9.702749107538912E-1   -5.122395967157711E-2
 4.300000000000000E7    -8.948945445126896E-1    7.065224389522279E-2    1.845251549491811E-4   -4.326308901109461E-4   -3.230381014095128E-5   -5.305849612274126E-4    9.715118898264403E-1   -4.842785964615648E-2
 4.400000000000000E7    -8.922343696883390E-1    6.497019161305993E-2    9.249845622015499E-4   -4.120703005017665E-4    2.654475630155114E-5   -3.712605306537647E-4    9.732623842494480E-1   -5.858921739602652E-2
 4.500000000000000E7    -8.967932456055241E-1    6.767110497079716E-2   -9.151093077206909E-5   -5.202192413728042E-5   -7.182331456526666E-5    2.023785178089006E-4    9.678864015109182E-1   -5.022983872942505E-2
 4.600000000000000E7    -8.889363168307904E-1    7.638152816127500E-2    2.819238050551106E-4    5.813800344061746E-4   -1.044034659083571E-4    2.615493484316937E-4    9.794441882176385E-1   -6.634869805995182E-2
 4.700000000000000E7    -8.940241361616974E-1    7.262459339695451E-2    6.080508168792882E-4    2.634105991450865E-4    5.120010848318158E-4    3.811371775527904E-4    9.614218291018910E-1   -6.627950581238633E-2
 4.800000000000000E7    -8.929619007912236E-1    6.922456457842656E-2   -3.430766733925060E-4    4.287264158801134E-4   -3.274414843428796E-4   -7.799716565179694E-4    9.673107691151248E-1   -6.513674339606197E-2
 4.900000000000000E7    -8.982472330098032E-1    7.578065337299238E-2    6.607617862892957E-5   -2.643875103234027E-4    4.121563411809367E-4   -4.711313032982892E-4    9.710299012285566E-1   -6.083051398539723E-2
 5.000000000000000E7    -8.970021643122451E-1    7.385517077315272E-2   -3.997183810556317E-5   -5.750217969777069E-4   -2.683328502773335E-4    1.485288435738557E-5    9.699605442928202E-1   -6.720033864961682E-2
 5.100000000000000E7    -8.895480292158638E-1    7.734801163688575E-2   -6.875581973446659E-4    7.588935993246780E-4    4.018128097828403E-4    3.651579780412440E-4    9.673769548084228E-1   -6.746239464382733E-2
 5.200000000000000E7    -8.920170219805360E-1    7.872125666751313E-2    6.818457442124276E-4    1.032491307009563E-3    4.085939667024359E-4    1.431940759602717E-4    9.671635668543663E-1   -6.425865368507325E-2
 5.300000000000000E7    -8.960539209421805E-1    8.028976366663018E-2    2.069281531453343E-4   -6.386011985793046E-4    1.520310202135895E-4   -6.429058095603484E-4    9.631098111419886E-1   -7.420146537547471E-2
 5.400000000000000E7    -8.904344963116860E-1    7.910223050267079E-2    2.575651409517261E-4    2.874259374797164E-4    3.354059215512415E-4   -6.348350606566037E-5    9.751607707373658E-1   -7.341397699017189E-2
 5.500000000000000E7    -8.945648483226042E-1    8.600435526806813E-2   -4.315692154054477E-4   -3.159362459213551E-4    3.405617884151762E-4   -4.161079484561132E-5    9.699589314788610E-1   -6.883828349813317E-2
 5.600000000000000E7    -8.966384330163800E-1    8.700843216994648E-2   -2.002156217549798E-4    3.188138973572219E-4   -5.509610331252068E-4   -2.411998433158334E-4    9.690100360050609E-1   -7.495617210666242E-2
 5.700000000000000E7    -8.887646003380145E-1    8.909196790673893E-2    3.537322794403190E-4    3.387296613503507E-4    2.633532557580702E-4   -1.483444434227500E-4    9.671638617078042E-1   -7.309938587862187E-2
 5.800000000000000E7    -8.911265823692455E-1    9.210119758327658E-2    1.673624718175619E-4   -8.483533152397504E-4   -2.931559110914056E-4   -4.596860373937776E-4    9.719328135287485E-1   -7.513238305154057E-2
 5.900000000000000E7    -8.900348175360049E-1    9.153590243154512E-2    6.874763747903022E-4    1.347272785164407E-4   -1.829738634507654E-4    2.387563272081785E-4    9.697230747451488E-1   -7.376927323427812E-2
 6.000000000000000E7    -8.950641656422730E-1    9.050411903225691E-2   -7.263127929532431E-4    2.763456806650044E-4    2.138676387371367E-4    6.713501355351571E-4    9.658299447953601E-1   -7.574315121886933E-2
 6.100000000000000E7    -8.844850674614073E-1    9.588979555657622E-2    5.324767318605373E-4    2.561680936608897E-4    3.072838723645440E-5   -2.289389603592717E-4    9.731529052046960E-1   -8.135124714830241E-2
 6.200000000000000E7    -8.866257309024359E-1    9.955507641570996E-2   -1.607918742765871E-4    4.860096184408941E-4   -9.741256358710175E-4    8.298110282563111E-4    9.655417036739745E-1   -8.283523919482684E-2
 6.300000000000000E7    -8.938332088950670E-1    9.650977749279338E-2    4.531331623191637E-4   -1.764229393040766E-4   -2.462953466984857E-4    4.118299129981870E-4    9.664044911061873E-1   -8.407957522216451E-2
 6.400000000000000E7    -8.893346854411465E-1    9.865789437742092E-2    4.635863046680228E-4   -1.882132740045517E-4   -9.599405525404899E-5   -5.818806835528937E-4    9.646739125401527E-1   -8.820862880750883E-2
 6.500000000000000E7    -8.906263533487063E-1    1.010607311040479E-1   -1.038015508351142E-3   -5.168106725531172E-4   -4.201849021282721E-4   -7.835772186134107E-5    9.653290184343100E-1   -8.160342934977156E-2
 6.600000000000000E7    -8.880568035462717E-1    1.039966996761796E-1   -5.373263821267505E-4   -8.406859057519778E-5    4.122742651325247E-4    8.752680269589016E-5    9.643150883913711E-1   -8.924084636588203E-2
 6.700000000000000E7    -8.932066804169601E-1    1.043142799585157E-1    2.775585732374390E-4    6.767621389311173E-5    5.060208473353691E-4    1.352737454086260E-4    9.744522843560037E-1   -8.700370647846135E-2
 6.800000000000000E7    -8.844691661647740E-1    1.030041079793543E-1    9.399729002325131E-5   -4.362022199408169E-5    4.984274009643109E-4   -1.144332393384907E-4    9.630630439834279E-1   -8.667246933720177E-2
 6.900000000000000E7    -8.902062459912148E-1    1.047916500516475E-1    2.781851020834245E-4   -2.192740128895291E-4    6.232985203505130E-4    8.734415877063970E-4    9.674627277974756E-1   -8.594496089984877E-2
 7.000000000000000E7    -8.905970955505800E-1    1.020270082732200E-1   -2.098821847906312E-5   -7.461776160637076E-4    8.303955635493216E-4    8.674564275269132E-5    9.653668302608318E-1   -9.071033223624868E-2
 7.100000000000000E7    -8.898357771231430E-1    1.079329892637396E-1    6.303043248284507E-5   -7.087165415851922E-4   -2.379888177667151E-4    7.545987134128172E-4    9.647270601706477E-1   -8.929597553185774E-2
 7.200000000000000E7    -8.882114618301243E-1    1.092375727102826E-1    4.340347371612693E-4    5.091622481220824E-4   -5.714563712883948E-4   -6.350250109155288E-7    9.647678576436940E-1   -9.169745734935232E-2
 7.300000000000000E7    -8.835682449184037E-1    1.073397789003748E-1    1.220335531032026E-4   -1.516657332873580E-4    2.284834147120128E-4    6.082849075390988E-4    9.628486017904331E-1   -9.633802332326798E-2
 7.400000000000000E7    -8.923445360460696E-1    1.104683297109107E-1   -4.175874184537881E-5    7.837180365445777E-5    3.643207130145078E-4    1.229711564487463E-4    9.641291473878748E-1   -9.987143673171352E-2
 7.500000000000000E7    -8.880159701921420E-1    1.127976047372820E-1   -7.659696804969057E-4   -2.757666929189568E-4    3.718708739858072E-5   -2.773130372836974E-4    9.621204800000809E-1   -9.110880185067705E-2
 7.600000000000000E7    -8.841194306122551E-1    1.193692690160118E-1    5.608472847939402E-4   -4.096469007021129E-5   -1.317186124528808E-4   -1.024578162443634E-4    9.683175194364632E-1   -1.008903974176798E-1
 7.700000000000000E7    -8.913527143692094E-1    1.174833272207046E-1   -3.775606411265834E-4    3.613526918639267E-5   -1.537111660968701E-4   -9.036582712040403E-6    9.605024232441508E-1   -9.646434031743902E-2
 7.800000000000000E7    -8.878176001605737E-1    1.172621454616765E-1    1.741168335797811E-4    5.414854279090518E-5   -5.785702060024280E-4    8.582553627106935E-5    9.641436985310406E-1   -9.949269334662234E-2
 7.900000000000000E7    -8.826706726545140E-1    1.102099503223376E-1    1.354793808253824E-4   -5.126486838124037E-4    4.286087650764176E-4    5.476920595349728E-4    9.616509103400905E-1   -9.917826194664556E-2
 8.000000000000000E7    -8.893764028037003E-1    1.202919092312193E-1   -4.727955727285092E-4   -4.375503628228503E-4    4.035730006381816E-4   -1.490848008951392E-4    9.629393223503319E-1   -9.956210038572791E-2
 8.100000000000000E7    -8.833204774710772E-1    1.202587924790826E-1   -6.516817314797677E-4   -2.054391349279553E-4   -2.210248358023520E-4    1.379125129933027E-3    9.648856771044830E-1   -1.009350892094222E-1
 8.200000000000000E7    -8.809132064329339E-1    1.154311257637105E-1    1.200577296787106E-5   -8.891836241630174E-5    8.239236542498585E-5    1.682466011459228E-4    9.622660072124172E-1   -9.965937043884364E-2
 8.300000000000000E7    -8.799381738305054E-1    1.225189212580663E-1    2.423988414158310E-4    1.934704186713295E-4    2.904412469967866E-4    2.733702670826119E-4    9.593874887677790E-1   -1.067147328251265E-1
 8.400000000000000E7    -8.891134295255675E-1    1.190928844278429E-1   -3.443307093861215E-4   -4.255730504314053E-4    3.911687285201063E-5   -2.642529329645446E-4    9.620525900826459E-1   -1.113207152195917E-1
 8.500000000000000E7    -8.843903460255323E-1    1.215237516000496E-1   -6.999742107907592E-5   -6.996929800114466E-5   -9.691091641549678E-5   -2.868989059242826E-4    9.559660033797759E-1   -1.101544338722262E-1
 8.600000000000000E7    -8.812794776191012E-1    1.257772286053531E-1   -1.564077951614200E-4    1.360455549111428E-4   -5.314546595460580E-6   -2.298159571083966E-4    9.658929817446392E-1   -1.095189273187800E-1
 8.700000000000000E7    -8.880814714043653E-1    1.269907549141508E-1    7.541857232533539E-5   -1.245874220820396E-4   -8.564083667217474E-4   -1.211384280623625E-4    9.604618705854967E-1   -1.029236903688193E-1
 8.800000000000000E7    -8.809757418384633E-1    1.349905851900251E-1    6.342267311817904E-5   -4.611913583900944E-4   -8.763870199398264E-5   -1.566810043887748E-5    9.609269501252052E-1   -1.096623406525589E-1
 8.900000000000000E7    -8.813651894275482E-1    1.307657052303774E-1    3.909218643292558E-4   -1.927229880166370E-4    2.868328015260376E-4   -1.263341864718424E-4    9.570565001645853E-1   -1.159221129068495E-1
 9.000000000000000E7    -8.872402446257440E-1    1.336383495641338E-1    1.624226315219413E-5   -1.073840125195041E-4   -1.803100074640481E-4   -2.756279156690452E-4    9.589433987809642E-1   -1.195708824547685E-1
 9.100000000000000E7    -8.805287570644795E-1    1.337630848252261E-1    4.370614369049940E-4    6.462798725049150E-4   -8.938635091092919E-5    4.051171118178833E-4    9.583637907237587E-1   -1.213378896795961E-1
