#  HZ   S   RI   R     50.00 
! Rohde & Schwarz Vector Network Analyzer 
! Rohde-Schwarz,ZNBT8-20Port,1318700624101681,3.50
! Created: UTC 7/15/2025, 2:08:24 PM
! freq[Hz]                re:S1010                im:S1010                re:S0310                im:S0310                re:S1003                im:S1003                re:S33                  im:S33
 1.000000000000000E6    -8.362430678532817E-1   -3.900657770546510E-3   -8.488984771443997E-5    1.547405726591752E-4    4.600357028580965E-5   -8.079921359521616E-5    9.691127454413653E-1    1.067345680569203E-2
 2.000000000000000E6    -8.217304395223087E-1   -7.872182080215413E-3   -1.148742233337156E-4    4.448956941018344E-4    2.198971312389898E-5    5.309056310677247E-5    9.740242008175398E-1    1.549753491216283E-2
 3.000000000000000E6    -8.260254807622173E-1    1.757107131224244E-3    4.008764278840488E-5    8.570784028127072E-5    3.725632780966776E-4   -2.848961907024260E-4    9.755079805482106E-1    9.177359655826096E-3
 4.000000000000000E6    -8.286826356878747E-1    1.180402805710383E-2    4.538341296613199E-5   -2.112809118198342E-4    6.446126353209828E-5    1.533869074134334E-4    9.780786267845523E-1    1.487016047947805E-2
 5.000000000000000E6    -8.243347715086904E-1    7.068861248359674E-3   -3.552296790873397E-5   -4.216611927419101E-6    1.576252203193025E-5   -8.235932770038526E-5    9.788976309280214E-1   -5.877487018860220E-3
 6.000000000000000E6    -8.280891829148362E-1    2.023221706907291E-2   -2.143841759551575E-5   -1.860599957612730E-5   -6.721054545710929E-5   -4.793908674868602E-5    9.741345297178623E-1   -1.710263916891104E-3
 7.000000000000000E6    -8.258199140472500E-1    1.907896134191752E-2   -1.135346971132041E-4    6.550936746273014E-5   -2.275705811532026E-4   -3.279942387850722E-4    9.785079389394465E-1   -7.781701726231607E-3
 8.000000000000000E6    -8.215648426834897E-1    3.240580599492882E-2    1.221603653405118E-4    1.490473823622414E-4   -3.993160916382594E-4   -2.539199891695414E-5    9.875595771183258E-1   -4.507060637446919E-3
 9.000000000000000E6    -8.370883479995126E-1    3.862928608201523E-2   -2.081103106469313E-4    2.298414000264525E-5   -1.504422157036554E-4    2.432435990961130E-4    9.843279499049685E-1   -3.889649465236237E-3
 1.000000000000000E7    -8.188060643888253E-1    4.919851430867029E-2   -1.293777188913615E-5    1.183562988260329E-4   -2.342785275265888E-5    2.615426358649615E-4    9.874708543570365E-1   -1.955718614383713E-2
 1.100000000000000E7    -8.253098811577312E-1    4.670058139244139E-2    1.934441955511883E-5   -2.109424120260788E-4    2.798274037395834E-5   -5.350758273139857E-4    9.712732164461768E-1   -1.750777977725748E-2
 1.200000000000000E7    -8.207938734349493E-1    4.048737785881177E-2    3.546170924132863E-4   -4.377648989069106E-5   -6.134064857781363E-5    2.504530946236552E-4    9.715253004410739E-1   -2.037142016494009E-2
 1.300000000000000E7    -8.189486548454525E-1    5.713571143811024E-2   -2.871632390876637E-4   -3.051274480254113E-4    9.584120146157977E-5    1.194091067586661E-4    9.754885493861241E-1   -1.584933023867323E-2
 1.400000000000000E7    -8.173509233937180E-1    6.401046275581027E-2    5.301561630454481E-4    1.801083498521403E-4    2.877573281248258E-4    1.362295076219186E-4    9.788533482436451E-1   -2.279113532687454E-2
 1.500000000000000E7    -8.307699114887567E-1    6.448484089098148E-2    1.878384390295592E-5   -2.244881307588371E-4   -1.146054910847052E-4    5.761436828299540E-5    9.799386937457329E-1   -1.542272311567665E-2
 1.600000000000000E7    -8.232389268245848E-1    6.983958339291245E-2    1.254836880454175E-4   -4.014495982286991E-5   -2.408922528302037E-4   -1.408078394163551E-4    9.764008263546216E-1   -1.983395036617922E-2
 1.700000000000000E7    -8.245307881201154E-1    6.533586933487889E-2    2.146624704676483E-4   -3.478074436654480E-5    8.413386456069586E-5    8.770444016521813E-5    9.843951159729878E-1   -2.503474758790449E-2
 1.800000000000000E7    -8.233593094205520E-1    7.619276636626794E-2   -2.287765385326072E-5   -2.635050516184132E-4    1.384996726387312E-4   -1.869977980500947E-4    9.830247827536367E-1   -2.551526180140341E-2
 1.900000000000000E7    -8.153697441076686E-1    7.848401297618952E-2    1.927938703804529E-5    1.186141915337237E-4    1.232956922521536E-4    1.593455398341598E-4    9.676784553782301E-1   -2.824190974150636E-2
 2.000000000000000E7    -8.128796608859923E-1    7.943140472592744E-2   -1.361231279979281E-4    1.289385462916944E-4   -2.829555442529195E-4    1.098910274788111E-4    9.747921040435618E-1   -2.823184131099992E-2
 2.100000000000000E7    -8.275528165385604E-1    8.373885875850662E-2    2.074879812985166E-4   -1.833458931844534E-4    4.018144554798723E-7   -1.083069131893022E-4    9.799481101887864E-1   -3.109565895530243E-2
 2.200000000000000E7    -8.207913869575979E-1    8.916861971631794E-2   -1.358763430312496E-4    1.321625279226653E-4   -1.072938951729214E-4    1.739661301396868E-4    9.797750358408301E-1   -2.436478106211556E-2
 2.300000000000000E7    -8.199738836914622E-1    8.780966964725814E-2   -2.133926380657186E-4    4.514983488056514E-4    2.388789943398540E-4    2.913176542802007E-4    9.808468509303093E-1   -4.087635955110863E-2
 2.400000000000000E7    -8.074890987884156E-1    1.058718400358034E-1   -2.854784208453801E-4    1.003070494179758E-4    2.019924446092612E-4   -1.595288196640540E-5    9.753790759547813E-1   -2.329917150086953E-2
 2.500000000000000E7    -8.032909536962233E-1    1.005287917128370E-1    2.684516703819362E-4   -4.592622857906898E-5    2.720712228369561E-5    1.488847768399757E-4    9.680979120059373E-1   -4.887541073236299E-2
 2.600000000000000E7    -8.275818620111970E-1    1.041293441128605E-1   -2.151202668941282E-4   -5.156840437982927E-4    4.020009435057367E-5   -3.286245982069246E-4    9.768536231391322E-1   -3.125136664753376E-2
 2.700000000000000E7    -8.190555938143189E-1    1.091680884831397E-1    2.549353217723132E-4   -2.192015449758572E-4   -2.666428961328937E-4    8.872740599313048E-5    9.797601420851104E-1   -2.985634514484967E-2
 2.800000000000000E7    -8.156953389510451E-1    1.172821133095480E-1   -2.777208788356140E-4   -1.682813940355942E-4    1.774408051904002E-4   -7.380186557622893E-4    9.723781719096963E-1   -3.114622459831460E-2
 2.900000000000000E7    -8.111134320047568E-1    1.247150341771121E-1   -2.373946245072912E-4   -4.372831993151480E-4   -7.373780826715368E-4    5.655042190772993E-4    9.785837054196017E-1   -3.619565760546799E-2
 3.000000000000000E7    -8.104922628282668E-1    1.214559479010841E-1   -1.833510867068758E-4    9.814002308775084E-4   -9.106656996542114E-5    2.986022678825753E-4    9.753276776147768E-1   -4.711140727602144E-2
 3.100000000000000E7    -8.097944043880142E-1    1.277171000307335E-1    1.690290729677000E-5   -3.043306070633766E-4   -9.191828019412158E-6    4.389031802534753E-4    9.717746395748663E-1   -5.037411475543598E-2
 3.200000000000000E7    -8.100227468245143E-1    1.293538718428118E-1    3.254735786279574E-4   -7.067675119246989E-4   -2.288706386224829E-4    7.534993021130767E-5    9.753238270664142E-1   -3.958854817461645E-2
 3.300000000000000E7    -8.097481996733361E-1    1.354025853447916E-1    8.809164632182160E-5   -7.677213268086921E-4   -1.186894928983364E-4   -2.884806011740332E-4    9.715921155473778E-1   -4.229992289071150E-2
 3.400000000000000E7    -8.106236008373308E-1    1.377265571433560E-1    2.166573239183149E-4    1.265562341570086E-3    1.336281513923502E-4   -1.397414970152762E-4    9.774285357505048E-1   -4.518737418828749E-2
 3.500000000000000E7    -8.102260299810627E-1    1.446550926113506E-1   -2.480202810071757E-5   -8.366749357163448E-4   -5.269744846627224E-4   -1.230533363352337E-4    9.799928197451646E-1   -5.058748197466983E-2
 3.600000000000000E7    -8.126757066663718E-1    1.440544968935519E-1    5.673298026546741E-4   -4.447748205294291E-4    3.724435605432135E-5    5.326138667734662E-4    9.706944877294958E-1   -4.594171926436904E-2
 3.700000000000000E7    -8.109921627535921E-1    1.476299012299716E-1   -1.723946740865501E-4    9.793878154016727E-5   -1.697461858772012E-4   -2.375457036162266E-4    9.730920854912505E-1   -5.005796932404578E-2
 3.800000000000000E7    -8.072506152209955E-1    1.552182004876020E-1    2.024865651954137E-4   -3.728273340544555E-4   -1.863310201779797E-4    2.232316904471489E-4    9.706386498132697E-1   -5.359014379499946E-2
 3.900000000000000E7    -8.056292450582843E-1    1.585523782879966E-1   -1.368499477981347E-4    4.983534449889921E-5   -2.819654332289437E-4    8.203398874238725E-5    9.758430862377035E-1   -5.504439596965974E-2
 4.000000000000000E7    -8.043701937832600E-1    1.692800195988764E-1   -4.172280780617285E-4    4.389865601611098E-4   -3.873981279044152E-4    7.295168970653729E-4    9.721090147027814E-1   -5.354914732781951E-2
 4.100000000000000E7    -8.067402711704504E-1    1.665780927729694E-1   -7.896519055335291E-4   -7.045113349778700E-5   -2.000955974130198E-5    3.860941744903967E-4    9.773365310480953E-1   -4.992312016712583E-2
 4.200000000000000E7    -8.063273224807698E-1    1.702850496844578E-1    8.695310287368575E-5   -7.612989330453899E-4   -8.798528527215755E-6    8.423123906083868E-5    9.772149126128671E-1   -5.012868153021219E-2
 4.300000000000000E7    -7.985702056487798E-1    1.767694990559379E-1    1.060463963161325E-3    3.322939839889129E-4   -1.866483120191130E-5   -2.480199271675222E-4    9.752841341488593E-1   -4.688036342488607E-2
 4.400000000000000E7    -7.979075388418518E-1    1.773780124362022E-1   -1.185493991834210E-4   -2.065585517179971E-5   -2.373741311292523E-5    1.456786127862103E-4    9.674000616243068E-1   -5.578056466988898E-2
 4.500000000000000E7    -8.035255224660224E-1    1.766432605842633E-1    5.396700501103577E-4   -1.783226099263666E-4    6.371655357228205E-4    1.839952855111676E-4    9.679310764689130E-1   -4.865037202499554E-2
 4.600000000000000E7    -8.014739066441650E-1    1.889319342241816E-1    2.994492536350652E-4    4.592548661682052E-5    1.513700403417310E-3   -3.779254327148017E-4    9.760259624649933E-1   -6.999949954691327E-2
 4.700000000000000E7    -7.965619362957398E-1    1.869288787431863E-1    1.160638949616486E-3    3.396012200107052E-4   -7.045284530146782E-5    1.344650737740050E-4    9.684066990674177E-1   -6.059764199243169E-2
 4.800000000000000E7    -7.967384736168339E-1    1.908151993610638E-1    4.274710499519610E-4   -5.808912260051420E-6    6.790003026341204E-5    4.167117468250002E-4    9.701443067793990E-1   -6.256545964222696E-2
 4.900000000000000E7    -8.017700525154542E-1    1.937921964126249E-1    3.666135455252146E-5   -4.189417715874679E-4   -1.877863206044246E-4   -9.247685443311138E-5    9.727300088929606E-1   -5.979824785076333E-2
 5.000000000000000E7    -7.942061300266049E-1    2.011980841024749E-1    4.259562417800979E-4    2.039912442186360E-4    4.904364469354560E-5    2.108145583526163E-4    9.715226080470879E-1   -6.296242040641933E-2
 5.100000000000000E7    -7.931231623844763E-1    2.036051879478260E-1    2.286813565518517E-4   -1.035139521908234E-4    4.172845430611179E-4    3.471195775162601E-5    9.665341408362295E-1   -6.222264212357832E-2
 5.200000000000000E7    -7.958909345674335E-1    2.062306000047759E-1    1.680438521777368E-4    4.160602561003639E-4    4.632182975959997E-4   -3.458283107570924E-4    9.705833053455647E-1   -6.792945949479001E-2
 5.300000000000000E7    -7.911151227177913E-1    2.067626928639328E-1    9.382588645837206E-5   -1.694686469594448E-4    5.308527384491529E-5    4.559657097082466E-4    9.676914300650598E-1   -6.912213382023560E-2
 5.400000000000000E7    -7.915706118584145E-1    2.189313811508516E-1    2.399188169995116E-5   -6.079824465248966E-5    2.526634304843144E-4   -2.100745661084860E-4    9.722412667972169E-1   -7.912252398280591E-2
 5.500000000000000E7    -7.929812880757258E-1    2.202672894981273E-1   -5.968955257527369E-4    6.260418834436929E-5    3.954969962261163E-4   -3.399764185369161E-4    9.706006822556306E-1   -7.002811946607226E-2
 5.600000000000000E7    -7.857343903858285E-1    2.259132236480325E-1    8.818899794833557E-5   -1.071541772832208E-3   -7.774732793792154E-4    2.478021147148864E-4    9.717540541959323E-1   -7.297939323942620E-2
 5.700000000000000E7    -7.825057835080804E-1    2.308406290564262E-1   -5.629396453668513E-4   -5.248132615878610E-4    3.184983152354904E-4   -3.263521867177520E-5    9.686203741068280E-1   -7.029237266438691E-2
 5.800000000000000E7    -7.801573428351425E-1    2.321167182462069E-1    7.474564150556518E-5    2.616244811087311E-4    1.754248005088624E-4   -3.402965156340740E-4    9.687915372943562E-1   -7.071600740036066E-2
 5.900000000000000E7    -7.801887267274173E-1    2.331670270060604E-1    6.332793404347324E-4   -1.436291637915161E-4   -4.484193960394615E-6    1.313874840025251E-4    9.699278135049711E-1   -7.504538005611452E-2
 6.000000000000000E7    -7.839640987369202E-1    2.381204949124868E-1    7.679229092019305E-5    6.978448158342501E-4    2.245793140205444E-5   -4.242949284465782E-4    9.712372062213410E-1   -8.122706166291903E-2
 6.100000000000000E7    -7.771075300644361E-1    2.385462914568998E-1   -4.226001966244481E-4    4.247296626896744E-4    3.528294974698790E-4    3.480517896537172E-4    9.706227072698885E-1   -8.390957438573311E-2
 6.200000000000000E7    -7.800421311900043E-1    2.529562004201705E-1   -6.849641147031139E-5   -4.477965115282038E-4    3.583848801537682E-4    5.844042557740117E-4    9.616480217304147E-1   -8.178097635580527E-2
 6.300000000000000E7    -7.771566987677084E-1    2.507059128643396E-1   -8.736488873511203E-4    5.067434379638236E-4    2.969734779815763E-4   -1.920831421642406E-4    9.627338603180979E-1   -8.409826076871670E-2
 6.400000000000000E7    -7.763923350167662E-1    2.542603039203142E-1   -2.188697000062605E-4    1.277061347458703E-3   -4.671939677774460E-5   -4.582157436420165E-4    9.642818383799706E-1   -8.638431603577836E-2
 6.500000000000000E7    -7.731214409989983E-1    2.635306032534969E-1    1.783296508232583E-4   -3.976868936587928E-6   -1.464313446678940E-4   -3.178343044514550E-4    9.638260425677684E-1   -8.288028225159018E-2
 6.600000000000000E7    -7.725918037767723E-1    2.654406402690996E-1   -2.115871359632312E-4   -2.125498988565152E-4   -3.733780001595086E-4   -5.260042530795493E-4    9.587829131191264E-1   -8.823033130795638E-2
 6.700000000000000E7    -7.722709210402600E-1    2.643492039707319E-1    6.710558651102959E-5    1.054158933221511E-4   -3.452932346020853E-4    3.911516478265502E-5    9.699762136670577E-1   -8.907224913840248E-2
 6.800000000000000E7    -7.718131005953186E-1    2.635969237309875E-1   -2.488688409285428E-4    1.980236557392000E-4   -1.728146388306408E-4   -7.725604847100403E-4    9.631923264893715E-1   -9.092789475467090E-2
 6.900000000000000E7    -7.704506101918069E-1    2.691996868803298E-1    3.897273951655756E-4    1.161089233788604E-4    1.761144410542126E-4   -1.287972987223236E-4    9.624938265416061E-1   -9.048399518074465E-2
 7.000000000000000E7    -7.711578600532145E-1    2.776829521102814E-1    3.694753273267694E-4    7.421743424471931E-4    6.686112769512464E-5    1.107694745369295E-4    9.643503994404631E-1   -9.360016902366980E-2
 7.100000000000000E7    -7.711859062790397E-1    2.818539273556940E-1   -5.579241924595277E-4   -3.897052156448502E-4    2.565290771910862E-4   -3.287258799539816E-4    9.637332962440087E-1   -8.934873469541983E-2
 7.200000000000000E7    -7.633456022026313E-1    2.827414260891564E-1   -3.818190453663265E-4    6.507459755164594E-4   -6.097691713453835E-4   -3.944045634189782E-4    9.675828521234687E-1   -8.976812227514760E-2
 7.300000000000000E7    -7.589577293849437E-1    2.858895440553074E-1   -2.133741197501377E-4    1.516565521421818E-4   -8.053345668948881E-5    3.973569532732610E-4    9.616505077266442E-1   -9.337872446466995E-2
 7.400000000000000E7    -7.604198678642297E-1    2.953503200967430E-1    2.876436803103104E-4    4.866419391161333E-4   -1.234089600272814E-4   -4.930213339339106E-4    9.607486908031919E-1   -9.917360656580732E-2
 7.500000000000000E7    -7.580623188499418E-1    2.928365901874019E-1   -1.184206816411404E-4    3.922491537381248E-4    1.206005198792896E-4    1.085718959537962E-4    9.667368095793344E-1   -9.941687583692314E-2
 7.600000000000000E7    -7.595760574362602E-1    2.990582956847870E-1    2.482327075061604E-4    4.073702843786538E-4    8.630699190291091E-5   -2.411582290030541E-4    9.640801822007485E-1   -9.884441915184254E-2
 7.700000000000000E7    -7.590611616254944E-1    3.039893969938583E-1   -6.779469387373957E-4    6.497802756962650E-6    3.786452799665704E-4   -8.768631584869655E-5    9.651759670074622E-1   -9.553551401069800E-2
 7.800000000000000E7    -7.535908446665678E-1    3.071474720025851E-1    6.128877444293553E-4    3.102643592215798E-4    1.482085649957084E-4   -2.518086700154005E-4    9.644047809170729E-1   -1.019719712737648E-1
 7.900000000000000E7    -7.548071969139643E-1    3.086738296285499E-1    4.707101670301484E-4   -7.725165929410249E-4   -2.272416127777924E-4    3.598388787210413E-4    9.622344282359028E-1   -1.050389216050936E-1
 8.000000000000000E7    -7.488231909448342E-1    3.127157958496908E-1    6.220833008102039E-4    2.269240603652240E-5    1.602734322434126E-4   -1.112488684532128E-4    9.668830949632167E-1   -1.018382643358419E-1
 8.100000000000000E7    -7.435552227436996E-1    3.220124477259760E-1   -1.042073316493779E-3   -4.365009857834965E-4   -1.885449388488389E-4   -2.259211706073166E-4    9.652935728922281E-1   -1.038863013151200E-1
 8.200000000000000E7    -7.470145435298933E-1    3.214870562823994E-1   -6.151419245718440E-4   -5.388653885189006E-4   -4.314941592086450E-5    3.152775223298231E-4    9.595701398502834E-1   -9.839277274530096E-2
 8.300000000000000E7    -7.427426712537256E-1    3.236227254918478E-1   -2.040147968888019E-4    1.958955998642101E-4    3.724335021170543E-4    1.125370921603869E-5    9.587962943166060E-1   -1.043180239543511E-1
 8.400000000000000E7    -7.470003682335059E-1    3.246189635235369E-1   -9.849219739152807E-5   -8.078431857432006E-4   -3.164955588251371E-4   -2.332410431129140E-4    9.632973739223002E-1   -1.092446174691239E-1
 8.500000000000000E7    -7.415626589654410E-1    3.259373918306649E-1    1.128784653241465E-4    2.491747920127770E-4   -2.502172245493857E-4    2.314126499159467E-4    9.579501449908689E-1   -1.086149632499449E-1
 8.600000000000000E7    -7.430319658156557E-1    3.373810349192709E-1    2.666882842966010E-4   -7.819825020910168E-4    8.140382928485950E-5   -2.399783847037686E-4    9.650401054227240E-1   -1.065232323123897E-1
 8.700000000000000E7    -7.354603635173460E-1    3.394431525392446E-1    6.709149896011942E-5   -5.823787610932568E-5   -1.114397861055491E-4   -2.224379627066044E-4    9.580175300061093E-1   -1.047831833465005E-1
 8.800000000000000E7    -7.287684466786591E-1    3.446631171570335E-1   -6.443696191244839E-5   -1.661680820950123E-4   -5.148496103893261E-4    6.988115514860566E-4    9.591798086404997E-1   -1.081226612079027E-1
 8.900000000000000E7    -7.363987713730352E-1    3.476076127166546E-1   -2.818801978655083E-5   -2.826127475391054E-4   -2.403445378891679E-4    3.930835840567417E-4    9.597025874905789E-1   -1.164838728020717E-1
 9.000000000000000E7    -7.308390198859872E-1    3.532349290054610E-1   -3.083854807907493E-4    2.593252440110950E-4    9.237540143524431E-5    4.190399770779911E-4    9.581986986078014E-1   -1.140439915986769E-1
 9.100000000000000E7    -7.274926307485853E-1    3.546202301883094E-1   -3.890790628080641E-4    2.954141800172745E-4    2.953613678307800E-7   -6.325649908984044E-4    9.609496850791925E-1   -1.175889093907058E-1
