#  HZ   S   RI   R     50.00 
! Rohde & Schwarz Vector Network Analyzer 
! Rohde-Schwarz,ZNBT8-20Port,1318700624101681,3.50
! Created: UTC 7/15/2025, 2:12:23 PM
! freq[Hz]                re:S1010                im:S1010                re:S0610                im:S0610                re:S1006                im:S1006                re:S66                  im:S66
 1.000000000000000E6    -9.083509140325708E-1   -3.745431641090904E-3    9.206604954011986E-5    1.147396589114424E-4    1.069507418941907E-4   -1.889356008813224E-4    9.704034358942525E-1    1.238811825969686E-2
 2.000000000000000E6    -8.980144484318318E-1   -1.310086831850270E-2    9.988179611554853E-5   -1.053369243699485E-4    1.391147950012822E-4    2.783793255657485E-4    9.804492151783184E-1    2.604877730351825E-2
 3.000000000000000E6    -9.034688311986331E-1    1.430627223853084E-3   -2.930119670804492E-4   -1.515335137298655E-4    1.075120216466316E-4   -2.115134998909547E-4    9.654079468398791E-1    1.344091140861797E-2
 4.000000000000000E6    -9.039944407733085E-1   -1.312584663108138E-2    8.186242005063446E-5    1.838621996574237E-5   -3.387076229373643E-4   -5.226567722247507E-5    9.765809906799507E-1    6.167187090757552E-3
 5.000000000000000E6    -9.009838454010288E-1   -5.390114448917771E-3   -1.550023526549245E-5   -7.547207893469911E-6   -1.611409972064892E-4    1.448928457292297E-5    9.722340500711073E-1   -4.684403222708020E-5
 6.000000000000000E6    -8.960331804353779E-1    3.157101144419380E-3   -1.810763525345567E-4    1.922208343587418E-4    3.008734970062215E-5    1.038325809037566E-6    9.769793977534627E-1    2.816994987938273E-3
 7.000000000000000E6    -9.071721338528675E-1    6.456967050316445E-3   -1.058199502873407E-4    3.004923135015111E-4   -1.701782847278852E-4   -4.185368821119188E-4    9.733315813595639E-1    9.252325669550581E-4
 8.000000000000000E6    -8.982977296235419E-1    9.228320224530040E-3   -1.012419244429092E-5    9.422936680113448E-5   -1.674985612086096E-4    2.663460024920649E-4    9.714145649809593E-1   -5.867882120811669E-3
 9.000000000000000E6    -9.007421161760452E-1    1.421177632743486E-2    6.676426193165165E-5   -4.089211165625532E-5    8.044403414288212E-5    6.508230172258680E-5    9.709547384063208E-1   -1.769132998383390E-2
 1.000000000000000E7    -9.051107552569547E-1    2.760375316619878E-2    1.295586301195828E-4    2.001323315046393E-4   -6.847734912586430E-5   -1.175821648040318E-4    9.621871460120276E-1   -2.116420859752563E-2
 1.100000000000000E7    -8.915998989026296E-1    2.058038173978657E-2    9.073207909843353E-5    9.756445784693628E-5   -4.790659918945355E-4   -1.898288924540303E-4    9.805066012464655E-1   -1.220263494053301E-2
 1.200000000000000E7    -8.874836990453389E-1    1.011089038303072E-2   -3.157310121274199E-5    1.965371291230814E-4    2.937398552221347E-4    4.940247824726329E-6    9.786873660941580E-1   -1.993995999039870E-2
 1.300000000000000E7    -8.930727298980781E-1    1.343357563833384E-2   -4.908865382782286E-5   -3.109059603118353E-5    3.309507997510165E-4    4.281233984326647E-4    9.797296171873169E-1   -2.185059137784423E-2
 1.400000000000000E7    -9.047391086805462E-1    2.825473178359790E-2   -6.081079915953084E-6   -1.868950208519105E-4    1.228146939716710E-4    1.093764146264179E-4    9.776420701540154E-1   -1.682386796826301E-2
 1.500000000000000E7    -9.013010959238529E-1    3.456108305276354E-2   -6.342815727033809E-5    2.670751789819328E-4   -5.212463540486368E-5   -1.069680293257717E-4    9.798960249205505E-1   -2.830748211705233E-2
 1.600000000000000E7    -9.086651574523418E-1    3.076595845361527E-2   -7.278847341263100E-5   -1.722083290098066E-4    3.708431237201130E-4   -2.638000469733036E-4    9.739961779441055E-1   -2.412320694638842E-2
 1.700000000000000E7    -8.974848911020167E-1    3.549072053568676E-2   -1.569169237211233E-4   -1.026264776108824E-4    2.298389476518704E-4   -2.995078836495283E-4    9.740516337191124E-1   -3.404635400121404E-2
 1.800000000000000E7    -9.052882697713592E-1    3.045618054949814E-2    3.476083360284499E-4    1.471076770576121E-5    4.149786110784478E-7    1.829759739239772E-4    9.803063408842758E-1   -2.973384991175294E-2
 1.900000000000000E7    -8.975403785154232E-1    3.221516588329983E-2   -3.119368538915181E-4   -3.111470057984295E-4   -3.444928332759227E-4    6.850591105928969E-5    9.775865907926385E-1   -2.684552917948121E-2
 2.000000000000000E7    -8.975239510042204E-1    3.547330883973481E-2   -2.210906459750628E-5   -1.107184458744285E-4   -1.737759414761509E-4   -1.170558246913623E-4    9.785867372367280E-1   -3.007117772005625E-2
 2.100000000000000E7    -8.994229718140572E-1    3.594205685879827E-2   -2.062402642521719E-4    8.293534135511828E-5   -2.899195984243308E-4    1.024631011782178E-5    9.677911732579763E-1   -3.416931091396785E-2
 2.200000000000000E7    -9.045890174277794E-1    2.879577539350820E-2    4.657282404668227E-4    1.365169813411904E-4    2.099864316442301E-4   -6.236887286829298E-4    9.636238863896789E-1   -4.022026747577573E-2
 2.300000000000000E7    -8.993768589937917E-1    3.243153615641344E-2   -3.295237772933204E-4   -5.641360318133375E-5   -6.126776053144646E-5   -1.058809208197999E-5    9.809303102164394E-1   -5.080049027304103E-2
 2.400000000000000E7    -8.946400640074236E-1    3.949236670544962E-2   -5.376113512227553E-5    2.264807499632039E-4    3.958330598290453E-4   -3.878649379907232E-4    9.703808157845465E-1   -3.839670256125329E-2
 2.500000000000000E7    -8.850504376796258E-1    4.959095883580226E-2    1.516462044055610E-4   -7.358485323899674E-5    1.022701946446172E-4   -4.134634669218592E-4    9.797053696538106E-1   -3.965959935720857E-2
 2.600000000000000E7    -9.037846819818972E-1    4.151314285359018E-2   -1.095965473066874E-4    2.002520413124067E-4    5.126628196307812E-4    2.040097572938693E-4    9.780897782072624E-1   -4.269778659934407E-2
 2.700000000000000E7    -9.019544232483618E-1    4.516959800436667E-2   -2.093015324185108E-4    1.374180165875690E-4   -3.759000202978144E-5    4.440716049403339E-4    9.752975202896345E-1   -5.020050118262930E-2
 2.800000000000000E7    -9.000133853175358E-1    4.619544512443288E-2    8.853486506370798E-5   -2.686071970948003E-4   -1.433869579817480E-4    8.379420610365614E-4    9.813103891001724E-1   -3.818695768120996E-2
 2.900000000000000E7    -8.953824420251537E-1    4.754449259196371E-2    2.323995758128687E-5    7.421103076215861E-4    4.958537800224825E-4    3.669459873306028E-4    9.717938268750533E-1   -5.373907517070341E-2
 3.000000000000000E7    -8.981175441127286E-1    5.109731903354397E-2    2.130885686873651E-4   -3.390243565288619E-5    2.359570501281989E-4    4.089842654738035E-4    9.740039554492455E-1   -4.540268162030751E-2
 3.100000000000000E7    -9.018403587546572E-1    5.028671548497946E-2   -3.913808179395689E-4    6.269862807354497E-4   -3.451653080140144E-4   -1.819933844404799E-4    9.732054545016792E-1   -4.832031651555270E-2
 3.200000000000000E7    -8.961383178522987E-1    4.950014947530802E-2   -1.355801453343818E-4   -4.471716501037191E-4    1.741783671767178E-4    3.666525055548107E-4    9.747907625116621E-1   -5.280934864719369E-2
 3.300000000000000E7    -8.949572030661770E-1    5.696528206101489E-2    4.220213518685932E-4   -2.117495413538888E-4   -3.469124198566031E-4    1.175414119388716E-3    9.754100964170888E-1   -5.651336780407490E-2
 3.400000000000000E7    -8.946490547514108E-1    5.124868983440554E-2   -1.517570401889163E-4   -2.660664705949624E-4    5.766304588789133E-4    5.667183142066537E-4    9.738238382974648E-1   -5.503209013780695E-2
 3.500000000000000E7    -8.958873845786760E-1    5.269908004452714E-2   -3.867538303304915E-4   -1.773794522078973E-5    9.074333336038832E-5   -3.168763014617389E-4    9.668334107176583E-1   -6.071012934410790E-2
 3.600000000000000E7    -9.059473699972832E-1    6.041443724645022E-2   -1.006808183957521E-5   -6.217119901417654E-4    2.414718823274844E-5    4.579197830470274E-4    9.713434132405772E-1   -5.727933579926230E-2
 3.700000000000000E7    -8.957529688839685E-1    6.112466400839539E-2    8.773198750191199E-4    3.094407685134081E-4   -2.273969760090721E-5   -4.572482237539366E-5    9.698681272452108E-1   -6.008780278713432E-2
 3.800000000000000E7    -8.959534088377511E-1    5.194994826465484E-2    9.767389407495566E-5   -1.238570305556185E-4    3.407290440184829E-4   -3.241225415208972E-5    9.734574776866566E-1   -6.546967265545316E-2
 3.900000000000000E7    -8.980601008287280E-1    5.807810746619282E-2   -3.723776066534259E-4    5.212263495833912E-4   -9.448210012138458E-5   -1.268793373538374E-4    9.729690326595575E-1   -6.449447849388214E-2
 4.000000000000000E7    -8.968977430224563E-1    6.320709104425161E-2    1.075186400779350E-4   -7.454695554889218E-4    4.319636605629931E-4   -2.364797913158451E-4    9.715698880944422E-1   -6.620803461053940E-2
 4.100000000000000E7    -8.953144415438270E-1    6.298991979915732E-2   -9.169689593398812E-4   -3.324631738011428E-4   -1.710170625232394E-4   -4.636908266163377E-4    9.662193914514208E-1   -6.370133121231226E-2
 4.200000000000000E7    -8.992318851697753E-1    6.620884475008627E-2   -7.755138296124584E-4    2.859710607784334E-5    5.226554366520664E-4    1.760705255640113E-4    9.669300870168914E-1   -6.594623529867850E-2
 4.300000000000000E7    -8.934180636370904E-1    6.893370061019077E-2    2.367062657378632E-4   -7.439168556916067E-4    6.185038130407900E-5   -2.451940942408704E-4    9.698087095473397E-1   -6.928158941009450E-2
 4.400000000000000E7    -8.898789895636328E-1    6.319338231459079E-2    2.222351343847314E-5    7.334690063512778E-5   -4.886711564041795E-4   -2.787698071547551E-4    9.611979306330251E-1   -6.498998747219992E-2
 4.500000000000000E7    -8.958034491001473E-1    6.940781774731303E-2   -2.618334369459351E-4    4.549881322385557E-4    5.564130306065036E-4   -1.900030830721783E-5    9.680067582609128E-1   -6.564800620751679E-2
 4.600000000000000E7    -8.905645679901494E-1    7.064192181877639E-2   -6.557723047654489E-4   -2.927766318967531E-4    1.837348669321733E-4    4.819625552562960E-4    9.703651980308514E-1   -7.120827471099739E-2
 4.700000000000000E7    -8.975153378913474E-1    7.371689153731384E-2    1.735302457577884E-4    1.254532880914731E-4    5.818623013628186E-4    6.500466656866694E-5    9.639502329006018E-1   -7.351650548560418E-2
 4.800000000000000E7    -8.937057673771277E-1    6.984886966219653E-2   -6.729622340601085E-4   -2.439744361287133E-4    4.475674792786024E-4   -2.565256858661778E-4    9.617640306106900E-1   -7.199376535212994E-2
 4.900000000000000E7    -9.057125778587281E-1    7.266867116262700E-2   -6.233333643263971E-5   -6.805420829007877E-5    2.141361294389143E-6    1.184079621075663E-4    9.657845746045919E-1   -7.361034511083361E-2
 5.000000000000000E7    -8.947162777223152E-1    7.774457093466924E-2   -3.340325421040412E-4    1.844894885708222E-4   -2.382271269817590E-4   -1.729505552905614E-4    9.641411072453113E-1   -7.890065866062353E-2
 5.100000000000000E7    -8.930376460452786E-1    7.705834053003992E-2    9.250280393882901E-4   -4.257174600468187E-4   -2.360324523706409E-4   -6.947282628857936E-4    9.671519003119975E-1   -7.540564656939543E-2
 5.200000000000000E7    -8.962959358907263E-1    7.691939367043149E-2   -3.842727867131344E-4    2.345765070188524E-4    2.298218303483734E-4   -6.854631071960520E-5    9.652706293539333E-1   -8.486703257924597E-2
 5.300000000000000E7    -8.882176803166346E-1    8.325966769664318E-2   -1.484557323507083E-4   -6.821309716121984E-5    8.386090052568117E-4    1.230687125380519E-4    9.683491460119688E-1   -8.245478229166701E-2
 5.400000000000000E7    -8.918731071231772E-1    7.730988547947161E-2    5.786330503098780E-6   -7.654423265305191E-5    5.152466116148111E-4   -2.875892265413195E-4    9.630257530666356E-1   -8.314107977279461E-2
 5.500000000000000E7    -8.901978497846654E-1    8.524802296131118E-2   -4.561228934505350E-4   -2.735603317661149E-4    5.563721850751058E-4    2.675261934330585E-4    9.659827379534903E-1   -8.869978060408638E-2
 5.600000000000000E7    -8.921597397532854E-1    8.719530394347672E-2    2.455133404831880E-4   -1.218565092948250E-3   -2.609345157065398E-5   -1.211986125578204E-4    9.685013194244256E-1   -8.885183069087674E-2
 5.700000000000000E7    -8.942814707733515E-1    9.041517863579750E-2    1.150378809668968E-4    8.128286775492785E-5    3.858177101910430E-4    1.427098084449188E-4    9.600157824870453E-1   -8.882511703104200E-2
 5.800000000000000E7    -8.906028592634501E-1    8.912493707448833E-2    5.580625152738888E-4    9.620937952935026E-5   -6.633633314532010E-4    9.082381836132141E-5    9.632964830753074E-1   -8.688011039384592E-2
 5.900000000000000E7    -8.920693850331424E-1    8.656143279126036E-2   -6.971333677931053E-4   -6.674565359973831E-4   -1.803747575989608E-5   -2.463553753883385E-4    9.633591694852424E-1   -9.936662209653004E-2
 6.000000000000000E7    -8.902352451941759E-1    8.372851517776070E-2   -5.762008968308806E-4    9.639564505580699E-4   -9.825907438095999E-5    6.815177473708736E-4    9.590634739945826E-1   -9.501224635361949E-2
 6.100000000000000E7    -8.852335835021630E-1    9.592564515933852E-2   -3.323349064395848E-4    2.031766489374295E-4   -2.696412240140841E-4   -2.363334605209264E-4    9.640859570342313E-1   -9.949588269578140E-2
 6.200000000000000E7    -8.882632302517245E-1    9.548925865288997E-2    6.187271311004176E-4    7.863766962400105E-4   -2.516538808323465E-4    3.380783111652348E-4    9.559337197278482E-1   -9.703694026629575E-2
 6.300000000000000E7    -8.882300922170456E-1    9.501216181403731E-2    2.798237432125858E-4    2.458869591991122E-4   -3.196396892628622E-4   -2.177095490902820E-4    9.624635824624000E-1   -1.027828202035785E-1
 6.400000000000000E7    -8.876747041168827E-1    9.960005961283279E-2   -1.120552516024280E-4   -2.781603212048622E-5    2.470609482893427E-4    1.190344955986992E-4    9.591455854584121E-1   -1.010479502610417E-1
 6.500000000000000E7    -8.936856209901158E-1    1.035628300843656E-1   -3.080409850244937E-4    4.723298592304114E-4   -1.307459322652964E-4   -7.425762746210009E-4    9.603363640350716E-1   -9.872964023199500E-2
 6.600000000000000E7    -8.888616524080530E-1    1.013198456333217E-1    2.953178096581934E-4   -4.783352509063283E-4    2.687461413537394E-4    1.110215424940697E-3    9.582413277517638E-1   -1.078325538906867E-1
 6.700000000000000E7    -8.927053166150133E-1    9.988516531656519E-2   -7.470078184550838E-4    7.066017254204512E-5   -6.360451528058937E-4    1.347066015428435E-4    9.620253085095196E-1   -1.065980968511576E-1
 6.800000000000000E7    -8.862238645915099E-1    1.058209145320612E-1   -1.624757403331964E-4    6.856029832189924E-4   -4.911862429841608E-4    2.523484714705791E-4    9.585300881303452E-1   -1.036450870500494E-1
 6.900000000000000E7    -8.919963049400786E-1    1.031404889510115E-1   -1.385050796637015E-5    8.665149944395659E-4   -1.822101992833119E-4    1.595257234474250E-4    9.611677725019646E-1   -1.100602208209590E-1
 7.000000000000000E7    -8.891184023647025E-1    9.613190131035033E-2   -2.200145165490342E-4   -1.511518881419960E-4   -1.220967030065285E-3   -1.731956773649739E-4    9.607365813320995E-1   -1.108540781676449E-1
 7.100000000000000E7    -8.876951774713825E-1    1.085118949689897E-1    4.031348361136378E-4   -2.788547274697684E-4   -1.502460717755682E-4   -7.076010517907416E-4    9.621035716243179E-1   -1.170900822418132E-1
 7.200000000000000E7    -8.860752484352784E-1    1.087773746907161E-1    8.042349354213603E-4   -7.234333560188737E-5    2.474798446564746E-4    9.532159917634400E-5    9.650957985343505E-1   -1.132041885727492E-1
 7.300000000000000E7    -8.897999886064766E-1    1.076675584260323E-1    3.481933872014553E-4    5.699220477378285E-4   -1.640137269557205E-4   -2.069333009239511E-4    9.617270653926655E-1   -1.190009759062150E-1
 7.400000000000000E7    -8.920320241756371E-1    1.079137152006548E-1    4.694367281752827E-4    5.712746845244674E-4   -4.893564505751641E-4    4.778371450864680E-5    9.609272695877219E-1   -1.189467549005828E-1
 7.500000000000000E7    -8.875186632994255E-1    1.143484875176603E-1    9.875926133145248E-5    7.736445282401314E-5   -2.262649737788527E-4    1.621204481704486E-5    9.569991846952343E-1   -1.203680663841445E-1
 7.600000000000000E7    -8.854971339920477E-1    1.152462795028987E-1   -6.424659952348661E-4   -1.277777142932442E-4   -2.092500654172980E-4    7.642339560268697E-4    9.534274926861250E-1   -1.112967134370511E-1
 7.700000000000000E7    -8.900301432285598E-1    1.148769257385315E-1    9.206024994410550E-4   -3.592283742247356E-5    3.548054196740728E-4   -2.694776853749616E-5    9.580716903767867E-1   -1.184122872213201E-1
 7.800000000000000E7    -8.819656195634032E-1    1.133284568506260E-1   -2.202702266725230E-4    1.276293309326453E-4    2.999563551092013E-4   -3.877387093889920E-4    9.588154773959325E-1   -1.246375904246435E-1
 7.900000000000000E7    -8.808472722830422E-1    1.133550541332507E-1    1.061521410861595E-3    2.224323952303067E-6    3.363843389355163E-4   -1.011686817127365E-3    9.526804621715378E-1   -1.228321006517614E-1
 8.000000000000000E7    -8.847895411119495E-1    1.196177695647442E-1    6.252857735255152E-4    2.051514475505530E-4   -9.996857013345659E-5    5.252494847266390E-4    9.623136654488843E-1   -1.239324717326635E-1
 8.100000000000000E7    -8.855349489986988E-1    1.176720589533019E-1   -2.526231901756860E-4   -2.641660820570080E-4   -2.886142886064052E-4    2.240282905541374E-4    9.544405331854316E-1   -1.260379201779292E-1
 8.200000000000000E7    -8.860415498210598E-1    1.208388680314324E-1   -2.455105273831349E-4    2.263286252348694E-4    7.049984415361250E-4    2.825558550848384E-5    9.558451354272597E-1   -1.297451872545764E-1
 8.300000000000000E7    -8.833281416054856E-1    1.227129670765527E-1    4.104678426805884E-5    3.001913293183959E-6    1.400099029902788E-4    6.127838065803134E-4    9.494778147823623E-1   -1.328479750939077E-1
 8.400000000000000E7    -8.831853681896072E-1    1.191148534994477E-1    2.127016228743560E-4   -6.098626445890763E-4   -4.623114617794481E-5   -2.760138758587169E-4    9.633472753537706E-1   -1.324045039477152E-1
 8.500000000000000E7    -8.876940076483347E-1    1.212583317720174E-1    7.963923141505941E-4    4.048512091931642E-4   -4.752981797704882E-4    7.754637004378898E-4    9.483890317691619E-1   -1.303550581421559E-1
 8.600000000000000E7    -8.824527797486517E-1    1.285085207152617E-1   -3.145671566200360E-4    1.646723323652141E-4    2.372375443300174E-4   -3.908048185492101E-5    9.517067087828602E-1   -1.360710315297927E-1
 8.700000000000000E7    -8.897225982215179E-1    1.275228376589463E-1   -5.442904128090176E-4   -1.774411736108739E-5   -4.776024592718474E-4    4.412419795766002E-4    9.537933646592985E-1   -1.379657729529637E-1
 8.800000000000000E7    -8.793539542063270E-1    1.347456213858778E-1   -8.629914892976560E-5   -5.309363109590254E-4   -3.696607329574484E-4    8.440549360638342E-4    9.559282309023860E-1   -1.371886089585733E-1
 8.900000000000000E7    -8.800968845012365E-1    1.278114145684668E-1    6.271877957191859E-5   -4.484001159147439E-4   -4.995339407643841E-4   -2.431342266534684E-4    9.497335179818880E-1   -1.402513444672451E-1
 9.000000000000000E7    -8.837675105797804E-1    1.381985886358878E-1    2.038369791283580E-4    3.151111411195829E-4    5.282787206391263E-4   -5.275179434948086E-4    9.488857960081309E-1   -1.429747085896654E-1
 9.100000000000000E7    -8.831206914018775E-1    1.351922783796863E-1    1.087624981200469E-5   -1.645725221974085E-5    1.361839254720961E-4    5.074748037833877E-4    9.575150608975194E-1   -1.435316569716947E-1
